!Created with skrf (http://scikit-rf.org).
# GHz S RI R 50.0 
!freq ReS11 ImS11 ReS21 ImS21 ReS12 ImS12 ReS22 ImS22
0.13 -0.028208073713887588 -0.15808866429154472 0.01569607124647225 -0.011618452473582348 0.0376421049395029 0.014746724113591713 -0.04113078557289997 -0.1554857082455423
0.131 -0.02871126752213739 -0.15669966790998077 0.015636465524515027 -0.011442133266805198 0.036143921225143906 0.01132553037875708 -0.03729361985888445 -0.15455626472688508
0.132 -0.028730352092554413 -0.15420268261303663 0.01565973687981063 -0.011511182993015701 -0.06741352396939489 -0.03894188967829583 -0.03849100844620062 -0.15516439452916822
0.133 -0.030149042559188224 -0.1531072078015313 0.01563341968580429 -0.011423350965826305 0.05518602019451392 -0.013736988476199563 -0.03769239274953398 -0.1523712505996411
0.134 -0.03084851407891245 -0.15230941263418235 0.01563617700070173 -0.011428280338949864 -0.014466112987953637 -0.06064956334431242 -0.038201305461306956 -0.14985143961478414
0.135 -0.0295465027011985 -0.14985789335639474 0.015603336923942505 -0.011403465571456014 0.04925185575989697 0.029205203801985692 -0.03854160590804282 -0.15116088651058548
0.136 -0.031906943499879124 -0.15034957279130318 0.015598784198529328 -0.01130291903602251 0.006274352448027393 -0.09258176940786443 -0.03859009523837322 -0.15204469280420893
0.137 -0.03075385409914244 -0.1481005663921345 0.01547595531125232 -0.011350815460969612 -0.01624168832835352 -0.047284901492937785 -0.0416829427991809 -0.1473231055295825
0.138 -0.031441115690435506 -0.14786586048591577 0.015543201270243473 -0.011276829838669268 -0.00728099536049699 -0.04724023120616176 -0.0401053141602858 -0.14469273300853155
0.139 -0.031577183580666336 -0.14584032612780284 0.015501560433294016 -0.011225758754356793 0.021539446142921782 -0.012028609097498654 -0.03700912901318316 -0.14590977100920502
0.14 -0.03278029281622488 -0.14449475806823064 0.015519021551762487 -0.011262590473874987 0.016260926873465427 -0.026192531212652154 -0.04007308456457424 -0.14648329786617198
0.141 -0.03269445725578741 -0.14275220014383588 0.015538540378972383 -0.01121485386035084 0.016402241990488464 -0.010445717718291376 -0.0416548216178681 -0.14008476473448833
0.142 -0.03295868830431138 -0.14254514259690818 0.015418415610222351 -0.011113051799427986 0.04246251215134949 -0.04180632627258103 -0.04390085593520156 -0.14212091016061668
0.143 -0.03277010982633469 -0.14204984610185245 0.01545484429651863 -0.011068331190175024 0.0189062151965018 -0.02033487623758617 -0.04019329651020788 -0.14057908436818084
0.144 -0.03391510011758064 -0.14026762075951998 0.015359875514745724 -0.011158778255458027 0.013497435457228382 0.00544423250260887 -0.04329047897383477 -0.13941055899269886
0.145 -0.03430435152930861 -0.13923338556177403 0.015374729517705047 -0.011108233647706677 0.007864649452724781 -0.0021529827759127255 -0.04541181109740183 -0.13820824617193123
0.146 -0.03455304300299627 -0.13745519901663916 0.015466360897498664 -0.011004309602852293 0.08224856718993678 -0.026222667304874533 -0.04236367603605304 -0.1398044014281005
0.147 -0.0341524884878573 -0.1379810980102971 0.015335716982422906 -0.011037476055495633 0.04307709640055744 -0.003346739987390879 -0.04276578299361688 -0.13468037049731463
0.148 -0.03537929174077919 -0.13510118278601285 0.015448041294933641 -0.010965639478464387 0.010579402578635455 -0.06484864479425954 -0.0406080888007269 -0.13654516724268148
0.149 -0.035718801576938276 -0.13439485270139373 0.015245003253489686 -0.011095364205180739 0.034528167081870495 -0.006907069430357544 -0.04610879833938716 -0.1319894146104097
0.15 -0.03597693057034296 -0.13406382434139383 0.01524588675280485 -0.011076543220085259 0.05651663581706059 0.015582249246273945 -0.04566503853224227 -0.13369704625269677
0.151 -0.03596199758406159 -0.133215762706947 0.0153251710021463 -0.010955898139952947 0.05660320234254202 0.012432329682303778 -0.04624746721978895 -0.134671469500763
0.152 -0.036413854592454324 -0.13183163177462567 0.015344882942423898 -0.010940630909867547 -0.00010168891045722546 -0.012004523699336843 -0.043832089928207286 -0.13339446527042848
0.153 -0.0359462308917177 -0.13128823011087204 0.015393805974852742 -0.011047559973882678 0.04553122976167307 -0.0076128060281828065 -0.0470988100316332 -0.12941769619665314
0.154 -0.03745263786741458 -0.12997091502794686 0.015336695617102323 -0.010833593433770609 0.019381773370499896 -0.01339896587293725 -0.04430234079628752 -0.13329237013438203
0.155 -0.03676960630932598 -0.1281941051195839 0.015193458242187636 -0.010954744879769102 0.010289144894129885 -0.013862596838552376 -0.04571880999995649 -0.13069815541245233
0.156 -0.036878368336111106 -0.1281807501866364 0.01526605628968769 -0.010810327653919092 0.0662140891909115 -0.04570002633532654 -0.04684749964384606 -0.13023883037958306
0.157 -0.03741724849118932 -0.12782400566758936 0.015159880857184975 -0.010806589045354172 0.023096576395106684 -0.005258823796463678 -0.047628157825039555 -0.1274276331296401
0.158 -0.03743329482434308 -0.12458575200344331 0.015269890718564912 -0.01090691570333271 0.022581163622665792 -0.01085871414979534 -0.04859377566456455 -0.1257491236828617
0.159 -0.03756605878945514 -0.12569559060680394 0.015165906050471188 -0.01068947798141214 0.05033048279377154 -0.012303611872681603 -0.04637039251001274 -0.12575616305391268
0.16 -0.03875122782804535 -0.12463094000844008 0.015270975282275731 -0.01081551077699865 0.021199813300230727 0.007437353397631657 -0.047639275585198024 -0.12076959403700673
0.161 -0.038462235895460536 -0.1245271386299329 0.015187231830451483 -0.010711562499065274 -0.01837506999574525 -0.00820868247177851 -0.04842853303379389 -0.12456700824123604
0.162 -0.038890107422363644 -0.12202939944181115 0.01513453155635234 -0.010751622237957439 0.030250364861245663 -0.0009064847530958498 -0.04778510099901283 -0.12268787623309675
0.163 -0.038736619625909297 -0.12191112942118236 0.01522643247552565 -0.010813278743551015 0.01331483458537882 -0.0024749302161664517 -0.04825936349750825 -0.1211867801882235
0.164 -0.03894203788526931 -0.12118546566629632 0.01513598436751053 -0.010727579276471675 0.021419822429061087 0.007967289014255256 -0.04791508066525691 -0.12161288693992721
0.165 -0.038807565274779555 -0.12013551425853933 0.015126615475490674 -0.010697556267313732 0.03141457725474909 -0.0325316910551652 -0.04778633213438414 -0.12047305403103195
0.166 -0.03998092760545785 -0.11916868114341496 0.015044544535378953 -0.01084409440661759 0.04742825226784085 -0.011441584885794028 -0.04956988457470734 -0.11783627306754309
0.167 -0.038783490674848854 -0.11846507458493184 0.01513993902760451 -0.010590445642933276 0.02028789255954656 0.004795818023600598 -0.048328043328768736 -0.11865666984003775
0.168 -0.04014535789444318 -0.11735175598975721 0.015025935763415519 -0.01068279917833881 0.03518769138552379 0.016060754642679 -0.04937192414745882 -0.11754431003727876
0.169 -0.03968852255935014 -0.11580226201663732 0.014972756365673112 -0.010588772580894157 0.010731749199725705 0.01882351358656003 -0.04815651775886185 -0.11791941092636642
0.17 -0.03971341758495054 -0.11613584994210083 0.015086716091915177 -0.010659022139837611 0.0315719054301304 -0.0032105692670621553 -0.048333870167772776 -0.11751731853555925
0.171 -0.040551681964825 -0.11425065876429047 0.015057759143913399 -0.010583477263674127 0.028019796628154115 -0.009825996830427184 -0.049462572243786605 -0.11670231043694515
0.172 -0.041056332392138524 -0.11415609113060855 0.014947698290584994 -0.010564273513075156 -0.020333717546226895 0.00849635605307076 -0.048903401465773474 -0.11211382163154338
0.173 -0.040913000111038135 -0.11354386448498578 0.01505064322476952 -0.010608003596345101 0.017435008317166954 -0.012449532343491544 -0.04631483073365647 -0.11399828789295531
0.174 -0.04101896095139585 -0.11194628598400656 0.014920834653391793 -0.010582218758891194 0.031275219354264513 -0.014804037441349237 -0.050057271249900816 -0.11357915675930343
0.175 -0.04094424652760126 -0.11151203722407417 0.014936006434338662 -0.010568352064610941 0.04201883384263818 -0.027943559577205186 -0.04894808254536582 -0.1120131381440297
0.176 -0.04093429046949367 -0.11081432425542814 0.01493826849859227 -0.010586881616450404 -0.007073652233010351 -0.0016464340881948768 -0.04867059131133339 -0.112967994813456
0.177 -0.04146503576703095 -0.11100285455326067 0.014952327365760689 -0.01051715066871091 0.005614861517507669 -0.003998313841221402 -0.05105463208831175 -0.11134740684434613
0.178 -0.04078877771380005 -0.10988192307174788 0.014980220636842543 -0.01058514629717647 0.02625817985196406 0.0134560101169741 -0.052724237886811666 -0.110145438700299
0.179 -0.041223769107926356 -0.10896949088562242 0.014898026662230935 -0.010657143415969524 0.03654345209611652 0.0083532241383868 -0.05030816303603234 -0.11054704109501107
0.18 -0.04134808173880357 -0.10804347845363145 0.014865462177423672 -0.010550517979021007 0.01276434653433497 -0.001963035910411753 -0.052011446189016305 -0.10933557893684295
0.181 -0.04187169376788428 -0.1071595887406082 0.014835144138747734 -0.010621870685905834 0.01512703676729952 -0.011485047430573084 -0.051561190838849774 -0.10891523788898891
0.182 -0.042650527694342535 -0.10665639858445941 0.014818716290561699 -0.010516719387851758 0.06014845646529294 -0.010563449027525559 -0.05310402984097312 -0.10714191752563111
0.183 -0.04213156803782867 -0.10546074173261583 0.0148627198674745 -0.010560785087697422 0.03927804987644841 0.011409327765076444 -0.050797001511515776 -0.10681263645479395
0.184 -0.042266915017158825 -0.10513666147786459 0.014835102975230144 -0.01053216086409553 0.013522105646703555 0.013770620320109237 -0.054415967482053754 -0.10645111428412005
0.185 -0.04301369921288448 -0.10394479314237913 0.014862567213087546 -0.01039960624065249 0.01455757340271232 -0.01692575801057408 -0.05087499365253209 -0.1051482183117098
0.186 -0.042474451013798944 -0.10353742633081522 0.014818786127940804 -0.010455815639646858 0.02571215836638418 0.027963130329217652 -0.04990295823268353 -0.10492962207580768
0.187 -0.04257332996735858 -0.10232957720127007 0.014819090880915126 -0.010509261327208743 -0.011928845954300127 -0.010504301574521365 -0.051662511068174474 -0.1039735190610859
0.188 -0.04216515902309889 -0.10250891479333545 0.014827978549386793 -0.010486984325743489 0.018138281570282525 -0.030106175312455158 -0.051148344993886395 -0.1055463476442016
0.189 -0.04225122332569133 -0.10141113858013019 0.01489595062846137 -0.01059360036221511 0.028307384630614274 -0.013385122336594646 -0.05215097395634777 -0.10343283991137488
0.19 -0.04282673089554712 -0.10150992769624545 0.014693524401390825 -0.01063375561214619 -0.008414968254973683 0.008101827884258627 -0.053776369974401085 -0.10062137152077515
0.191 -0.04348776782411446 -0.09963777274184821 0.014778849865554106 -0.010616121390235806 0.007513567544552364 0.005518054958258422 -0.052019472369889436 -0.09952625757791522
0.192 -0.043634852987738164 -0.0991169395235414 0.014794009236196887 -0.010488906148548418 0.017036691723312743 0.006460564337184829 -0.053568688396873954 -0.10114555560727034
0.193 -0.04346064649186149 -0.09897563960094839 0.01469382255257282 -0.010624030688253563 0.020259622224086192 -0.002911457989072 -0.05238359777806731 -0.09838874727356028
0.194 -0.04389759110369363 -0.09778841293857758 0.014775224472475687 -0.010499551095434946 0.007848684228590598 -0.006590516646869144 -0.05189393713431802 -0.09963272547393971
0.195 -0.04383999379037073 -0.09792590571247502 0.014754559133354033 -0.010370213697487713 -0.004006742571143218 -0.030548027201499947 -0.05337978053537072 -0.09863026636943398
0.196 -0.04289227267555249 -0.09708553876661012 0.01470721348955587 -0.010568508976231726 0.02444438387999254 -0.006969721495743719 -0.05277733433024182 -0.09855763688600269
0.197 -0.0446958386518399 -0.09575766044180666 0.014637652078478633 -0.0105232589847301 0.0025323987370109995 -0.0037619176967811107 -0.05117483339463987 -0.09890978942809539
0.198 -0.04407875852433403 -0.09612590208468198 0.014674202324174913 -0.010507587292417396 0.0012108591179162658 0.00703551348346908 -0.05518196320248556 -0.09823220434681346
0.199 -0.042702838588664666 -0.09485230768378329 0.014632544920985018 -0.010459390675157386 0.00035768536938379845 -0.012588715152252503 -0.0524702840239631 -0.09572432100664255
0.2 -0.04407718977823851 -0.09412507366597395 0.014595070456269302 -0.010367244434511246 0.03193738698852475 -0.010783268818765533 -0.05264176835383391 -0.09636008175177839
0.201 -0.04425680641753653 -0.09404652168656419 0.014591967245785886 -0.010484964729556298 0.03830515131743821 -0.010277055961582524 -0.05347598133703295 -0.09515942093395988
0.202 -0.044758757219146246 -0.09417350395840123 0.014670885543180936 -0.010388007021900071 0.01605962166598421 -0.007157548282272459 -0.052933492885124896 -0.09187831130878787
0.203 -0.0442021544476931 -0.09245421227132367 0.014608689557518427 -0.010414110102349943 0.013588971496785562 -0.017208512537264724 -0.05260102927285536 -0.09256672976332281
0.204 -0.0444970883606917 -0.0920496071202373 0.014495781123866082 -0.010493577030041883 0.033051145514345834 -0.02006750683632234 -0.055303508247064995 -0.09189691833277208
0.205 -0.045101849563601935 -0.09158537869334965 0.014602993666636949 -0.010461068105145332 0.011385144000524762 -0.020472584437724813 -0.05260690879487313 -0.09251706148483946
0.206 -0.044512318060795635 -0.09061229617760899 0.01463381102872008 -0.01043995118556161 0.022506078692277075 0.007771957990071346 -0.05328257853009144 -0.09194539123629812
0.207 -0.04408456230911477 -0.09058156584302564 0.014570601375581863 -0.010507125235039069 -0.012764090121865206 0.01086004657905977 -0.05438455806704842 -0.08991147346952223
0.208 -0.04484600209802512 -0.08985275455216496 0.014526686647844431 -0.010484856857061367 0.009635556031825325 0.010010636045783866 -0.05357051040474491 -0.09035066607777244
0.209 -0.04464651050172017 -0.08936444254916867 0.014608771512064862 -0.0104188032350527 0.009393921966892507 -0.012063937322982866 -0.05172751676374656 -0.09010851912015838
0.21 -0.0441518500731345 -0.08882259916156231 0.014436705024096524 -0.010497953520198968 0.002836505818533935 0.0034972392691038764 -0.053631817898184934 -0.0907341612907754
0.211 -0.04506990799693036 -0.08818656185091303 0.0144827527241623 -0.010561645720412138 0.009472606232257381 -0.0012896201347042903 -0.05414735462388194 -0.08767397245759533
0.212 -0.04460185224531188 -0.08758979510668764 0.014565582481638582 -0.01047618255634822 0.004240971672438649 -0.0029777921017773534 -0.051851918465908524 -0.0886371741931484
0.213 -0.04545659270531934 -0.08695890582990415 0.014477091914028333 -0.010510468652111691 0.017073491986071068 -0.018770077026948776 -0.05489093612770069 -0.08694341498382599
0.214 -0.04551293095781349 -0.08606858451882549 0.014594799526059521 -0.010428750799693222 -0.00827505130646965 -0.03370281961978371 -0.053065376106319555 -0.08716621703940133
0.215 -0.04457417372258464 -0.08595459335465042 0.014508380841019415 -0.010411855255773728 0.03390160782298808 -0.023285812627167418 -0.05252980061114456 -0.08668300369636367
0.216 -0.04501352686608992 -0.08502484063587594 0.01445476178282177 -0.010414663620243937 -0.002526280245975992 -0.019648528679904353 -0.05366197424204673 -0.0865949254032617
0.217 -0.04518440590934477 -0.08474815913278473 0.01440155308806455 -0.010566578673329389 0.015944796325304003 -0.030008873465999883 -0.05352785097738842 -0.08524730426415666
0.218 -0.044570777125661 -0.08438094861334529 0.014492195073422417 -0.010483108063509916 0.011807460385882276 -0.0012846674614635106 -0.053098610446954776 -0.08585361643984582
0.219 -0.045660603461559854 -0.08343680363292362 0.014480455996928985 -0.010523358640191497 -0.0005846986124763894 -0.026117493537745878 -0.05422981916502084 -0.08266896682418942
0.22 -0.045342968216413884 -0.08332457285735835 0.014448708847514828 -0.010410211576995735 0.013945698585909298 -0.009443801166566465 -0.053267614235808426 -0.083313586756193
0.221 -0.044886620510522064 -0.08282263673258845 0.014480516268294552 -0.01061865604304599 0.007707248704855653 -0.012265865031652029 -0.05219837412222583 -0.08319166465003384
0.222 -0.045006867620240885 -0.08191342103726708 0.014330474641238142 -0.010501512501673952 0.0240987028290818 0.004041531735652279 -0.053855537486020476 -0.08229078364434848
0.223 -0.04528693666160578 -0.08152959025270828 0.014341261881735247 -0.010540625983981823 0.023716892534592936 -0.017253015863713878 -0.0567494174956568 -0.08065296918066374
0.224 -0.045566366558895184 -0.07992836947375226 0.014387883487356172 -0.010514209097458739 -0.009697261079962138 -0.005819595455971621 -0.0551543301515884 -0.08162210339721032
0.225 -0.045377936085352226 -0.07991134354835655 0.014396907325177928 -0.01056378928277038 0.010360678136935746 -0.015500745641689776 -0.05251947937383643 -0.08043916990244873
0.226 -0.0450689966051155 -0.07971817796551436 0.014419156155425916 -0.01040201300943053 0.020149782078999798 -0.015513090596951924 -0.05187705520384232 -0.08096416214051808
0.227 -0.04602395211101279 -0.07881637394666866 0.014392448657740019 -0.010481106565306063 0.025312645227833656 -0.011057685910233839 -0.05302153432759357 -0.07993935779811288
0.228 -0.04555956006167418 -0.07865715744357935 0.01432417626445798 -0.01070583223712459 0.028655057137546125 -0.007971879424831102 -0.05450682180690182 -0.08016818397784034
0.229 -0.04549370756150884 -0.07792309713821739 0.014389540228793954 -0.010417752428518402 0.025137385751406748 -0.019063644101227694 -0.05408249947873724 -0.07942172711003458
0.23 -0.046135715094450414 -0.07787839018796354 0.014201006716377852 -0.010509108195566793 0.01111336187214636 -0.0074220115032422014 -0.05424877984058201 -0.07766364742786434
0.231 -0.04575448197792051 -0.07621674128098488 0.01444554530674956 -0.010474346864799903 0.029605053078345343 -0.006363033591153154 -0.05297664622790015 -0.07765520637958565
0.232 -0.04616442965670634 -0.07655927400722576 0.014318155181395478 -0.010488798388061252 -0.006703014428475482 -0.012274088951546362 -0.05344336259910684 -0.07757840184541549
0.233 -0.046411982846701984 -0.0752122136386977 0.01417193139144219 -0.0105643234026201 0.017528326886197775 -0.014471947645593371 -0.05342969632859062 -0.07675546742533068
0.234 -0.04590269302513935 -0.0758041143926891 0.014226933825455762 -0.010408663126203437 0.02598206911522147 -0.01600214412878021 -0.05490110075545009 -0.07547393042991729
0.235 -0.045563046956139656 -0.07505552143220558 0.01418974454779501 -0.01060889048317078 0.008005723904264196 -0.015496452523453141 -0.05312700962088471 -0.07386879740582673
0.236 -0.04655035736089761 -0.07470823227070987 0.014220466208554 -0.0106077654320774 0.018707431826452875 -0.0064526057004350695 -0.05507564027405023 -0.07482033220699766
0.237 -0.046300544138157 -0.0735112083872097 0.014182802418870774 -0.010471836542977932 0.0003979473447332915 -0.019600440724405546 -0.05304589775268857 -0.07389338540744644
0.238 -0.04566912181269272 -0.07386171493720657 0.01414106124655237 -0.010478413749510916 0.028282655250393803 -0.001117606378176326 -0.05316899956685035 -0.07409991723814331
0.239 -0.04663890478774961 -0.07408845120344665 0.014182554887248448 -0.010584807243097813 0.009971352397359986 -0.0005266632572777707 -0.05245698758370593 -0.07349247313777883
0.24 -0.04608389019971578 -0.07212598156097853 0.014140905843724723 -0.01054794690333728 0.025720534830150354 -0.00469874537352084 -0.05564584594570059 -0.07225315219479898
0.241 -0.04638757899544339 -0.07103604949038117 0.014087601806501813 -0.01056140427909751 0.013169436372814014 -0.016920683486299205 -0.05355089114570011 -0.07408517520629154
0.242 -0.046328910559037574 -0.07158433108050738 0.014067671153704315 -0.01052273807565023 0.02895440711514067 -0.0042697604372567656 -0.05485318868267736 -0.07233897831188739
