!Created with skrf (http://scikit-rf.org).
# GHz S RI R 50.0 
!freq ReS11 ImS11 ReS21 ImS21 ReS12 ImS12 ReS22 ImS22
0.13 -0.028388409310353763 -0.1563444846130844 0.015741128776909807 -0.01162682170690443 0.020894755645617432 0.019479985620308726 -0.03689507673129042 -0.15620451454355047
0.131 -0.028147594629692626 -0.15613778150455168 0.01569476243491481 -0.011415574978948273 0.04604822687498977 0.011469033170836024 -0.03687754969249633 -0.1531411185560016
0.132 -0.02887171383722576 -0.15444552218686547 0.01571824039431013 -0.011457215251124447 0.05511866885788165 -0.04535194580616699 -0.03878895408981396 -0.1555424247818026
0.133 -0.029366699762293367 -0.15246063593287076 0.015636236458857075 -0.011498903530738064 -0.011637484141609724 -0.0359893095602877 -0.03739086618140249 -0.15291827655248905
0.134 -0.02938088000009452 -0.15211889582291993 0.01561053619026439 -0.011391252567669027 0.07481150757436376 -0.06348205548615453 -0.03803845969204128 -0.15294989990218316
0.135 -0.030339596387674878 -0.15003826526908004 0.01558017154282842 -0.011395497545188255 -0.025340081418318994 -0.004408478559553311 -0.03845016262711072 -0.15263309208456324
0.136 -0.031655075509898045 -0.15054267469453178 0.015578637521100632 -0.011335240099275447 0.06689920048162744 -0.06851168541506931 -0.037171426515269376 -0.1501556024699527
0.137 -0.031136286175864343 -0.14810057536446922 0.015530700949971351 -0.011303905429493253 0.03891870000299913 -0.023941285394475972 -0.03963898972912243 -0.14617391148179265
0.138 -0.03108172241441309 -0.14713059165498532 0.015508862849695992 -0.011298379484644551 0.0033710252944391217 -0.014533569460669275 -0.04333640692656408 -0.14682674965105288
0.139 -0.031219634137745082 -0.14592979510422385 0.01552988785075699 -0.01126454440886079 0.01993094836379774 -0.08442394815636803 -0.038620024255882436 -0.146832187453752
0.14 -0.03275204860152908 -0.14519362364559762 0.015524737493632694 -0.011216406625890319 -0.02741438971960339 -0.054572882975428505 -0.03953500214966969 -0.14480314015633386
0.141 -0.03281109761321792 -0.1428549078269978 0.01554049423174124 -0.011206088649207096 0.024004343649730652 -0.03867697517874835 -0.04249273303283427 -0.1420058304892862
0.142 -0.03278669171916982 -0.14414043169476212 0.015440988291699436 -0.011091447969851363 0.07481323329973961 -0.045090235254795934 -0.04221900321020599 -0.14197873425802965
0.143 -0.033283872313677736 -0.14193394670651124 0.015434071607400275 -0.011118321210854171 0.02308658427468381 0.008736223875244854 -0.044934319489159186 -0.14146092103588195
0.144 -0.033457979502639394 -0.13970290543731548 0.015367150749842764 -0.011123688914920354 -0.03411161504771827 -0.014094350210594393 -0.04327227923606267 -0.14123908796302478
0.145 -0.03507565650151176 -0.13951959775411613 0.01545168762486102 -0.011062020427202503 -0.008616359354450298 -0.019367993296325 -0.04385554110353688 -0.14042957528960567
0.146 -0.03400379719900617 -0.1378284939816951 0.015404100416421837 -0.011068932723724103 0.02027406142794943 -0.01570041061905499 -0.04165824279345446 -0.14038218005940536
0.147 -0.033168735209704744 -0.13735143411084655 0.015323362212981037 -0.01105166529591924 0.006177205217433581 -0.019074908805964616 -0.04332347642851607 -0.13462858179697695
0.148 -0.03544196040832378 -0.13532580203069972 0.015329896184535343 -0.01097280931204647 0.06512857530765927 -0.002998877011522653 -0.04128346460147527 -0.13415545907786192
0.149 -0.035039994357630486 -0.13397140825430892 0.015284080329827152 -0.011086718373050515 0.03516642106088853 -0.009634018034794 -0.045451942538314964 -0.1330390578966999
0.15 -0.03592007409641163 -0.1338221402197361 0.015277864382053741 -0.011033366357712677 -0.0009874742239850565 -0.014119400173428593 -0.04479060473585641 -0.13547798290207386
0.151 -0.03523787840663704 -0.13350285310782473 0.015412936316270597 -0.01091708357197542 0.044868461961060764 0.022213921307355333 -0.04686253396011021 -0.13237371385846253
0.152 -0.03610165799344582 -0.13194995492804362 0.015386707946862055 -0.010873868640524458 0.04147987158017678 0.06006241441077244 -0.04535668115823621 -0.13584068437399913
0.153 -0.03604377806521273 -0.13131872597334254 0.015374937557112271 -0.011143615253224642 0.05031518462432668 -0.048856634772583764 -0.048732082540965886 -0.13013428414212963
0.154 -0.03619126963575604 -0.1304509015145879 0.015341920785123135 -0.010777161816103007 0.03326647993076397 -0.015412594309012794 -0.047737189131045764 -0.13057155549457966
0.155 -0.037059756002205894 -0.1283654669540995 0.015245722066803375 -0.010901470803428225 0.0366115300634074 -0.017395006078142143 -0.043310822189732465 -0.13072281697681307
0.156 -0.03794534946980157 -0.1275447552172654 0.015234087035983434 -0.010817642351145074 -0.003324818702106967 -0.025510904063196484 -0.04611070585329897 -0.12986659500248737
0.157 -0.03704326870622089 -0.12709328463459554 0.015317059396989453 -0.010754717548273294 0.03884527607558631 -0.037199301074690286 -0.045379780025707875 -0.1273607839542999
0.158 -0.03780459806505863 -0.12562483782390546 0.01528298789039242 -0.010813162884574479 0.03943690487668072 -0.016952571086058913 -0.04525096541054667 -0.12488533076476496
0.159 -0.03798981204085557 -0.12604234052336064 0.015140162328544482 -0.010753119788369458 0.039106469231847074 -0.004128873032980096 -0.0477934167807101 -0.12615147268507368
0.16 -0.038260184539915254 -0.12379376020483619 0.015154174359639484 -0.010773086464754077 0.006841861991842128 -0.009721109438052258 -0.046378622727119914 -0.12392889542379316
0.161 -0.03809290734128986 -0.12338758266308292 0.015253342233331113 -0.010714363802920093 0.030745133835423655 -0.03468238252592293 -0.04951143732479493 -0.1257822340000746
0.162 -0.04040698057000545 -0.12333814661240936 0.01519866264899534 -0.010747399130662942 0.03386507024499916 0.026786360436514552 -0.0479319996903666 -0.12246095800540929
0.163 -0.03813557098025435 -0.12203501765439033 0.015244183928582034 -0.010716417063250803 0.025882922784157467 -0.0186236363338097 -0.047667893705742856 -0.12310446236125758
0.164 -0.03930674644670859 -0.12083873671150432 0.015027225236184868 -0.010650769270016408 0.02668276785899578 0.015172350462304302 -0.04918786347801483 -0.12055968846474999
0.165 -0.039889356480918944 -0.12052149014070351 0.015096963429634812 -0.01081342293281311 0.012784391569803861 0.03226289357668334 -0.04784792211176884 -0.12014938128315808
0.166 -0.03947521785851215 -0.11813562540335197 0.015091069179862806 -0.010768574028528642 0.013541176951884467 0.005865058837858566 -0.04860245688834236 -0.11786402405022914
0.167 -0.039987748512425175 -0.11782491190001301 0.015050404894703724 -0.01066951138439971 0.018197180541282516 -0.0029906210050122564 -0.050002740061667265 -0.11861678967633853
0.168 -0.03918845936137719 -0.1175712426642942 0.015089420867265235 -0.01061038322284792 0.010902164673657653 0.003101300301927641 -0.050347329533249066 -0.11756885548107615
0.169 -0.03943558680971777 -0.11594348977545475 0.015044236602705647 -0.010528740483482651 0.004014543006044659 0.012545758968477613 -0.048969481766787754 -0.11860842990157802
0.17 -0.03913922191059106 -0.11507085344788565 0.015018849622648302 -0.010651004460366093 0.025451627405737434 -0.0002407729804617885 -0.05024397952293717 -0.11707370569663578
0.171 -0.04047746320774728 -0.11479237908281076 0.014993799042906588 -0.010627748594604386 0.03662229779246969 0.026467612553704466 -0.05181585363981851 -0.11522248889180864
0.172 -0.040280130295713285 -0.11392112901835616 0.015019784420503298 -0.010565894834019722 0.022046927222397823 0.011422743844424162 -0.04880440656892161 -0.11231091863173899
0.173 -0.040507979279911885 -0.11316076054837731 0.0150120235656621 -0.010635886031206097 0.02935167069749361 0.009556210638216614 -0.047756836160073673 -0.1149902344807371
0.174 -0.04083059403911453 -0.11144178180311627 0.014881720053918279 -0.010631029882222687 0.023300964336974192 -0.01614992639909856 -0.05022143151956292 -0.11210499975585607
0.175 -0.04076871396206381 -0.11208287713375277 0.014985314052916938 -0.010557541215855075 0.019248387768363264 -0.02730704677754401 -0.050603511703465616 -0.11223268996688078
0.176 -0.04123863066992072 -0.11085465165481938 0.0149753932650376 -0.010539940488382644 0.05505497598722705 -0.007419290565442144 -0.0489470739778243 -0.11253450541356101
0.177 -0.04124041541750743 -0.11034517612452267 0.01493991887648653 -0.010501588468982075 -0.003532919770030827 -0.004814785003675851 -0.048701554852515386 -0.11269345133090009
0.178 -0.040678284784115726 -0.1099673319631362 0.014987811452224241 -0.010550613567955799 -0.005337770030306451 -0.010159254435268564 -0.0531244126422475 -0.11221810748085796
0.179 -0.04122729549653059 -0.10907496828766886 0.014893416732403951 -0.010659259233480382 0.022706152781743354 -0.022800347315492006 -0.04712758869495799 -0.11173339431417727
0.18 -0.04130716976873992 -0.10770330057793108 0.014823090864467212 -0.010599481295293757 -0.006639125653122504 -0.0032425107386636703 -0.05105905994949858 -0.1080657814878433
0.181 -0.041983685774774376 -0.10671712139754914 0.014846610825424373 -0.010627161417112908 0.009058383845122586 0.005385627370392595 -0.052705183561132796 -0.10927705539565101
0.182 -0.04219221029918294 -0.10684875932897774 0.01480562732640662 -0.010534336601573453 0.02119637667870675 0.010203140826737437 -0.05159859962827508 -0.10859025974489715
0.183 -0.0426311482442825 -0.10544899640534729 0.014859831406653128 -0.010611037517755433 0.04659603293019639 -0.022938129471949117 -0.0520483854039251 -0.10909043395251959
0.184 -0.042023595471853456 -0.10509001558149411 0.014873620185719305 -0.010478936413268159 0.05045121609747661 -0.029309505008870786 -0.054912235562954194 -0.10569290973700964
0.185 -0.0431965050231122 -0.10410332756894838 0.014790564512024727 -0.010444515606628697 0.03220942853109419 0.0034175353555525485 -0.05215809549520987 -0.1044895436502632
0.186 -0.04211999204019924 -0.10412755573872663 0.01478136108609963 -0.010517468349122023 0.012285283836769257 -0.0014253916141352457 -0.05037770518712057 -0.10520979110380307
0.187 -0.042601190732252193 -0.10273470254462201 0.014817444768921313 -0.010433125885187229 0.008956702712113795 -0.016436366746293708 -0.05416516164507508 -0.1048644502995749
0.188 -0.042033679532942354 -0.10256931702226335 0.014885514417403194 -0.010541485021212514 -0.011637084218805516 -0.017371007390290273 -0.052014190856775507 -0.10446053125340936
0.189 -0.04275767896236841 -0.10183707728678401 0.01483404950538691 -0.010598305973719645 0.05728698269904283 -0.005045721944680752 -0.05186600452192737 -0.10215896397444871
0.19 -0.043174398994599385 -0.10115304476604488 0.014662441370299853 -0.010531955245160806 0.018491035270622437 -0.009265195397350942 -0.05233405115580022 -0.10147219257462303
0.191 -0.04318772393316097 -0.0996525432192768 0.014867000856711879 -0.010612260554586922 -0.0006043962854965486 -0.0124249774029242 -0.05352762691801915 -0.09910917253653254
0.192 -0.04280545759568101 -0.09930525003847189 0.014830174794320226 -0.010488672851678219 -0.0066728987252793175 -0.014528552537516405 -0.0529190285370993 -0.10110725593226651
0.193 -0.04375104735591809 -0.0989156225842849 0.01470297466834405 -0.010495089417114202 0.048124586498126364 -0.02325048804739829 -0.05138456689877092 -0.09793643478876905
0.194 -0.04430449196609919 -0.09710073545910206 0.014728624480884368 -0.010529497739595318 0.019024011142922067 -0.014191560131701446 -0.050539737598307446 -0.09922312095433272
0.195 -0.043118317739359716 -0.09772675903341362 0.014714602634795385 -0.010408082026428402 0.01432412254719035 -0.015089780395499422 -0.05401609496787493 -0.0974334504810845
0.196 -0.043066051793245894 -0.09730947814332382 0.014748191739176145 -0.010480742735417905 -0.0037797597194514907 -0.0057879619296375235 -0.052835184494174264 -0.0972189700719102
0.197 -0.0436606143095566 -0.0959181312607473 0.014674630581818542 -0.010468822530713141 -0.0005385350012614173 -0.018879846689463322 -0.05143350668997918 -0.09796568771585883
0.198 -0.04347835121932099 -0.09510435557400715 0.014729884429399669 -0.01049018077956831 0.0027496322275048246 -0.007941572073800722 -0.053113950397833516 -0.09506751393693477
0.199 -0.04364666510935521 -0.09502537152983993 0.014638177704358763 -0.010512142589403205 0.017044282079583657 -0.013223874722814654 -0.052841731026923945 -0.0950229446510987
0.2 -0.04290833077049525 -0.0939483225947582 0.014619710945008349 -0.010324281966730374 0.014487988422685264 -0.01721333080137096 -0.05216024176079509 -0.09622889855489385
0.201 -0.0437700124565882 -0.09374187587461616 0.014693861611848016 -0.010514650474791897 0.02083056576417041 0.0013326575767625042 -0.0520196967575052 -0.09649938028421946
0.202 -0.04508139647712656 -0.09354506269504476 0.014704896732302016 -0.010462051576956776 -0.014281099590168093 -0.01310735175890766 -0.052713813554406304 -0.0929779097648879
0.203 -0.04362193463555086 -0.09199228446927862 0.014596169717482472 -0.010488536839660287 0.004659751952308878 -0.009318895057058404 -0.05363471413590819 -0.0929060170472122
0.204 -0.043891135328030476 -0.0911583606623745 0.014540852587448406 -0.010464542909198293 -0.017062484848288092 -0.022584590740364598 -0.05438353091922093 -0.09093535177037637
0.205 -0.04451408460764036 -0.0913657346928382 0.014496165868675848 -0.010435817985028165 0.02217982485048813 -0.009926901791167446 -0.05322469040591119 -0.09215876535171869
0.206 -0.04396746071821035 -0.09061285900997768 0.014625384748880461 -0.010451475030698872 0.00905550390911317 -0.012706746118513926 -0.053498479948735696 -0.09365072497925082
0.207 -0.044894872739089174 -0.09000966093076795 0.014597146577494688 -0.01044177728876515 -0.00738134441198328 0.015012401558105825 -0.054487456065491054 -0.08972760503741818
0.208 -0.04399647788299222 -0.08956628390562546 0.014514936997867177 -0.010516903107348456 0.0038221320421040128 -0.00559712614237577 -0.05322857371654387 -0.09041418976807351
0.209 -0.04497364103826785 -0.08915310211822507 0.01460166915708349 -0.010389963181962985 0.007747431946797188 -0.020412929537179363 -0.052658387270817515 -0.08857984941730701
0.21 -0.04351858766145102 -0.0883947791687962 0.01449585198267693 -0.010520372589255044 -0.0038573434194899645 -0.009627577099968995 -0.05321015805332083 -0.09051509793727137
0.211 -0.04524888221796061 -0.08825103996111384 0.014422681074653873 -0.010531914638570916 0.036663170267713326 -0.01889196892952493 -0.054262158194712855 -0.08903478541129889
0.212 -0.044543088599034185 -0.08669028224221535 0.014582236662559275 -0.010496768694672387 0.00828737185136374 -0.022504132002600995 -0.05337591342797966 -0.08992478055571256
0.213 -0.045603830617273855 -0.0871844869560345 0.01447083414055066 -0.010489441787027268 -0.0013350659586540382 0.007580128716942623 -0.05435837851189987 -0.08694193853674571
0.214 -0.045083253141981826 -0.08575632712522929 0.014538838939469327 -0.010416808074334715 0.003237600844243462 -0.03625052573039161 -0.05181522575891349 -0.08689047331292189
0.215 -0.044049330287944395 -0.08552907555736794 0.014528566545151247 -0.010455565012775265 -0.003053266966150601 -0.012792761181725756 -0.05319628714694232 -0.08503803062614293
0.216 -0.04492327848214456 -0.08501912099050164 0.014430366632492876 -0.01048928905440505 -0.018646310461684183 -0.009444136771876145 -0.054122567373603006 -0.08734757054584315
0.217 -0.04490340607367781 -0.08461225073929418 0.014432935886605335 -0.01059551252887898 0.026331661212358946 -0.008840855895422302 -0.05453293916900312 -0.08610752841410485
0.218 -0.04491189453421582 -0.08349760562023159 0.014513252757222598 -0.010487201687767395 0.012659592946941897 -0.0095626239924576 -0.05274047254092532 -0.0850888843862274
0.219 -0.04545078904377616 -0.0835893621800543 0.014490385816681807 -0.01050651560039622 -0.0056567323468442185 -0.00987508687978778 -0.05412789799674205 -0.08338390627432941
0.22 -0.04515058320193234 -0.08291137819808025 0.01444334221932635 -0.010398672871300274 0.0068752797169493885 -0.003226402876572843 -0.05415149264389622 -0.08382093042287846
0.221 -0.044881597299856586 -0.08251982823772465 0.01445043847975085 -0.010568884621802804 -0.0015380720008130197 -0.0019368268514550425 -0.051326705093490056 -0.08223852937335971
0.222 -0.045184208562992746 -0.08164593224948842 0.014353674853749518 -0.010566222778006997 0.01394104444824435 -0.02367878412309002 -0.05309115033605622 -0.08164159531653604
0.223 -0.04513724478846885 -0.08143920411510085 0.014391562320081257 -0.0105309374495836 0.018377694985365792 -0.01584475436676641 -0.05638780123751453 -0.0817641932032621
0.224 -0.04559649675634125 -0.08009813215329906 0.014367647509768494 -0.01053116876417923 -0.010740015004894635 -0.02155007386577045 -0.05475403181436149 -0.07993771735032446
0.225 -0.04494199182397159 -0.07972226860607975 0.014486098369409789 -0.010662542967907833 0.014121109569097633 0.005901510283905262 -0.05300275001188415 -0.07940858941571911
0.226 -0.04490137518032152 -0.07934530295609372 0.014374921729845598 -0.010460301730012778 0.025936934240030927 -0.01231319827715192 -0.055265879191081356 -0.08121402738443391
0.227 -0.046133369735956685 -0.07913181194819756 0.014339565211257562 -0.010529427364420665 0.0049611124877278956 -0.004183302955160943 -0.05372483102192019 -0.0799133600207986
0.228 -0.045676742964279315 -0.07852845108538384 0.014323621973034556 -0.010489342347565456 0.01680378930749904 -0.022742734174660183 -0.054782682167965 -0.07958249466136968
0.229 -0.045692653125690375 -0.07787166532525806 0.014353600553189532 -0.010384513001297136 0.01856891030241433 -0.005724710894034006 -0.05363502126657273 -0.07889627047973455
0.23 -0.045558134160106234 -0.07779040128074259 0.014242379319807374 -0.010547220204405162 0.010718663057091148 -0.0007206253336561265 -0.05323011097799072 -0.07857754020917024
0.231 -0.04550514366293687 -0.07658159380758855 0.014344391216149737 -0.010400927983157265 0.013178826710952123 -0.019731714306448708 -0.052990346556780255 -0.07786531629720958
0.232 -0.045711819942325954 -0.07608153305902597 0.01428064457492626 -0.010489915803494412 0.014185228004329363 -0.013268694959688807 -0.05237535755577638 -0.07742153167038693
0.233 -0.04641273583056971 -0.07585869775491036 0.014303455421511423 -0.010529292157844575 0.009739142491633693 -0.029273080480248497 -0.05384390166383104 -0.07740208349153178
0.234 -0.045452274983677196 -0.07561365058185579 0.014219045220176618 -0.010568893280297417 0.010645717479145358 -0.01147014012350357 -0.053833513743420824 -0.07647123804441888
0.235 -0.04558388642402213 -0.07553955190857832 0.014207675019838429 -0.010452388237815021 0.021131855380526143 -0.014505785549237808 -0.053692661815242085 -0.07475238202976864
0.236 -0.04596192422017414 -0.07482220659703855 0.014182532371141268 -0.010624845653667878 0.025281000805583934 -0.005985450435536145 -0.054590355254481464 -0.07424661651773108
0.237 -0.045956589162832275 -0.07387704766626797 0.014227744989142218 -0.01047759746724665 0.021156812740851908 -0.0340741908637541 -0.05383218083138846 -0.07540855638490873
0.238 -0.045932612773668065 -0.07395598416032162 0.014190525097286874 -0.010584350954895906 0.02721417168382636 -0.012622283209204025 -0.05349481375422589 -0.07348925116599557
0.239 -0.046206156569528166 -0.07348392111752286 0.01423630432707399 -0.010667124979345225 0.01677077567577449 0.0007273096220508802 -0.05331240029509285 -0.07329823169762706
0.24 -0.04617723861409715 -0.07186330075072027 0.014177844737619077 -0.010524417053497865 0.007526635212179813 -0.020882234845159664 -0.05403694469314777 -0.07256758611884886
0.241 -0.04676812754732391 -0.07184876505731815 0.014127405740748965 -0.010600685950571556 0.014145907420355744 -0.01083999888840194 -0.05316456285220632 -0.07333337150854309
0.242 -0.04641187364904198 -0.07084202573505152 0.013974079886145671 -0.010625964449140653 0.006979549998482243 -0.019632213166439524 -0.055241556073134176 -0.07203057051310399
