!Created with skrf (http://scikit-rf.org).
# GHz S RI R 50.0 
!freq ReS11 ImS11 ReS21 ImS21 ReS12 ImS12 ReS22 ImS22
0.13 -0.02820831629411312 -0.1570340301279806 0.01591842533477769 -0.011662272092497232 0.047317865872566194 -0.032902838601619994 -0.03579279462650829 -0.1576398986838524
0.131 -0.028194879565732564 -0.1557437001539952 0.015953427390067294 -0.011514426426220647 -0.025195412266632952 0.06745616454885232 -0.03501081844797617 -0.15520517034259812
0.132 -0.028882051629501956 -0.15394089925995363 0.015945466576808693 -0.01150489831596085 0.005369507990619562 -0.028467208233796434 -0.0336534901168927 -0.15485321532750754
0.133 -0.029463045344205345 -0.15374277380623544 0.015845187484527977 -0.011467664878545815 -0.010432409487125592 -0.01686699752182236 -0.035821248365618126 -0.15199520139219017
0.134 -0.029894609901118963 -0.15317415433422557 0.015851521235327765 -0.01138585758486379 -0.0748569684758425 -0.062022004082842655 -0.03647474861898716 -0.15266690556875048
0.135 -0.030758335599004517 -0.1501830155562681 0.015743745225274094 -0.0114272162740443 0.04898819140079595 0.01830023129564846 -0.03674181883362008 -0.14986449368267096
0.136 -0.031161234678194736 -0.1497836903377017 0.01577954990657397 -0.011371905687932527 -0.002921883530239986 -0.021353722547092734 -0.03542555780607793 -0.14994798065466963
0.137 -0.031000659335934943 -0.14808785413270112 0.015730393100255497 -0.011358126379569787 0.0010508772198434496 -0.09403132177311752 -0.037820384391693225 -0.14485776799840583
0.138 -0.031432657138627564 -0.14765344560222854 0.015729889860921158 -0.011366359467837638 0.042784092259064474 -0.02342149503486984 -0.03742607083773914 -0.1462576295775072
0.139 -0.03199572631406052 -0.14597748267410537 0.015694693692404654 -0.011363249477660157 -0.018377974783529538 -0.009902732204418235 -0.03438696722857594 -0.1473631731484353
0.14 -0.03293717768664192 -0.14420439422729178 0.015719995172925553 -0.011273471655749497 0.03203264707739307 -0.020164511346880024 -0.038012961844679574 -0.14512559960389035
0.141 -0.03280066122163903 -0.1426372029321548 0.015782759464300647 -0.011191576345809067 0.06680139964774938 -0.042649188989215187 -0.038019586878069306 -0.1409016464128099
0.142 -0.032748530592787824 -0.1431737909377105 0.015622195599388204 -0.011218968949844763 0.010306681800155126 -0.06295458516926015 -0.04082771160677288 -0.1414058297690668
0.143 -0.03340597172699191 -0.1419797396068958 0.015603347085990498 -0.011118764431962875 0.009997247191515728 -0.019999667554544773 -0.04076186936374503 -0.1382119186813031
0.144 -0.03376328169374502 -0.1396976841137697 0.015543616737530247 -0.011179716000884453 -0.04238521016783279 -0.00846372877301627 -0.04020191551771428 -0.1387296080663101
0.145 -0.03415053753128082 -0.1388144404289082 0.015627782156425726 -0.011114145159603475 -0.00026469285248968997 0.004591073920367941 -0.04144350605522687 -0.1370297109866363
0.146 -0.03394610321431161 -0.13860459219913782 0.015601229535587619 -0.011119703770485824 -0.001585216560926936 -0.009810174749511657 -0.03965064911017527 -0.13841380593920619
0.147 -0.0337891132554029 -0.1374209576391234 0.0155769725055259 -0.011068776440745462 -0.024038743316458833 -0.04872380865627541 -0.040907174003984276 -0.13487559296492183
0.148 -0.03477891878443983 -0.1355203059446461 0.0155797284880594 -0.011001565152772714 0.0005141050318277195 -0.014988439653306535 -0.039867551130503616 -0.1341510099546959
0.149 -0.035075470524233605 -0.13430670288499214 0.015512948716815338 -0.011130249615572192 0.010681304679447093 -0.03643316149176289 -0.04194974970008024 -0.13102083901697614
0.15 -0.03504880825509285 -0.13439155136862332 0.015535378037615882 -0.011030815971683601 0.0008060230165380251 0.019065931164556866 -0.041163314394147006 -0.13324096293798768
0.151 -0.03519254707249555 -0.13328576460975491 0.015471152680020415 -0.010980269017708433 0.0390110657193418 -0.014511980420024077 -0.04053727598432791 -0.13106117831170838
0.152 -0.037479481749691214 -0.13202639068989475 0.015449957253535441 -0.010922421618584453 0.026629343113724297 0.008326081229311172 -0.04187013225487043 -0.13188552736431639
0.153 -0.03630685035364736 -0.13132860999157775 0.015581157274532775 -0.011099022814330572 0.0024182520236301986 0.002437221689757717 -0.0445324330271609 -0.13164466667867422
0.154 -0.03717442106000727 -0.1299635848678678 0.015430163705085534 -0.010870040275318035 0.05060201117082399 -0.03813387961196533 -0.04301531800507098 -0.1294199446851822
0.155 -0.03701785191503758 -0.1293388205609633 0.015384693031876624 -0.010987957083173606 -0.022892644135510586 -0.015925611580384545 -0.04337800214250682 -0.12964832026871456
0.156 -0.0373863270708631 -0.1282076433106763 0.015495129542353185 -0.010815253813315487 0.021638936055100602 -0.0016625227549180305 -0.043977965504072535 -0.12944370728986299
0.157 -0.036930633788531904 -0.12699912776771674 0.015407176332596575 -0.01076652397948952 0.0015219517608633366 0.011468488821513212 -0.04449349994167589 -0.12725682117108642
0.158 -0.03854573853306515 -0.12567164985350063 0.01555363233888586 -0.010996746491685628 0.030292613292560663 -0.04192691237896362 -0.04553042285506116 -0.12451505338546141
0.159 -0.037766912384739185 -0.1255461461271072 0.015427945175138865 -0.010676890553539377 0.024898399877908848 -0.013701838567500187 -0.04679547479706712 -0.12643358673050883
0.16 -0.03742447926522506 -0.1252649420337276 0.015506930786631096 -0.01091118313573058 0.046660650729326916 -0.008775576580140157 -0.044463405523297306 -0.12359920535322097
0.161 -0.037773056035912016 -0.12345558413662763 0.015437829107841297 -0.010834959042165917 0.02304279881538913 -0.03524528771783345 -0.04513248184873909 -0.12611489268413767
0.162 -0.04036164686470378 -0.12255542724269783 0.015380429075378689 -0.010887432593581839 0.041793278129477265 0.0012299496178277344 -0.04512254922985712 -0.12247603643646994
0.163 -0.03847892424746587 -0.12226015705677508 0.015401702992421093 -0.010799389453948434 0.0243792802624726 -0.00904082012585689 -0.04550702825614469 -0.12184649131795981
0.164 -0.039332040915037565 -0.12091811332182895 0.015380974736372106 -0.010763577209428894 0.014132288059637134 -0.00681303992573029 -0.04730394128772273 -0.12050107727602198
0.165 -0.03925288641587525 -0.12011895119490441 0.01533549456204078 -0.010683177948277417 0.03045882831585527 -0.011733108510314713 -0.047159478642982165 -0.12040958968764515
0.166 -0.03948426328835994 -0.11966184351829723 0.015246498353713828 -0.010791844487815642 0.02382164846748813 -0.011544494404048228 -0.043766471842436844 -0.11807116280983247
0.167 -0.04029112566360536 -0.11852710105468012 0.015278044481967156 -0.010675253448157384 0.01668446912469977 -0.0499942739121699 -0.045805771852612226 -0.11799500343050776
0.168 -0.03930794425021723 -0.11771521534658172 0.015334725953702437 -0.01074254593352681 0.00931221815774026 0.0010616082739054668 -0.045829860958432785 -0.11654664621762682
0.169 -0.03895950707991457 -0.11540149664356314 0.015252231482224377 -0.010692762130339371 0.027554727035790393 -0.014163498326602327 -0.04675045449977447 -0.1188641558332491
0.17 -0.039587868347256715 -0.11511795381946019 0.015290940816118882 -0.01073126728940278 -0.005957482904906768 0.007514141386497974 -0.04615181202495268 -0.11826587411169061
0.171 -0.04030577242363496 -0.11454633739889931 0.015214806278792648 -0.010646945680689954 0.0035081844530670974 -0.023201851149979746 -0.047161204693802666 -0.1180855349893275
0.172 -0.04052100563973863 -0.11457531825941802 0.015236104144744902 -0.010659121074654736 -0.01731226813868756 -0.02319964908865589 -0.04736732164258204 -0.11210884689588249
0.173 -0.04031276908711761 -0.11398118737339573 0.015222375670221529 -0.010685288379100637 0.03484579472270328 -0.01763657748510978 -0.04344858549207351 -0.11294391839341923
0.174 -0.041621561528783144 -0.11189450408940539 0.015158395513315931 -0.010669995980708604 0.015295760601032328 0.023858762890613214 -0.04564429504997176 -0.11216360314212957
0.175 -0.04089563513689305 -0.11153926650375849 0.015140574738435178 -0.01067890184147187 0.030334837603804544 -0.016325746270363484 -0.047520319508570885 -0.11143986252952881
0.176 -0.04121368845678943 -0.1108670336631178 0.015160489935996039 -0.010651460041926788 -0.020156663011095345 0.0030141234535233014 -0.047510219764755154 -0.11257109114678436
0.177 -0.04047342037541015 -0.11019449221441063 0.01511384979798083 -0.010617535558575824 0.04117355668322111 -0.008547445193102554 -0.04719416345158846 -0.11022818568539501
0.178 -0.040830552637488075 -0.10999709973341745 0.015185078482723215 -0.010620846188569044 0.034415284188332756 0.017477568029687713 -0.04797136222310023 -0.10964460197622128
0.179 -0.04147924716785657 -0.10863320894765635 0.015077620524924593 -0.010697818986769022 0.007629859094683789 0.012278665634660646 -0.04538710261712421 -0.11100577117216023
0.18 -0.04112101378712142 -0.10741747187628888 0.01501655274256919 -0.010656757616167226 0.01772379153049106 -0.04526238015776278 -0.047863397566020226 -0.10827135673371577
0.181 -0.04197506387314007 -0.10730024571029821 0.015029085030189545 -0.010667426276836504 0.0009734929139145246 0.021880719963122852 -0.0482266632114941 -0.10757612443879157
0.182 -0.04197091247385684 -0.10684551855883788 0.014986189283532366 -0.01061919817069923 -0.0007109240088820541 -0.002104023451933465 -0.049235140099403274 -0.10813983152491419
0.183 -0.04260466259618468 -0.10567714176160008 0.015036523503726133 -0.010658993964053527 0.00022851003345616941 -0.022840584951442172 -0.04799853156086374 -0.1092783762218288
0.184 -0.042447607427613394 -0.10514315678783537 0.015060112487400851 -0.010638573387372015 0.027713610908484756 -0.00909820814724031 -0.050549635497135426 -0.10561720359189057
0.185 -0.04268540280105253 -0.10428526305247451 0.015004619716408983 -0.010584047264786187 0.05682425963637077 0.032684862061554104 -0.04858741089463836 -0.10457147781107635
0.186 -0.04237414781321895 -0.10344662348585719 0.015023252161493653 -0.010543395764057724 0.01629766569855995 -0.00578152048139948 -0.049686304509568534 -0.10626278491024733
0.187 -0.042621287391548926 -0.10237635064395319 0.015079355397194577 -0.010622481609716145 0.006067611193833276 -0.00812651236829889 -0.04975038956775869 -0.10391569760479927
0.188 -0.042506622180772745 -0.10198424989642009 0.015086054077143179 -0.010613818538910988 0.026247381623964283 0.0101810593360659 -0.05069079794534993 -0.10565999327417493
0.189 -0.04282708974182264 -0.10166084696804119 0.015130317284259688 -0.01060188583758422 0.0140832438137017 -0.0068904767431093175 -0.04862821688272953 -0.10324618731528586
0.19 -0.04310049923781181 -0.10136691382529131 0.014941579408224515 -0.01054306317787882 0.03326670121321135 0.0031374971520860425 -0.04977707165211727 -0.10105435660620198
0.191 -0.04352860524106443 -0.10010289477918584 0.01498793921553968 -0.010584353448123968 0.014047494592819811 -0.020803274305705357 -0.05055714043531743 -0.09948698068978036
0.192 -0.043685021425562486 -0.09961818093564749 0.015068709862812097 -0.010522604648821769 0.027544951547648768 -0.02311478373259716 -0.04784551374472858 -0.09940308048640745
0.193 -0.04377761389865335 -0.09906625840741137 0.01487459194264891 -0.010635370447623691 0.02901622367201092 -0.02004990854668894 -0.04820354350213381 -0.0975942048839058
0.194 -0.04399298447232355 -0.09775705173425413 0.014928098062434194 -0.010618739581752211 -0.013152323884938187 0.01948057482356127 -0.050359956498468736 -0.10026904445603511
0.195 -0.04341011501429732 -0.09856083680586102 0.014979634212348793 -0.010441442491389267 0.02604454827730195 -0.024592939195558997 -0.05183376213673158 -0.09779765959104376
0.196 -0.04387301915683831 -0.0960716603306779 0.014957325327700626 -0.01055359414996187 0.01818475665115137 -0.02281541641344627 -0.04915762390984171 -0.09806463704177731
0.197 -0.04427997577853493 -0.09611361757958853 0.014822307398415146 -0.010544252310721173 0.00821586325035074 -0.016295277956535792 -0.04970424009794852 -0.09807676885506501
0.198 -0.043438206487636084 -0.09615418162796756 0.0148873098249674 -0.010474267174297024 0.014294179576407075 -0.011356560212508379 -0.05025511822223431 -0.09817366672326172
0.199 -0.04325669344355707 -0.09466592394417302 0.01481716751942773 -0.010607770522828233 0.032859049542464706 -0.022474084640428455 -0.04900195525500702 -0.09337690703860556
0.2 -0.043870363062834074 -0.09441468237236784 0.014851242895347753 -0.010507086515803519 0.03972613339016237 0.009206095237520504 -0.0503719931539428 -0.09556800758421183
0.201 -0.043756000472322774 -0.09396684872335448 0.014845420624455563 -0.01062076864062096 0.025202219359627066 -0.003905360367378481 -0.04893927095036388 -0.09666070077873422
0.202 -0.044589191526249655 -0.09383697652378822 0.014858363513192606 -0.010488693041177272 0.02833928514979979 -0.009406699095357983 -0.05038951489715037 -0.0940425162099864
0.203 -0.04423898161541975 -0.09252608098103526 0.014859701834610564 -0.010499385478128499 0.02135362606058372 -0.007326574437764187 -0.05010229429769907 -0.09265833864192127
0.204 -0.04428142375298267 -0.09229201858434534 0.014783544292447376 -0.010506694370874335 0.01830244930565049 -0.01849537081340239 -0.05153941413984867 -0.09215296842585795
0.205 -0.04488732450012576 -0.0914148469272421 0.014816290842528512 -0.010531697790876675 0.018610025440143854 -0.00038420859056766143 -0.0520228441802184 -0.09283668986500701
0.206 -0.04364194999721247 -0.09026683612134372 0.014751941678978161 -0.010476185304830708 0.012023870873159407 -0.014353446580554647 -0.05095674509537151 -0.09224362120667531
0.207 -0.044790803408 -0.09021965240608515 0.014769421918341932 -0.010540685831646841 0.008083625489316732 -0.009383342185182702 -0.05319262749870789 -0.08996471592630358
0.208 -0.0447873077173591 -0.08959331723103711 0.014667010178565757 -0.01048633699988687 0.006001642292435297 -0.00045889128252447626 -0.05022082356416214 -0.09027930356849645
0.209 -0.0442395103615381 -0.08878351834402495 0.01476181180471355 -0.010533232400541548 -0.0035227942740192557 -0.014168010775669026 -0.048254805339992976 -0.08981805613568548
0.21 -0.04385514035816059 -0.08930872223129487 0.014677277854311579 -0.010590239118938484 -0.009446051584971034 -0.014781633193162464 -0.05076349181476034 -0.0928289234837714
0.211 -0.04552907383948109 -0.0881326363130491 0.014619463570080983 -0.010635087530050373 0.029857202448308924 0.0030023775421968105 -0.05181013998922342 -0.08833956907127494
0.212 -0.045159915097120966 -0.08729318705702256 0.014709091600077122 -0.010555622734981564 0.03570356351851083 -0.009211028875526255 -0.04906591282098533 -0.08949206059896693
0.213 -0.0451594065959936 -0.08729131791951994 0.014652061849867625 -0.01056035330750544 -0.0028969799954981176 -0.004544996199396732 -0.051908698170400946 -0.08639696157887074
0.214 -0.04498311688984365 -0.08564628951581225 0.014758800020837166 -0.010502299779514404 0.012634408862230719 0.013509406445135003 -0.050096692920442304 -0.0868957608762839
0.215 -0.04481777644003154 -0.08583879269820592 0.014705226084618047 -0.010486107039959402 0.012476725065225238 -0.0017344809387886762 -0.05100541243973497 -0.08663524345600274
0.216 -0.04473186515894024 -0.08507161679129224 0.014641897715097739 -0.010479556521957466 0.03330590727072428 -0.006248650996485154 -0.05186548398378211 -0.08618353538140068
0.217 -0.04504456407032384 -0.0848719006164016 0.014592195719074398 -0.010681029196236862 0.014962355397627528 -0.02174851332130792 -0.051695054069865624 -0.08565602887861955
0.218 -0.04446941545817746 -0.08368835948848205 0.014681197472111 -0.010583943202568969 0.014029496194787288 -0.016599352011759258 -0.050928050910852854 -0.08546557665955
0.219 -0.0448772369423681 -0.0831575219499161 0.014674782242266801 -0.010600813979752427 0.011525975758468011 -0.024194242013539785 -0.051352898511471935 -0.08449445470884047
0.22 -0.04518788315616705 -0.08325282279371536 0.014649839076474951 -0.01051950246222189 0.02021390801316418 -0.024901086386437284 -0.05129197416268414 -0.0848165137175552
0.221 -0.04486316218746226 -0.08234271024521844 0.014671462643050276 -0.010598965322906783 0.0009257998262030973 -0.0117918018942822 -0.049665714769182294 -0.0851414265575406
0.222 -0.04545695000828659 -0.08213114739774603 0.014536858689143704 -0.010549217902121108 0.011137394192164413 0.00621384004949268 -0.04995271899896111 -0.08219006507393152
0.223 -0.045346806891534384 -0.08155389418576238 0.014560798098804735 -0.010600879393576627 0.02372124436806592 -0.007414347423752697 -0.053762549468969245 -0.08298271900817818
0.224 -0.04521148912880498 -0.07964958456006369 0.014678727174512672 -0.010608750632465757 -0.008926279942439377 -0.01840045110195291 -0.05080351941019697 -0.0812578962011122
0.225 -0.045079421315701945 -0.07994805153028074 0.014599410898174358 -0.010749491152125614 -9.13604170924334e-05 -0.011759853046923386 -0.05146341837433425 -0.07934246141476467
0.226 -0.044992568834703275 -0.07953481920340374 0.014602563799365817 -0.010553059725693896 0.01673857179756776 -0.012795121394658441 -0.050063174024406173 -0.0801430270601298
0.227 -0.04584315064836423 -0.07897262184329469 0.01445355652663988 -0.010606472047673465 0.011869639603380477 -0.03129447359255773 -0.05063277624603207 -0.07954840007578977
0.228 -0.045870081016323734 -0.07889007397449048 0.014518561342289156 -0.010657405253732977 0.003812859300222633 -0.01331438682376458 -0.051303168355160675 -0.0802726847867399
0.229 -0.04541670744352511 -0.07763527923790466 0.014507423099256827 -0.010565737696048152 0.004803715534364836 0.0035678561922052408 -0.05117738815058215 -0.07998675788858048
0.23 -0.04596019150186913 -0.0775853038024943 0.014424231526265298 -0.010638301147463102 0.021419455122080353 -0.0018848010959503455 -0.05164600486854454 -0.07835544894632006
0.231 -0.04587053894456666 -0.07655866590169692 0.01452193305619078 -0.010463771527604747 0.02215617067001281 -0.023467091875352 -0.05078596774961717 -0.0786817274634228
0.232 -0.04603771346376644 -0.07637685163827526 0.014593627318241703 -0.010561445193050002 0.003706648023451768 -0.02037447263049872 -0.050683927418133885 -0.07925830976461376
0.233 -0.04594328964261864 -0.07516329122009735 0.014493993409051836 -0.01064121194369969 0.03100493952498415 -0.014376179534069779 -0.04960288195707565 -0.07783205670792837
0.234 -0.04605756151063151 -0.07570102760975987 0.01441859045772 -0.010547749662089644 0.01925371651015678 -0.01764438769198941 -0.051127479633755545 -0.0768969124278088
0.235 -0.04589056046813303 -0.07518234964740497 0.014390350316818824 -0.010599131746948267 0.004460752719703908 0.003260643563495884 -0.05048790790732133 -0.07589653995957853
0.236 -0.04609966341697119 -0.07428949824682524 0.014480943755770932 -0.01059138760080334 0.007673791050510346 -0.021521232865221708 -0.052682484854170514 -0.07589042782874526
0.237 -0.04574641539225383 -0.07398062822092129 0.014359336735475091 -0.010496479996367285 0.020590403764995092 -0.026923817106077233 -0.051705642419545644 -0.07538578554564981
0.238 -0.046116319313107945 -0.07323475210173454 0.014384748748335346 -0.010637810433228985 0.02121538874487244 -0.005328822677079032 -0.049981832432907415 -0.07469003185014025
0.239 -0.04649892242469192 -0.07341636031916726 0.014353894119499071 -0.010591398065066973 0.02783308695684867 -0.0025683512016666647 -0.05052005390873799 -0.07323492752449945
0.24 -0.04653159562949645 -0.07281543178996168 0.014342745953847658 -0.010631916635958206 0.00997746934764214 -0.025545104804528727 -0.05224662723833101 -0.07264421535682711
0.241 -0.046403219864941336 -0.0717123989916602 0.014192170307902492 -0.010633954927596384 0.0138438557137291 -0.011132301084815716 -0.050367667596745436 -0.07412044371694591
0.242 -0.0461636773600765 -0.07120052897085394 0.01428218465491156 -0.010701161240140953 0.009424019047239817 -0.015011221327739533 -0.05217329956809891 -0.0727360221848
