!Created with skrf (http://scikit-rf.org).
# GHz S RI R 50.0 
!freq ReS11 ImS11 ReS21 ImS21 ReS12 ImS12 ReS22 ImS22
0.13 -0.028676519152917603 -0.156658739222921 0.01651094494259595 -0.011750821950626586 -0.07092527250796377 0.02614727241017174 -0.02936318614527079 -0.1526102834658662
0.131 -0.028574131629977708 -0.1559430774642689 0.01632811305120101 -0.011628025180032883 0.003719392750179726 -0.003373677263707863 -0.026481178569969094 -0.15228677190409973
0.132 -0.028826985083966222 -0.15392645092934287 0.01643263207286479 -0.011597213935132413 0.052953419334443294 -0.06533719039224498 -0.030904520555381954 -0.15553601164311714
0.133 -0.028744111651835925 -0.15261673132184347 0.016343254472306005 -0.011613516119467369 0.049348434720216314 0.0068828999150693055 -0.029464687417671186 -0.15053380407507128
0.134 -0.030142596239427118 -0.15238779782415576 0.016323396618544733 -0.011458551875994148 0.04271729507057456 0.025926131979413312 -0.02882446504256783 -0.15081821669155138
0.135 -0.03006959974433991 -0.1497772617407177 0.01626084895880841 -0.011544449214205936 0.035978957555811424 -0.01782644151325785 -0.02798536482319579 -0.1484323703986062
0.136 -0.032214326907099605 -0.1507390351583104 0.016215739442769397 -0.011513542744833544 0.041444853510786285 -0.02405997063922083 -0.026516263916044495 -0.14978773390637154
0.137 -0.03130172019623038 -0.1483686626907354 0.016254756506182744 -0.011406698865289604 0.010735201488033887 -0.04254003811253486 -0.03035172960197161 -0.14391536832216323
0.138 -0.03125667350949118 -0.1478187519771147 0.016208973140216545 -0.01150158445986891 0.0028758282023456693 -0.012870229509191368 -0.03143235176025171 -0.14304160859103646
0.139 -0.03170948673834969 -0.14578608770983092 0.016245333373344186 -0.011441161805999146 0.005378504083261089 -0.02021838603768229 -0.031002579385162512 -0.14756792311319014
0.14 -0.03309188308172666 -0.14444443854511554 0.016203707894275117 -0.011393860081907013 0.013908941588570943 0.009690450579575316 -0.03294383856277911 -0.1428968391392572
0.141 -0.033160470050400244 -0.14391950138580314 0.016196065669737338 -0.011367098898417 -0.005613492157498168 -0.026558320772218258 -0.03242857739830322 -0.13949360973275188
0.142 -0.033572916912740745 -0.14338921042756705 0.01611047330798765 -0.011211210734545687 0.0022370000285418623 -0.03754741194486372 -0.03490795803200688 -0.14162005183390286
0.143 -0.03318967633347105 -0.1415038559753657 0.016143318148763654 -0.011230882777783252 0.005336973199000208 0.031449662707036266 -0.033165946299742795 -0.14065131828459726
0.144 -0.03434279496184349 -0.13896182800527726 0.016088112691829644 -0.01132266643976686 0.0389106101807196 -0.029270658568437653 -0.034018501979274904 -0.13806564887193248
0.145 -0.033519349183912084 -0.13930260617933685 0.016150102970157242 -0.011277363942903209 -0.0033201420666756636 -0.052256833073343334 -0.03562510253619833 -0.13780751714411443
0.146 -0.0344162475851383 -0.13735259508002254 0.016070137875634997 -0.011263433937093953 0.025324607604949912 0.0017199106648124506 -0.030693480289562997 -0.13794521093155798
0.147 -0.03306771626657005 -0.1377082191068365 0.016066905167116115 -0.011234770400023552 0.02322325659894983 -0.018232455690300534 -0.03235112252533528 -0.132524743628106
0.148 -0.034914127701634864 -0.13583172804821428 0.016028747647685113 -0.011131301350206688 0.03806347216601626 -0.040137759516376145 -0.030010463129920558 -0.13366233363003793
0.149 -0.03538338314389664 -0.13491173808184823 0.01597192801393296 -0.011219995920102543 0.08594560777458984 -0.004956842071573574 -0.035795281797064316 -0.13198351061562813
0.15 -0.03475713731710361 -0.13347593307506825 0.015993642425144172 -0.011199441242685713 -0.005725454913708326 0.02282850781609522 -0.03360121986185491 -0.13123964096952392
0.151 -0.03687265005063074 -0.13317741392663432 0.016052182333470607 -0.011114785743514894 0.0263596316623125 -0.0061452953153289525 -0.03484242907418531 -0.13107518235613125
0.152 -0.03692177304579806 -0.13323330939938646 0.016027625608468415 -0.011001101977836172 0.015959399056085302 0.015752257385305054 -0.03451479830961773 -0.13509097853342103
0.153 -0.03720509599200454 -0.1315909787457917 0.016066669975512426 -0.011216957980931256 0.0006764953691693092 -0.01214711392900701 -0.036341307336337066 -0.13028712117103172
0.154 -0.03665740695638778 -0.12968921752424958 0.01599860786020183 -0.011001566312017378 0.03594857770552894 -0.03395949839760271 -0.03577829436212625 -0.1302871783559258
0.155 -0.03719577729752524 -0.12876181139479648 0.01590726717692891 -0.011093442446117511 0.03786387142829466 -0.015206374000139142 -0.03435428993794516 -0.12868043763308634
0.156 -0.038280283746139315 -0.12808627953207657 0.015978550893367683 -0.010901142531848785 0.00999878772685143 0.020334099513156668 -0.03836142025344091 -0.13087640547925009
0.157 -0.03742112934618542 -0.12662659507130963 0.015945141391058248 -0.010837821218504285 0.029078570861773553 -0.007442210721717422 -0.03679217828062911 -0.12761481080551484
0.158 -0.037914872481018554 -0.1260878437452048 0.0160626400369372 -0.011047197213203871 0.027371830733466322 -0.028444937245514 -0.03700927793807369 -0.1224368018348575
0.159 -0.038681975447751316 -0.12691813828688134 0.015850208378841688 -0.011010921997752351 0.02584633297456528 -0.008871977474523582 -0.03649094619436079 -0.12482323762500636
0.16 -0.03832372528997433 -0.12435011726194357 0.0159149017473007 -0.010950452939137805 -0.01476330791857605 -0.012319999329940432 -0.036135421082215936 -0.12283984811893608
0.161 -0.03848866628563378 -0.12281975258726992 0.01579862155718748 -0.011068761227017903 0.0026183515380975566 -0.03769270263667316 -0.038440975422830106 -0.12390069814943115
0.162 -0.03928316337953464 -0.1223726591850472 0.015817103768070894 -0.01081794504183057 0.043419734765185465 -0.022241840021263396 -0.03749675568690048 -0.12163917027224187
0.163 -0.037854262500529326 -0.12129018108615262 0.015862620497724318 -0.010972077084066863 0.03426362012853571 0.004755080612991271 -0.03856960246260447 -0.12370703569342864
0.164 -0.0383620367972258 -0.12140829399696537 0.015800212043519182 -0.010887732743737952 0.02509245293356097 0.03759530473557963 -0.0394923142229925 -0.12166334155145703
0.165 -0.03938573613076328 -0.11974483259052132 0.015819270479597643 -0.01085520687711315 0.04152262057042033 -0.010102772857593452 -0.038247869802892374 -0.11944220647101839
0.166 -0.03995004580233635 -0.11892573900866196 0.015724299422742626 -0.01086874660003668 0.0227080782837688 -0.044337974322993225 -0.03939017147309614 -0.11741108397445606
0.167 -0.03927475935283377 -0.11876900301693359 0.0157514823869944 -0.010834113607883543 0.04696743703378236 -0.027022361227123076 -0.038528424397131514 -0.11756359468725915
0.168 -0.039547897449874955 -0.11758053324542009 0.015702864630116893 -0.010841690622768614 0.014231276626573416 0.020378009910434484 -0.04240496874821783 -0.11654337876386822
0.169 -0.03928751057663633 -0.11579764317023909 0.01565975659288502 -0.010839064668174294 0.03029310570465199 0.020799386406063207 -0.03877155964714133 -0.11741192696164733
0.17 -0.03948610012113518 -0.11613035713485192 0.01573756032352693 -0.01084748443641626 0.01897649816521738 0.00821390900746331 -0.04009030485247227 -0.11600816188384586
0.171 -0.04047211874574137 -0.11435752819880919 0.015636948277492277 -0.010891559896710645 0.019555646352720422 -0.019649762665109396 -0.039932758707033666 -0.1159784276814975
0.172 -0.04025930650702804 -0.11381991992015315 0.01565164350539709 -0.010809211505044136 0.011212924337820753 -0.020056442798745296 -0.03743695710593016 -0.11399031665536805
0.173 -0.0406708166846028 -0.11357391671971212 0.0156909590029123 -0.010756782526288772 -0.017442152545881974 -0.02646462231461283 -0.03767744182092928 -0.11389545480656192
0.174 -0.040953535459336346 -0.11183298969121322 0.015626739458839117 -0.010827354726931838 -0.0027543429387833825 -0.0072626735082010115 -0.04072547103419827 -0.11313790236947906
0.175 -0.04076105800708753 -0.11181614348975898 0.015580085540616302 -0.01080422892536867 0.01550401264389123 0.012225837107524517 -0.04101543459586422 -0.11229584555873995
0.176 -0.041030654281418825 -0.11140656067220316 0.015607871989950738 -0.010850741298741995 0.012595337097242006 -0.010484349721711297 -0.03991626282588961 -0.11206924243756113
0.177 -0.041343989168903854 -0.11064603257945811 0.015612910245069979 -0.01074281935655681 0.05152189975898624 -0.027250062414707253 -0.03964948976973535 -0.11151391353889861
0.178 -0.040172974670934225 -0.10976945123711242 0.015672868250889684 -0.010796053622673787 0.014951195620685094 -0.03172917894505935 -0.04244935765097542 -0.11019662200744125
0.179 -0.04145518621853784 -0.10904576747100948 0.015604010896826757 -0.01086659532049471 0.018561651437765465 -0.01891286635900237 -0.038923519480809764 -0.11076298296069055
0.18 -0.04122204765935974 -0.10753448722667504 0.015527750476555394 -0.010812485618222971 0.013514221843669457 0.026936988491838714 -0.041767103165171474 -0.10950546169573593
0.181 -0.04238551440573149 -0.10715691760226927 0.015520824939305336 -0.010819030222841693 0.004450604146694372 -0.024214904986512225 -0.042032390761251384 -0.10702669920729994
0.182 -0.0417127342531777 -0.10657504018112121 0.015447639835001971 -0.010749448179183094 0.019339353119683208 -0.0020654859639011704 -0.04213692210784051 -0.10686561892126825
0.183 -0.04217435671078139 -0.10557230542358571 0.015509480657677205 -0.010796530104379443 0.015489976192282108 -0.02171105063927559 -0.04118254722425472 -0.10733010163148839
0.184 -0.042238456049875604 -0.10484709308863702 0.015466628955236695 -0.010690485174838461 -0.001415286527727812 0.004391595009088876 -0.04534061886617747 -0.10515348147815377
0.185 -0.04214898797180021 -0.1045715690857583 0.015497659386087463 -0.010742559563079531 0.002902269576733025 -0.019232827909870104 -0.040384576563498226 -0.1044991957234813
0.186 -0.04211816727576166 -0.10383336019133806 0.015488606368276136 -0.010740491739371654 0.02541418025319761 0.004812507002367993 -0.03992635343322747 -0.1061951808818881
0.187 -0.04251854037228564 -0.10289626273706445 0.01550033609624603 -0.010734711410870153 0.01033437691831074 0.01667889953915206 -0.041031784077430765 -0.10393189431087754
0.188 -0.042122730832718204 -0.1022911671374907 0.015508968157210135 -0.010711510974005462 0.011567174469988077 0.011714124059006521 -0.042924167963651096 -0.10357556304685471
0.189 -0.04214634692669354 -0.10125977042088465 0.01561605800582912 -0.010779764744826602 -0.001769170520880706 -0.0015441215790504787 -0.042630027277350685 -0.10464885207376846
0.19 -0.04260732085296365 -0.1008210567011095 0.015269355716586948 -0.010742861925005022 0.015655774767607874 -0.002387291178013114 -0.042883281977570846 -0.10027130992923941
0.191 -0.042665953972647046 -0.09952829061064036 0.015488560418512407 -0.010811551183349833 0.00919694722763398 -0.0012919057711747231 -0.042993035414971896 -0.10054087329866347
0.192 -0.0433302843144673 -0.09962129912095037 0.0155746230888673 -0.010675714906551777 -0.015834821641093334 0.0013143931998759353 -0.04306429674966793 -0.10077997743305996
0.193 -0.043564049836941635 -0.09926144117094911 0.015436104474695796 -0.010689885833614387 0.023692642729099694 -0.005307070736816007 -0.042623405110992864 -0.09867782276998535
0.194 -0.04401718419082529 -0.09729056829458291 0.01545422539916009 -0.01065211459717529 0.016970269540043645 -0.017048981472393174 -0.04297079503485315 -0.09972349052890249
0.195 -0.04350923388191351 -0.0984663286771562 0.015388178169547085 -0.010618987838755761 0.007530160866353572 0.007452003709587198 -0.042805215973844395 -0.09711803845364307
0.196 -0.043164059034601396 -0.09695665393727627 0.015416617895680265 -0.010740584423615127 0.011161408147618946 0.0008929616884816716 -0.043099053602590615 -0.09795005961304183
0.197 -0.044403859420615935 -0.0962307219910356 0.015367390795273958 -0.01079227553795619 0.02884450237001809 0.01312150038624807 -0.041967921296519446 -0.09917430900665533
0.198 -0.04366839091923666 -0.09517632291443749 0.015323780263197669 -0.010608478378455837 5.8775321588977465e-05 -0.0033257117767626055 -0.044662257172890345 -0.09699161392572639
0.199 -0.04339801882112406 -0.09477770255591558 0.015273825741390667 -0.010705135888832765 0.017565087370282548 -0.016883873995439933 -0.04211122198391364 -0.09656886956916112
0.2 -0.04353156529273236 -0.09418258558755295 0.015303594572117387 -0.010589734657446427 0.003198442146666574 -0.0032069481480758717 -0.04340978195236626 -0.09565966350332887
0.201 -0.04349831472931691 -0.09408906822923079 0.015282143051948695 -0.010652586180897303 -0.0005674168561882022 -0.025533327201684726 -0.0428000579106976 -0.09608421367365996
0.202 -0.0447408740316846 -0.09374345063996603 0.015308773936280632 -0.010626022485013181 0.010856772452159552 0.002120637353010949 -0.04284278775308998 -0.09385705071907088
0.203 -0.04402419145848971 -0.09221890388062007 0.015277179488368684 -0.010766178920038795 0.006522771858092496 -0.024483611819679268 -0.04197923886609077 -0.09351407055833845
0.204 -0.044184474813904764 -0.0922094016020567 0.01521091134546459 -0.010659611008603749 0.009598894309438328 0.00035215652993588636 -0.04456109218362259 -0.09279118541970956
0.205 -0.0439997067320354 -0.09089439332433114 0.015217070118705883 -0.010742317041902257 0.011189262076176045 -0.01034648382370106 -0.042592899936062426 -0.09381636659703811
0.206 -0.04416077760883393 -0.09060065367293392 0.015281175829228343 -0.010708003931241755 -0.01315592000052248 -0.016207433088634947 -0.04298633914218174 -0.0930415112740917
0.207 -0.044513270657617954 -0.08999256085678592 0.015281846810776522 -0.01074450902953418 -0.014767643837999278 -0.02666280963808235 -0.04398164819308044 -0.09358633202070583
0.208 -0.044728080535057224 -0.08993095192855584 0.015139065587810464 -0.010698015512330638 0.017218616402095963 -0.01910291341520462 -0.04389778030083361 -0.0909833724957968
0.209 -0.04473348111352616 -0.08886374962043188 0.0152200166863885 -0.01069715981789991 0.010197610857240982 -0.015018560544134387 -0.041956689130690956 -0.08939739237640162
0.21 -0.04425101543403144 -0.08947695720536461 0.01514250546188468 -0.010752346809965412 0.009451838801057709 -0.000997390039813137 -0.042310579898337544 -0.09169494678022345
0.211 -0.04488251482300076 -0.08832692762501095 0.015110664565859288 -0.010810700525073732 0.011446055895524927 0.006876300436469228 -0.04451259401466999 -0.09073713498390035
0.212 -0.044494144526635755 -0.086785552283705 0.015200776474841419 -0.010748883421770999 0.007799574398009119 -0.017427443965030254 -0.04350954281240637 -0.08959686788293172
0.213 -0.04474477746381116 -0.08760590880041072 0.015151654877576828 -0.010748713700625516 0.0030009071643298767 -0.03264459794134504 -0.04436191263500757 -0.08615202974605785
0.214 -0.04518794435989506 -0.08540962595324186 0.015218116157448317 -0.010722323473502668 -0.0016100990419266768 -0.024091676762265195 -0.04298136005688525 -0.08899793989812342
0.215 -0.04455008833171288 -0.08564260702914393 0.015158471094136011 -0.010669280162643617 0.0016692152717676257 -0.0276985343772233 -0.04275146006856709 -0.08715911299441081
0.216 -0.04458374348457597 -0.08553755499491689 0.015105941665440548 -0.01069403545590771 0.01469702909124546 -0.023489714309404136 -0.0435230859365056 -0.08876360352079653
0.217 -0.04500998526805313 -0.08497936077140876 0.015032130463758403 -0.010883146629360437 0.018877355617409913 -0.023377855595771206 -0.04349201293964824 -0.08561049551073024
0.218 -0.04494316681608085 -0.08373357373563615 0.015073120371840831 -0.010705246609755054 0.037958931029706114 -0.014844924353351066 -0.04257362987636106 -0.08709473243223916
0.219 -0.04557471357660514 -0.08329880196872985 0.015164709766752254 -0.01076836003846309 -0.005566955631439783 -0.016881790594797223 -0.04475486126141294 -0.08451641990627635
0.22 -0.0453261682003088 -0.08347131749495547 0.015027708881308664 -0.010690360325250432 0.027644869789562432 -0.026566222829457843 -0.04375597574354834 -0.084894146406936
0.221 -0.04517828878031609 -0.08236048805064639 0.015091663053381821 -0.010823291298937228 0.00921784944240825 -0.012446126521572466 -0.04342132501435196 -0.08503223069436452
0.222 -0.044948323102468365 -0.0818218293665287 0.015025254096655357 -0.010769003429680072 0.00816463287977363 -0.010607626457672548 -0.04249711603678167 -0.08308845664175468
0.223 -0.045263816383973594 -0.08126801209707028 0.015027853532457742 -0.010763102109925789 0.037251061213993276 -0.02690989807196546 -0.04484999927671857 -0.08276686921141109
0.224 -0.04512869678263063 -0.08013158854423481 0.015067708623826327 -0.010782643756867783 0.004050547349672768 -0.02471289015101586 -0.04426833634106209 -0.08316488999718014
0.225 -0.04540493247128979 -0.0797654310132628 0.015060273274273868 -0.010880704979404255 0.0053939325378079776 -0.029422518994001518 -0.0427782928949622 -0.080734056785354
0.226 -0.044963233720131515 -0.07984444317692063 0.01494933364789146 -0.010728127530569247 0.0198036760132365 -0.019348456625104152 -0.04320385382458931 -0.08209270743064626
0.227 -0.04614305167680352 -0.0792289704813649 0.015047852355905215 -0.010789161807257386 0.014179110028738643 0.007234333962031624 -0.044519307725024396 -0.08125873089139352
0.228 -0.04541327044535255 -0.07864505533737479 0.0149829798879379 -0.010876737154440425 0.0026529595669679516 -0.010950006000427373 -0.04322908072786926 -0.08191056198379174
0.229 -0.044955656444547076 -0.07834311442329406 0.01498292698403626 -0.010852852914718226 0.018141857319072835 -0.0032200627611367228 -0.044620749488463604 -0.08117161679743176
0.23 -0.04576231958212137 -0.0777518724300087 0.014943026318895193 -0.01083807227732352 0.029592541026961884 -0.006227833434786769 -0.04398673734557423 -0.07988085353478372
0.231 -0.04597191924091106 -0.07723123016203327 0.01504176708028133 -0.010685155234628934 0.020525830192174615 -0.024410893399797386 -0.04292558027301334 -0.07930665524186141
0.232 -0.045829500775506675 -0.0763360242449335 0.014846793301130775 -0.01072307079854955 0.006238186174680664 -0.01658650452656712 -0.04279652121525541 -0.08083501428881973
0.233 -0.046253819462739466 -0.07562395218219595 0.014841742671785618 -0.010826083802491651 0.02688566500267477 -0.009753202440921026 -0.04355578437443497 -0.07902295470867743
0.234 -0.0452187581941444 -0.07612927245017959 0.014828543948239662 -0.010727766973350542 0.013735094845380172 -0.014988555044506467 -0.04555675041049643 -0.07827585375043881
0.235 -0.0467618371599806 -0.07519764872388368 0.014799047259202438 -0.01077550670718618 0.004196599746619746 -0.02493863441006626 -0.04401712217858208 -0.07715082743975085
0.236 -0.04545952919969382 -0.07457178163244951 0.01474000091312098 -0.010834549549123494 0.0216429436836735 -0.009764721004099978 -0.04399225801745672 -0.07584342854916327
0.237 -0.04564200327438736 -0.07386637934740777 0.014864440415647604 -0.010838012176589947 -0.0004949221606061964 -0.011961037368333701 -0.045100992448182047 -0.07767235749810245
0.238 -0.0460518594172967 -0.07353956654925659 0.014874227171767049 -0.010769775245262264 0.03155522518100367 0.0012156525234702264 -0.04363914751201402 -0.07552399755702079
0.239 -0.04652995795412675 -0.07353548911419958 0.01479601908650683 -0.010858473126046599 0.01813797077583128 -0.030139275947160024 -0.04306801543066825 -0.07591221127939755
0.24 -0.04634202852359843 -0.07293539916605293 0.01484863582711622 -0.01085722058050884 0.0017250316133662629 -0.023971673583188014 -0.04468988404572044 -0.07390233478375012
0.241 -0.046933853318718056 -0.07153191494824417 0.014682929042928838 -0.010855474201546563 -0.00169443876042441 0.002904164463903883 -0.043416114681749336 -0.07435615597346966
0.242 -0.04592551356421709 -0.07181953041715063 0.014692983548285752 -0.010887065636065963 -0.0029238373453141842 -0.003694215127094918 -0.043745537742279884 -0.07441337620451384
