!Created with skrf (http://scikit-rf.org).
# GHz S RI R 50.0 
!freq ReS11 ImS11 ReS21 ImS21 ReS12 ImS12 ReS22 ImS22
0.13 -0.027470314581101496 -0.15652385538154998 0.017595990693538305 -0.011850989590612412 -0.025177857035196614 0.01431446463750935 -0.014079504893794836 -0.14959247931381905
0.131 -0.028178401732321723 -0.15523540644922965 0.017680243975395676 -0.011874516766062658 0.047575805759295355 -0.005005786644032014 -0.013884475752805209 -0.150101472872894
0.132 -0.028236073448448716 -0.15460518639149365 0.017665255844019397 -0.011890885850914594 0.05007003280228972 0.013429729224880506 -0.01622963739499924 -0.14891109331410288
0.133 -0.029036434343348586 -0.153017787842097 0.01759304923959712 -0.011873436490879 -0.05650315695512232 0.015999662268327313 -0.014645054526130004 -0.1484163508137585
0.134 -0.0295708949050208 -0.15258475491531925 0.017616958176826625 -0.011738770292727506 0.03224587756155731 -0.026798015513039602 -0.014928244121740455 -0.14754767399425814
0.135 -0.029588505925753596 -0.14957118644447778 0.01744096171042439 -0.011840106214308786 -0.017064731615334103 0.014379324616949012 -0.015046300900028736 -0.14926253200405543
0.136 -0.03165201854372272 -0.15052915223263666 0.017464222436382123 -0.011721548924001247 0.012170816932201038 0.043016797279505796 -0.012967640482193593 -0.1452279866298877
0.137 -0.030228544970234694 -0.14852081598593608 0.017436101932567876 -0.011680286335486902 0.06915537755818557 -0.043787877575456616 -0.015476087433593152 -0.13999243250220153
0.138 -0.03144431668290426 -0.14746788807144073 0.017421459029989306 -0.011705384011306412 0.011774883036731264 -0.0012736229071262173 -0.017662252224890925 -0.14173035612153204
0.139 -0.031662452448140664 -0.14571067056058157 0.01744112561002068 -0.011682299543046495 0.023136241959087075 -0.010089550815965551 -0.016078082785871615 -0.14036215906336705
0.14 -0.031866974328841696 -0.1443741879524763 0.017424192198566172 -0.011703888122600937 -0.011469174764188232 -0.0693365863910978 -0.016561116899944564 -0.14119107695594169
0.141 -0.033798994153086806 -0.14283085531958448 0.017447091489196015 -0.01166750958871107 0.0013170981733803986 -0.05449433380038357 -0.01725558207385663 -0.13629478277091625
0.142 -0.03232542567739752 -0.14322790750227873 0.017309880539830496 -0.011552464747647017 0.05056848694069608 -0.03460496767166754 -0.017270776014159613 -0.13660793101309301
0.143 -0.03348051801434033 -0.1412782048456969 0.017337154634821595 -0.011521120670033656 -0.0014475224997164368 -0.051404885233585565 -0.016565671331014404 -0.13640617197537244
0.144 -0.03411003908603176 -0.14106327958397943 0.017257608220013418 -0.011570037508845048 -0.01036201199818586 -0.015609219954123165 -0.019131913321720966 -0.1361860514261493
0.145 -0.03432990624380384 -0.13947861723859833 0.017340576577216077 -0.011568248249357326 0.059237853460945865 0.037489851640988385 -0.021264716653685484 -0.13606175405072454
0.146 -0.03322362026188921 -0.13792385857338343 0.017287348804160073 -0.011584808284586776 -0.0005968928355653541 -0.021816969271156932 -0.01710818424889471 -0.1378518130926968
0.147 -0.0343044503194677 -0.13729765874664063 0.017236937573612533 -0.011527009231863686 0.023694876975617535 0.016047921223960218 -0.018691689296280584 -0.1316203794408336
0.148 -0.03464376495303918 -0.13545627815178235 0.017243709272031962 -0.011403597949763885 -0.002312011773279995 -0.056080049639600414 -0.016204808521558093 -0.13277471435172541
0.149 -0.03476170018562217 -0.13397461152007284 0.017152854617628426 -0.011536405370545639 0.012281435880688456 0.024121619889535106 -0.019882725413034742 -0.12862129495309227
0.15 -0.034200169815470444 -0.13362524650589444 0.0171645730421818 -0.011492628152137774 0.026132200035174406 -0.022223270020054933 -0.020034456192392767 -0.129729577782639
0.151 -0.0357368284683078 -0.13303036801040055 0.017173643447389964 -0.011424316726107369 0.014083188161438767 0.010467869036860755 -0.019796544115339033 -0.12785223546503072
0.152 -0.035862246789338165 -0.13170130811960498 0.017223402311506576 -0.011453178423065263 0.00764687903974413 -0.03750440879856849 -0.01850640074294699 -0.13048739948756652
0.153 -0.0360948041728611 -0.1320133007818853 0.017240902684190366 -0.011500483340926201 0.0006799636999055698 -0.0077552853351434 -0.022085584252860006 -0.12669180267861582
0.154 -0.036575850641055695 -0.12916352974794243 0.01729612933151107 -0.011362847717854898 9.236409080686687e-05 -0.03796473239814867 -0.02100851841024814 -0.12953676131799916
0.155 -0.036245556980904425 -0.13014681207309056 0.017181343189409316 -0.011413322616861612 0.04581813773672824 -0.02290683881795421 -0.022192822914118913 -0.1269337262329153
0.156 -0.03704588002963929 -0.1277242517046244 0.017072304941976736 -0.011212127235008014 0.016821912197096816 -0.03713968844557818 -0.022312258320808097 -0.12888241418726867
0.157 -0.0374432855877294 -0.1265401490176673 0.01715362072944705 -0.011253392640329112 0.07715237972590831 -0.05111602361594394 -0.02148809647389439 -0.12582445109062362
0.158 -0.037439566107556194 -0.12685597062493603 0.017257954047088207 -0.011483927474259673 0.08057767075577237 -0.023504571453187455 -0.02223965380577996 -0.12275516050351636
0.159 -0.037644290008357804 -0.1266032620104441 0.017096520922057826 -0.011267487071664266 0.04897307476399667 -0.029564967132850378 -0.021786090604696624 -0.12475600687795844
0.16 -0.03709608840952606 -0.12482824980341346 0.017105877823400617 -0.011310981738806377 0.0032985711000888896 -0.03620899939955281 -0.020956518792613652 -0.12120141107316536
0.161 -0.037590866707487125 -0.12405824122552594 0.017175917146135887 -0.011316375934874836 -0.00584713941490009 -0.03942106981263178 -0.024465529743984707 -0.12339656413979082
0.162 -0.03924016766135349 -0.12269338353462031 0.017072580411372648 -0.01135647176285946 0.007042970432421423 -0.019138362138254723 -0.021941122938122077 -0.12150940111770328
0.163 -0.03835904047309095 -0.12223969537288744 0.017035753301433587 -0.011237648881449317 0.036335763818514576 -0.03555631929160262 -0.023131964901373477 -0.12035907993578791
0.164 -0.0380125710104949 -0.1211296267023281 0.016929006264265942 -0.01115678084558631 0.03481510508280758 -0.017320314028142186 -0.022787700093343632 -0.12080166895917298
0.165 -0.038317729191991674 -0.12101101776951256 0.0169363678501607 -0.011342685671368603 0.021755557514803927 0.006097319434578419 -0.02173140420722649 -0.11763985172375188
0.166 -0.038777511800466735 -0.11905976335694968 0.01694498499701292 -0.011334501852388334 -0.007616202526815478 -0.002520212694314233 -0.024845206490966592 -0.11630242604015464
0.167 -0.03922655443421845 -0.11803317732060882 0.017027566856334386 -0.011202683593026936 0.021603674358277942 -0.03134533623335009 -0.02347520928345715 -0.11812794952351223
0.168 -0.03888068195170887 -0.11790528899249014 0.016867252351851013 -0.011196175098187903 0.021752490857554093 -0.029152163990332238 -0.023635484069149386 -0.11586281015669869
0.169 -0.03830262614054811 -0.11677161501468092 0.016919118774732726 -0.01121862610698512 0.040497629649866834 -0.009553411490677585 -0.022055287171209394 -0.11698906079120641
0.17 -0.039385689337776426 -0.1159917685136581 0.016913644388283425 -0.011177405980704295 0.025312797743155892 0.020537703884559715 -0.023253334198463836 -0.11518020525420959
0.171 -0.04009140071469724 -0.11469529311511899 0.01687066341472664 -0.011128558470417365 0.04318011819887073 0.011355266906670523 -0.02603508076077633 -0.11564267437687545
0.172 -0.04030563484288932 -0.11419100910095206 0.016854030914619827 -0.01114601773545216 -0.010576547297064058 -0.06075817071138082 -0.02399271306884658 -0.11434019776159719
0.173 -0.04009875624254943 -0.11394461010342176 0.01688335231080691 -0.011117494718482687 0.04363738870307578 0.007513673474572548 -0.021176992037681624 -0.11422391508988368
0.174 -0.040928753484912934 -0.11111071231493864 0.016772922042652055 -0.011194568243532921 0.02640394499097335 0.0001118431757974518 -0.025877216705538147 -0.11214642204096766
0.175 -0.04071842955582869 -0.11159923608018005 0.016791263888991596 -0.011199566013629762 -0.010567088066077665 0.011769483794918692 -0.024879347336150822 -0.11052777275791106
0.176 -0.04048859616294479 -0.11086346649207666 0.01680602966274383 -0.011208318578920814 0.022802491036638037 -0.03890038654132842 -0.02487284336567967 -0.11071811338570785
0.177 -0.04152090937232508 -0.11050179273799783 0.016755968450504543 -0.011113946619680367 0.024607492306078095 0.021564696437797536 -0.02408128688550298 -0.11170955397826045
0.178 -0.04065158320793672 -0.10997316188743551 0.016815323936896207 -0.011149388451585179 0.012494968589575016 0.0019504495817219867 -0.02675667170511781 -0.10952030021681293
0.179 -0.04130801731172864 -0.1089315859479625 0.01672831383104752 -0.011281056537764955 0.01914970835734966 -0.029302824672602052 -0.024874593659428085 -0.11071610605169965
0.18 -0.041481786429972994 -0.10792793137375865 0.016658503332156762 -0.01116343112350455 0.010665994289089289 -0.0009112723481074065 -0.0269655681618092 -0.10911561181526802
0.181 -0.041280199542602564 -0.1073089945337504 0.016647991061572696 -0.011170727881197383 0.03928552263644144 -0.00958290959136773 -0.025926404561922668 -0.10916619186154722
0.182 -0.04182534451294307 -0.10695879921753466 0.016615604124514946 -0.011129826437507827 0.02691821359803685 -0.021181545204786743 -0.025996533410000907 -0.1066146440992566
0.183 -0.042315073380654065 -0.10554150847380994 0.01662820564811801 -0.011141613667823168 0.034666583826879926 -0.017308982697608704 -0.024343478003823894 -0.10721297259325949
0.184 -0.04171374746428801 -0.10530249849298313 0.01662846803519843 -0.01111627668588829 0.028939322708817692 -0.01691963829176135 -0.02861171951821906 -0.10790716697633744
0.185 -0.04256411557345963 -0.10459892272491986 0.01657715089689501 -0.011070402274081327 0.02189334453145424 -0.010050666580370333 -0.025671289162160854 -0.10586500710013476
0.186 -0.041899975108377195 -0.10390173452002498 0.016639654407529892 -0.011067516894918658 0.026217534682583324 -0.024559756495000546 -0.02600492614869603 -0.10638138091292958
0.187 -0.04216360365968233 -0.10329575141044348 0.01663203336377823 -0.011184161089755104 0.015104248735359609 -0.001755213226655494 -0.026512927722875626 -0.10443306288119879
0.188 -0.04232534857029478 -0.10207136291633138 0.016696175001553334 -0.011120554946869908 0.009292555518339638 -0.00917873407789801 -0.02732352756941473 -0.10451208657823574
0.189 -0.04243145379541802 -0.10189625335491444 0.01673594175836927 -0.011119816430803718 0.019970513206825503 -0.002858068337768242 -0.02778439374617824 -0.10358961295962951
0.19 -0.04308617249063046 -0.10124106612324059 0.01654766894506596 -0.011266396487584172 0.008517124307923656 -0.0318681775341277 -0.027519110051991955 -0.10027224008730627
0.191 -0.04258557673727458 -0.09995973947428848 0.0166388869974738 -0.011248632157792572 0.01532257421374178 0.007498910649682774 -0.02720370811361696 -0.1023341684941239
0.192 -0.042893864398617504 -0.09960291240911293 0.016656353517881722 -0.011001431993234508 0.041266815858613304 -0.01899588977366182 -0.027327860612138717 -0.10185440251029404
0.193 -0.04286452749677144 -0.09910214578048476 0.016527873681226258 -0.01125264614448949 0.005265178506384529 0.011990357128423142 -0.027578919711854746 -0.10056745378070193
0.194 -0.042947742372039716 -0.09781912466193522 0.016507943722910475 -0.011161539262544918 0.013786487949911923 0.019558035299348353 -0.027878083814820476 -0.10179960131082118
0.195 -0.04279316828696032 -0.09754247129162572 0.016530653980062912 -0.011056169320238946 0.02204285562542532 -0.003705378107127336 -0.027900447937291562 -0.0993310235710015
0.196 -0.04295891264576657 -0.09679055512909426 0.016502362104783987 -0.011190207125664719 0.02507641361336221 -0.010494976648028287 -0.027105331893060067 -0.10082952596085434
0.197 -0.04363608892271844 -0.09632907943034959 0.016534034592310086 -0.011094452574367676 0.0020332843694560346 -0.0006485326136842851 -0.026617020238546518 -0.09850346166969155
0.198 -0.04341659352879644 -0.0959098503713347 0.01657580287241144 -0.011073694932529134 0.010348688068737101 -0.017670042834269945 -0.028701786410906243 -0.0977894429172252
0.199 -0.04331887145463633 -0.09534464357816202 0.016494091717378413 -0.011050145663589426 0.015160793664017978 0.014406122838373054 -0.026442619252113147 -0.09713336134771564
0.2 -0.043159220428766555 -0.09444736497623882 0.01653264973644878 -0.011128306819550765 0.04128728641354187 -0.0014276927795696121 -0.026855315202385953 -0.09739795934509757
0.201 -0.04383782192928553 -0.09444866926715678 0.01649721050472872 -0.011122912259394276 0.025285722175180894 -0.01727271265733595 -0.025594334380413284 -0.09684142383803822
0.202 -0.04389603807704614 -0.09372503743261773 0.016492233213185523 -0.01113220670425836 0.03548869952195339 -0.011174132385956447 -0.02672392408462063 -0.09462736729092072
0.203 -0.043196119190740484 -0.09261875060553904 0.01637937306392715 -0.011032267995673617 0.011968720134531709 0.003278656924202084 -0.027024150556929624 -0.0949591684810482
0.204 -0.04369274790132636 -0.09175460104830555 0.016357987158820683 -0.011067401056226245 0.00475618752592836 -0.008701012164398088 -0.02834992194219281 -0.09391297757265067
0.205 -0.04444522168597334 -0.09164048086743223 0.016331074718436575 -0.011131032811842714 0.023162445630849154 -0.012794571657480006 -0.02761383546392974 -0.09470111807981056
0.206 -0.04399997006858707 -0.09092474384150954 0.01632477857803732 -0.011108623385615413 0.023304260048043566 -0.021867184644697227 -0.028361584255108114 -0.0937797762474452
0.207 -0.04457438649708365 -0.09057061132525052 0.01644124497650664 -0.011207608952564584 0.02385497630760458 0.008459295135604603 -0.028767614837735912 -0.09324509162870294
0.208 -0.044364914253450585 -0.0898988809868883 0.016328826352048298 -0.011136084469833198 0.023349962050654954 -0.003329627850995632 -0.02823546905998232 -0.09396411713626064
0.209 -0.044468033738614854 -0.08889805744936302 0.016289335082431865 -0.01112831059904248 0.015060566789282866 0.019560579551645068 -0.026975094677885305 -0.09264615180016174
0.21 -0.04367906460123848 -0.08862165087409067 0.01626294383876652 -0.01120489084851628 0.01421183148707495 -0.0006710020670196604 -0.027404629812556723 -0.09308159422475963
0.211 -0.04513985955049362 -0.08799823878508817 0.016267114874376383 -0.011220518983603534 0.006674125745234455 -0.030115289399692626 -0.02884547852603774 -0.09117777313575855
0.212 -0.04449121172532638 -0.08698905413189348 0.01632195663125943 -0.01116231422465619 0.012152526078388529 -0.018739207425714725 -0.027320673586752726 -0.09269275174613291
0.213 -0.04492749367617891 -0.08686050114844092 0.01622872205079351 -0.011189833146641612 0.01865636282062928 0.005724718505078393 -0.030651262078261566 -0.09055545951939796
0.214 -0.04472023663509905 -0.08578216890399609 0.016361070271255898 -0.011116212852393087 0.02350948319115882 0.0014376142051843292 -0.02708750308238036 -0.08956950427257246
0.215 -0.04443670341586529 -0.08591832292350797 0.016273642910841313 -0.011140340958568945 0.010629641109565663 -0.02343762233999813 -0.028718420724844835 -0.09049450836041979
0.216 -0.04511185982164137 -0.08524038683000086 0.016180076941218893 -0.011213880903243401 0.03519069772209074 -0.022484223840871106 -0.02934134251943702 -0.0886877592874481
0.217 -0.04498162007571027 -0.08465239562118115 0.01613978909315801 -0.011308023284521126 0.022529157948913563 3.1602901478244964e-05 -0.02848969301135861 -0.08912728931087681
0.218 -0.044787882475276215 -0.0837917899261278 0.016220587446082704 -0.011193042562988314 0.010149034106597477 -0.00865464672072187 -0.02730231431121481 -0.08832410217714556
0.219 -0.0450766953678715 -0.08343975720709604 0.016259748352279488 -0.011255684476133808 0.010380918689032738 -0.005534291493203899 -0.027789891116013845 -0.0854758252409619
0.22 -0.04535771718773338 -0.08328025107586064 0.01615982881602746 -0.011157191779226685 0.010155477519671849 -0.01191572436815464 -0.02813874970760828 -0.08714220756998439
0.221 -0.04466036921635752 -0.08272589982027884 0.016274313179477917 -0.01132600297372809 0.005752404596556968 0.0015276497901840964 -0.026994752556179172 -0.08761295470237952
0.222 -0.04522724632418851 -0.08163134476428609 0.01612378653470717 -0.011321519949140194 -0.004086347455286683 -0.02950330792684138 -0.02861021539887569 -0.08521623777293004
0.223 -0.04505667024549581 -0.08171312544311893 0.016078242910514247 -0.011245725321253466 0.027988168915292475 -0.003972599741889172 -0.03033121281319523 -0.08604356030630612
0.224 -0.04502488378612858 -0.08004523443803928 0.016232605961353067 -0.01135707096988066 0.025427052368896967 -0.04199366010935488 -0.028887719798917307 -0.08617323959000325
0.225 -0.04519631548600629 -0.08005740794979566 0.01615841617830512 -0.01144189810381906 0.004096245587032788 -0.02002068103975378 -0.028978277957116803 -0.08351782156745582
0.226 -0.04494520579117111 -0.07990837207293275 0.016175347410541895 -0.01121078863426146 0.01795377112735627 0.008718882184669548 -0.029301113981352704 -0.08463908086640667
0.227 -0.04589236611984752 -0.07953002835697141 0.016153648994450473 -0.011302361781965448 0.012300835038037314 -0.05338309721272137 -0.028915432586370263 -0.08405270951743692
0.228 -0.045486878053501656 -0.07843391824623232 0.016045288005598807 -0.011275504459997783 0.007099648743466046 -0.007974255221852907 -0.02957863857951286 -0.08203574166278713
0.229 -0.045005753366101665 -0.07788524595077986 0.016008073208433456 -0.011110622259788377 0.030762828521755357 -0.007795420769738355 -0.030025568608049044 -0.08376859986925272
0.23 -0.045970669831059977 -0.0778898687625173 0.01601315952987075 -0.011328348711359088 0.013733747620331766 -0.019010106228603177 -0.030199865045667643 -0.08312465066432702
0.231 -0.045362728960016925 -0.07643338665849414 0.01605746499156771 -0.01120839578062284 0.020436516647348725 -0.0034938139455118564 -0.02773713604232482 -0.08217501471339808
0.232 -0.04553428605707219 -0.07655727811505567 0.016156570131612414 -0.011260576872626871 0.024178298057583095 -0.019949284898748025 -0.02688106351724667 -0.08177078571028859
0.233 -0.0459280101907828 -0.07576141686350314 0.01595787871252202 -0.011210166019260455 0.01994421995749927 -0.0026538630304914013 -0.028022683677164494 -0.08104060053105547
0.234 -0.045427917384217 -0.07573316859534095 0.0159929571729106 -0.011263073618297228 0.028384922507494057 0.0008130481821646701 -0.02986168579574446 -0.08149530899900637
0.235 -0.045577660902132666 -0.07524077189131502 0.01593319416855409 -0.011312876202281863 0.021809008952684904 -0.009545489569362537 -0.028073255773183738 -0.0810690560309689
0.236 -0.04588828457176633 -0.07494257016151896 0.0159231044901278 -0.011354423387391809 0.006593452173594495 -0.014980707601122249 -0.029675887521827787 -0.07985433379083566
0.237 -0.04545931268815387 -0.073893317958273 0.015928319645510423 -0.011318230892059763 0.017933558298526765 -0.019886016520387358 -0.02957825301641737 -0.08119007159716958
0.238 -0.046141924581056676 -0.0742165428368407 0.015951866204458643 -0.011284301239586295 0.021851248123079457 -0.018964459686691987 -0.028745086534509162 -0.07890810835639438
0.239 -0.046399696575352437 -0.07411364360576446 0.01592334927956637 -0.011405207851850398 0.017454618407947285 -0.020473724497056655 -0.026518398419600596 -0.07831477121743957
0.24 -0.04618868203176475 -0.07257664715672778 0.015955388485895037 -0.011342511231486467 0.018303767699472742 -0.002571957103809243 -0.02928899592876973 -0.07697704097208577
0.241 -0.046600144885701585 -0.07151640151682878 0.01585494666304413 -0.011340945314885605 0.011820386445907096 -0.0010185646934435532 -0.029065160576278986 -0.07806136626381194
0.242 -0.04636640787632372 -0.07207508568168883 0.015760798504993383 -0.011373594092464445 0.016535045004828657 -0.0019536267626429366 -0.028971585481080378 -0.07823027289376244
