!Created with skrf (http://scikit-rf.org).
# GHz S RI R 50.0 
!freq ReS11 ImS11 ReS21 ImS21 ReS12 ImS12 ReS22 ImS22
0.13 -0.026982943498915137 -0.15677944847482841 0.0212261560434395 -0.012907814096726417 -0.016951779294271066 0.0674679462776196 0.03062074854035345 -0.1425337066752045
0.131 -0.027926597686838032 -0.15574732450436143 0.02122804170620443 -0.012717440211159857 0.032567008624698884 -0.01043518502779242 0.031330463741098366 -0.14256230765506528
0.132 -0.028000097245818964 -0.1547106272432189 0.02116638503302472 -0.012917278830922738 -0.004735144847504016 0.024650385734162516 0.028209726894764718 -0.1418310905918628
0.133 -0.029088927773705548 -0.15298383050402573 0.021244570509129458 -0.01271359626595856 0.0355071023661429 0.057701382768022454 0.030644022165221076 -0.13685180517766643
0.134 -0.0299402824526015 -0.1524000000460953 0.02112489201296488 -0.012642709399221406 0.02405567640696005 -0.0031016093666486225 0.027433799544742652 -0.14114518237892495
0.135 -0.02945485138963779 -0.15069036502313593 0.021061161888011763 -0.012737096954088853 0.04798172758186933 -0.0007452564764138792 0.028568723498536026 -0.1375604929854084
0.136 -0.030912208779242882 -0.15074042670406082 0.02108300386042036 -0.012644333825095031 0.052359123799888434 -0.05045290816110735 0.02745488886973774 -0.13966523795723115
0.137 -0.030563681813424455 -0.14859662139662552 0.02103393265802207 -0.012659709296632387 0.023604963761002257 0.022867117605015055 0.028175835925465197 -0.13396992173126754
0.138 -0.03068485770094025 -0.14762003496543635 0.02099626693315854 -0.012660292640310841 0.003803000537863125 -0.039007611954377415 0.029110093504120298 -0.1353086402017983
0.139 -0.03113996770555881 -0.14690491653143709 0.020991967734213 -0.012725859113262407 0.02222580389512088 -0.027293393231377954 0.030226533385332516 -0.1378090307276181
0.14 -0.03172466828594791 -0.1451129038485281 0.021001865175001612 -0.012658991116444156 0.010169622997658095 -0.025245448940353386 0.028404158848252193 -0.13637527266419844
0.141 -0.03235793303242194 -0.1429601435344195 0.021077233335450467 -0.012598062348420149 -0.017515894317388914 -0.04428586076002493 0.024436527168830453 -0.1328356163972359
0.142 -0.03265505749952372 -0.14382586414678572 0.020889625457211285 -0.012479450757159241 0.041751667185085474 -0.05707630780756304 0.025575122570556663 -0.1331395539033419
0.143 -0.03336695844443522 -0.14160135083664965 0.02083936910580471 -0.012470211326111261 0.018935285047325348 -0.004715981337343384 0.025429847586165583 -0.1315876836206653
0.144 -0.032959493879602085 -0.14053859742788782 0.020854277157928317 -0.012561052141608325 0.035163426530799104 -0.05091632963787091 0.021480416849567335 -0.13267275805092169
0.145 -0.03415315065895595 -0.14026496824986734 0.020876978419546208 -0.012521817431028627 0.0895170797355177 -0.019118891197375237 0.022847333090526462 -0.12967332709892898
0.146 -0.03369854712396392 -0.13868146747873653 0.02090805805923797 -0.012547055945545353 0.01962534945975977 0.011057269462967137 0.028847296342249924 -0.13143256232850775
0.147 -0.03344636909851672 -0.13655252937950635 0.020783698860814298 -0.01242511850377893 0.012487082812135814 -0.04565046782437038 0.026557503712936404 -0.1286641057596643
0.148 -0.03388733436145778 -0.1353387936671094 0.02082234824294707 -0.012423421252953298 0.01655684912814561 -0.055190998976023725 0.02613481070273079 -0.12731639944539996
0.149 -0.03519849953450967 -0.1349724301504045 0.02069549111578854 -0.012572820051539622 0.04461863240850985 -0.0005794145092014285 0.022231218173798094 -0.12681167105618182
0.15 -0.03451652493379709 -0.13322324268017374 0.02078404230101191 -0.012596100149948122 0.013475003252946932 -0.04327878317719837 0.02385671289401396 -0.12956381073024392
0.151 -0.034433113755627055 -0.131091234231461 0.02070951094447494 -0.012466390883041679 0.020708321197424308 -0.0016735813215045454 0.022761183488533666 -0.12660873288906957
0.152 -0.03606461346615954 -0.13189105003309903 0.020752112779788147 -0.012398574657007992 -0.013561267403649716 -0.02451374484895758 0.02404867308831453 -0.1274724627651842
0.153 -0.035524303093814956 -0.13163864660343974 0.02085795019272615 -0.012581676477986255 0.07777882098861799 -0.058972972397746744 0.02220188192967045 -0.12342501719426947
0.154 -0.035582876304036594 -0.12905327366780767 0.020709232798611893 -0.012303821948083597 0.013368073372032142 0.025235524873477754 0.02384806374963179 -0.1276380618652891
0.155 -0.036876259716189505 -0.12848401596427378 0.020594155182574743 -0.012562945519945181 0.018229377008623263 0.0064606140109976 0.024453003321611225 -0.12594514929322187
0.156 -0.03693646645127641 -0.12769470804454358 0.020686385272972944 -0.012326875199931649 0.03968407898938791 -0.014932603863761062 0.022401290137236976 -0.1272055362798964
0.157 -0.03693307557590474 -0.12760913127331586 0.020552965339604885 -0.012274544659828614 0.06025864768834243 -0.016237382086945848 0.022490717433353825 -0.12368679657077886
0.158 -0.03747079062510267 -0.12581925091844587 0.020761889512822818 -0.012574967498790168 0.020321547291540502 0.011006494101472924 0.021504346143778625 -0.12045455982998363
0.159 -0.037563836979710906 -0.12740015875267344 0.020515647695852977 -0.012382218148834017 0.03202195477414246 -0.06693676791087902 0.02085502383689714 -0.1195555157640534
0.16 -0.036971973370153524 -0.12388724852531109 0.020729174415061506 -0.01234828903484693 0.03129039691990972 -0.05168712559668466 0.0228235779248105 -0.11912541501198189
0.161 -0.03743642484001156 -0.12429040917397864 0.020533848182497167 -0.012278357950443203 0.061977932780282546 -0.012951094083591656 0.019766973162050526 -0.12245291944263374
0.162 -0.03922010347193368 -0.12224031698417849 0.02047109744580504 -0.012413134515533232 0.032415669127119094 -0.05081978751166608 0.024835858189622566 -0.11711703207673875
0.163 -0.037885006259158645 -0.12303681580956627 0.02056844769444003 -0.012275272933029128 0.039622812075770945 -0.03205557974641786 0.022694748213971296 -0.11892051310218658
0.164 -0.03842688166723003 -0.12055740126270054 0.020418995744061606 -0.012412476497714318 0.01433872229184375 -0.015710129526394473 0.02066941268245009 -0.11714145659618647
0.165 -0.03794982759419443 -0.12052243193465499 0.020482276345068544 -0.012251665159207925 0.02073686785311329 0.008426966490997572 0.01880915122941134 -0.11903555345754471
0.166 -0.038808050581891324 -0.11916250587379365 0.020413071844338184 -0.012372493812826124 0.019365880605867882 -0.02192659637319763 0.02022497514594902 -0.11693214329938557
0.167 -0.038916798502802 -0.11790066855916977 0.02046614259604987 -0.012262883298149667 0.017543546714390654 -0.004025681726005712 0.020078335531941615 -0.11622236972885737
0.168 -0.03938271809655701 -0.11763270211998487 0.020329116223288823 -0.012338964827953327 0.0477568536709778 0.0016782066434460018 0.01963029717982742 -0.11594557785965263
0.169 -0.03840234355791692 -0.11677623590226636 0.020356727466052202 -0.012280000425048839 0.03461992198314295 -0.013556997399715534 0.020231323566800276 -0.11685718542803747
0.17 -0.038629024970778185 -0.11580503859500063 0.020423765388311536 -0.012458674510896613 -0.00380178068335756 -0.030814572621498934 0.020892686719063535 -0.11444785306737358
0.171 -0.03993495047056883 -0.11498266811354499 0.020313380561251357 -0.01230206103759148 0.06418650288760551 -0.0067731955133422585 0.019002068074140382 -0.11520698230269365
0.172 -0.04020966199902413 -0.11465722418903655 0.020250524793077037 -0.012307031007400809 0.05136301706785523 0.007880895834568325 0.021166767990925376 -0.11204253552585777
0.173 -0.040328296199922065 -0.11383325278338874 0.020310550326424766 -0.012306132551416785 0.020796838646920644 -0.022647691422529544 0.0230833122481061 -0.11396908759554865
0.174 -0.040325675737595136 -0.11150907892456526 0.02017016676630688 -0.012410079330736875 0.034363047896323676 6.995848746850398e-05 0.01946773139503312 -0.1112117965044268
0.175 -0.040300528860574863 -0.11165731835799948 0.020223538889734608 -0.012433651403030377 0.04215211751835203 -0.024629693167312915 0.01941535787743696 -0.10974137358323907
0.176 -0.040597512027071465 -0.11135583533231906 0.02020188781969811 -0.01241582450243608 0.006636206037714424 -0.023765651387895315 0.019526472453797506 -0.11268692713120781
0.177 -0.04053863138814007 -0.11100217764803894 0.020201411195657968 -0.012264901849580302 0.017940035578414133 -0.006178678905968846 0.01920703693214401 -0.11347484558713827
0.178 -0.040219911022244974 -0.11023245132136268 0.020299637693576424 -0.012372542503559696 0.022859983903611072 0.019273453656590788 0.017290526074253038 -0.11101761670687799
0.179 -0.04086851111065617 -0.10897025380254056 0.0201435838595325 -0.0124547731036003 0.061404311130438954 -0.026202904572899113 0.020433584904043355 -0.11380786810062153
0.18 -0.041147008368432665 -0.1084561760087506 0.020057616489426465 -0.012366272899050568 0.013357742759777589 -0.019173944872833436 0.01553906556670096 -0.10986524730812298
0.181 -0.04151546624692571 -0.1075576739194992 0.020027088693250806 -0.012424208217742419 0.028044272232270677 -0.002934616973831313 0.01717977399094329 -0.11050120714452219
0.182 -0.04109555392494294 -0.10672162364583278 0.01999828511823352 -0.01228491947812853 -0.009896100035959443 0.014468846492576175 0.01927903276110505 -0.10971955971189769
0.183 -0.04154219497843115 -0.10592080884029814 0.020057564471272913 -0.012411233202698423 0.021715229521244325 -0.00969895350397836 0.018404115996049394 -0.1094074545401739
0.184 -0.04167797396209424 -0.1056478613904444 0.0199575579250759 -0.012324895754773075 0.01721244084917908 -0.0013280614946215817 0.014600907239766486 -0.10763871356516966
0.185 -0.04240994103571577 -0.10409274023701144 0.02001537048645261 -0.01240745984722536 0.045371690114445154 0.0194607029904531 0.017081723459801954 -0.10816917868488925
0.186 -0.04200769993936412 -0.10471105557340339 0.019902676748259625 -0.012290090852296664 0.004875742339304354 -0.025340857245477154 0.01940693084337917 -0.1089038024024524
0.187 -0.0423189609362722 -0.10293097312777753 0.020042339950409868 -0.012369621488705317 0.025423765245515217 -0.0010191825164791134 0.016938813767009762 -0.10605541073787123
0.188 -0.04124133070826617 -0.10294364535070136 0.020100197122529244 -0.01242386186705024 0.0165566402643077 0.013044675505921775 0.017248137181435343 -0.10741896008532628
0.189 -0.04217819693399717 -0.10126618267596005 0.02001021225390746 -0.012405354521739844 0.019419517123773915 -0.010451545521253852 0.018932989496652206 -0.1048861586763648
0.19 -0.04205986796962792 -0.10139790020267461 0.019924022611333032 -0.012467767310131814 0.030331553834965313 -0.01684853777010354 0.01672969210897756 -0.10351271863772483
0.191 -0.04280259618297565 -0.10003933771860889 0.02002424178228821 -0.012447924176807672 0.01843834553732648 -0.00198139277173701 0.017208964190122782 -0.10354666749985295
0.192 -0.042905919748103295 -0.09971288624741996 0.020055080503726216 -0.012418452241523886 0.024670454053486522 -0.029440113175704198 0.01636740217269197 -0.10436626886328348
0.193 -0.043366457780886186 -0.0992425321504572 0.01975515757623331 -0.012446408503178593 0.019227875042828142 -0.0038515413526679495 0.01754383985001124 -0.10243233695595479
0.194 -0.04308454179047451 -0.09733944898135716 0.02008116401240984 -0.012426277780353845 -0.0068892674769835726 -0.014329621630521318 0.017622392619030054 -0.10360951626326577
0.195 -0.04301975586193562 -0.09812490092038437 0.01988363074713194 -0.012186019300312774 0.0517362153585556 -0.017067881573877525 0.01613051242155705 -0.10186489967048296
0.196 -0.04295220637009466 -0.09628239365772205 0.019800506608138063 -0.012625464367750769 0.006632368873074473 -0.022637647386561734 0.01763194521481035 -0.10278419589160663
0.197 -0.04295027423169834 -0.09616685061241517 0.019688642403310603 -0.012441086120378262 -0.008799087866000043 -0.016005317689056133 0.017383940397902142 -0.10296271701679947
0.198 -0.043441016663963 -0.09615459730781134 0.019937305875321304 -0.01238695799067099 0.027645498260620828 0.006733863793451933 0.016114813146483362 -0.10190837578817928
0.199 -0.043159336139489864 -0.0945659598536766 0.019818462525882298 -0.012514247620915435 0.02426871462741033 -0.004890036493678403 0.017076187115333753 -0.10126993203177488
0.2 -0.04297821992208831 -0.09510124912321953 0.01983998091570468 -0.012325944955190187 0.0020042597716098945 -0.0022188646295618754 0.016136005289269464 -0.10123170683300746
0.201 -0.04357716005418249 -0.09417687963287034 0.019737039063867475 -0.012522625033489896 0.01742798064335106 -0.002410831454494055 0.018432419460991847 -0.10029460551306353
0.202 -0.04388740932232277 -0.09382409096936309 0.01989172084673838 -0.012332960582932172 0.012928973756334347 -0.01842732619993226 0.016408871056313907 -0.10043105476497859
0.203 -0.0428424363789181 -0.09271477427678161 0.01980714333972725 -0.012548846790446436 0.022215756375048207 0.0064444755266354695 0.015862675912453515 -0.09939840395722173
0.204 -0.04316971863208062 -0.09241147238031379 0.019690458082661223 -0.012463779665392022 -0.009095876128388981 -0.006507059991006215 0.016042013198631872 -0.09961760288430623
0.205 -0.04413367286333775 -0.09209317702690156 0.019684417144610056 -0.012600448256568423 0.00830051580489593 -0.013720234513831255 0.017080860198659686 -0.09976110583957232
0.206 -0.043375188947585706 -0.09089103787297445 0.019695015159437206 -0.012552462696677877 0.005991746026665863 -0.016000245452850302 0.014379901828072127 -0.09904773501844598
0.207 -0.04344572711656798 -0.09059049552480082 0.019654134255637844 -0.01265330403263407 0.010810630116453614 -0.00621815207075688 0.013948802884029938 -0.0992391597316303
0.208 -0.04390110358370049 -0.08969074096236686 0.019630060677988642 -0.012469962297164686 0.021434809473580042 -0.0017466429368470067 0.015383674275392382 -0.09988361523867614
0.209 -0.04396995235524529 -0.08987826691015018 0.019695691595706246 -0.012457689650079531 -0.002097146288179107 -0.0277404875140648 0.017390836871213653 -0.0989510219499145
0.21 -0.04314741349430268 -0.088285298995897 0.019536939284000243 -0.012564775180807128 7.774930126869489e-05 -0.021615106315254106 0.01640185471024497 -0.0992765000094335
0.211 -0.04500109531143028 -0.08854971875853472 0.01958007242161875 -0.012607881316490637 0.025092248317108566 -0.016482737101091306 0.01627207053503709 -0.09766160339887524
0.212 -0.04442651815487178 -0.08742607389383754 0.019681165350726375 -0.012583027896413808 0.03541406956766122 -0.008260237695324088 0.016066540194071572 -0.09773975114592838
0.213 -0.04385507209948675 -0.08763271427214935 0.01955636909146198 -0.012606660067730747 0.022577413793032346 -0.01728252648422957 0.01487222407505018 -0.09544698608262449
0.214 -0.04463901266189001 -0.0861315714826848 0.019668069376071653 -0.012489593790388262 0.024619081590070546 -0.008435297575906206 0.01702189100053398 -0.09577310993231421
0.215 -0.04419635228697357 -0.08656738523443286 0.019588006029826983 -0.012527799376014403 -0.017900818287328178 -0.018998294195097305 0.016225705052718843 -0.09492140749191752
0.216 -0.04408197705794363 -0.08512095228117987 0.01947177796729708 -0.012570382023329621 0.01872111230112151 -0.015070786543399285 0.015003629734579764 -0.0966958780577999
0.217 -0.04454891362371616 -0.08520573884946114 0.019428321893671385 -0.012785195115416504 0.017330243819624253 -0.01419366493628198 0.015314176295959525 -0.09638073741782643
0.218 -0.04445254760608892 -0.08430969842943378 0.01956907959913798 -0.01268333484241238 0.025928440675071936 -0.013073242647115757 0.01653322981274738 -0.09511824028734085
0.219 -0.04467641521861696 -0.08391161419858242 0.01954304585937634 -0.012650655479137268 0.01921827728875161 -0.006662007688796322 0.01669411944317644 -0.09517027535458077
0.22 -0.045202889630203406 -0.0834937099827486 0.0194243188517506 -0.012567254992956675 0.01616626041585952 -0.02111803090947144 0.015778043637062707 -0.09487825371278566
0.221 -0.04450061360842218 -0.08299815366628313 0.019490126171728402 -0.012735189184494658 0.016561425892005478 -0.03825381451902431 0.018301135955122574 -0.0957559278782985
0.222 -0.044504503318357605 -0.08204643116922827 0.019376354563177326 -0.0127108003110251 0.027147094295247615 -0.023009500064678223 0.01767310267140952 -0.09274194780129513
0.223 -0.04455488813438898 -0.08212009469855484 0.019377662376051263 -0.012723172396210593 0.0073624569899987955 -0.013505716329481788 0.013632713480592081 -0.09251461103252548
0.224 -0.04487894225375766 -0.08021942468991007 0.019299847676808323 -0.01272322400655396 0.02922422989451371 -0.02710983691741133 0.015381559055035998 -0.09230821641018563
0.225 -0.04467323579936492 -0.07994763597345006 0.019285879318566863 -0.012927709942031932 0.006416388014111133 0.0019983094365813715 0.014847436823687483 -0.09209111199962965
0.226 -0.044418620051013144 -0.08026641000997839 0.019366698342065655 -0.012636464007675527 0.02004907735828429 -0.004698748855746294 0.015665450337402693 -0.09160330791272388
0.227 -0.04574820597288068 -0.0792873476413819 0.019318845758543497 -0.012666808421004361 0.01538258616268252 -0.03149025496189568 0.01661458836683641 -0.09122013831931587
0.228 -0.044970099952500196 -0.07902786402748199 0.019324008919159027 -0.012897790289630817 0.006912153506326511 -0.015046103368900176 0.015912791488510863 -0.09219008568437542
0.229 -0.04519880616690403 -0.07858529128077997 0.019239301148198665 -0.012751126241986847 0.009197684780570212 -0.03262029840443835 0.0148950960454163 -0.09166149487751486
0.23 -0.04550064289101362 -0.0779785088234418 0.01930917132404994 -0.012910842682398829 0.006572047186011225 -0.012067678189221538 0.016146611489271687 -0.09070712607316325
0.231 -0.04531627008462919 -0.0772358567818998 0.019380024925079432 -0.012580636521909369 0.023870104275487122 -0.011870195223291137 0.016326431381436225 -0.09009442056349565
0.232 -0.04562692935128396 -0.07628406863806449 0.019371007059609414 -0.012797849604019515 0.008089640016122892 -0.009771476346863997 0.01649943181983833 -0.09088814030931583
0.233 -0.045272410001254114 -0.07579782359330112 0.019119098282006974 -0.012787599392468301 0.03322615466406182 -0.008606210739412506 0.015602057958614779 -0.08926535220213601
0.234 -0.04528865133200049 -0.076526530852006 0.019168109580231418 -0.012741568381009646 0.020064753436493422 -0.015119864120057433 0.014158603087473845 -0.0902037374243791
0.235 -0.04502007866883173 -0.07585764584477633 0.01913401095433048 -0.012869042885134704 0.03476723642319337 -0.01686920563112327 0.016399160470142112 -0.09000962261875495
0.236 -0.04527349968582099 -0.07566425113144425 0.019138160421954497 -0.012833960394876633 0.030263360811374235 -0.01378250984573301 0.014091213305417412 -0.08721977708821896
0.237 -0.04545633020937895 -0.07396726917638566 0.019241608246946755 -0.0128003230222538 0.004892060407883604 -0.02369932455964961 0.015100365590043236 -0.0890727519260463
0.238 -0.04584105997136544 -0.07357947062301314 0.019144635033471687 -0.012867113529275703 0.014974088353568362 -0.007391060505400717 0.015490205926268909 -0.08732055512358848
0.239 -0.04585682596826083 -0.0734743938826688 0.01926067792823137 -0.012959892108855914 0.020113408170087107 0.008074957952461194 0.01607422814680156 -0.08764461918636678
0.24 -0.0457461116600826 -0.07272665225700026 0.018999965302313383 -0.01282795954209886 0.03182462070921331 -0.028826670306961323 0.015237691611964744 -0.0876863654875354
0.241 -0.04605791987522187 -0.07151781781144799 0.01899096321011192 -0.01293413815894358 0.02018199731207209 -0.026868534110188264 0.014336743781529295 -0.08852094721610664
0.242 -0.0457227364736447 -0.07169180074165529 0.019033833025791525 -0.012991546768912484 0.0047928925524398265 -0.014539652606047766 0.013924377145205417 -0.08708661777094781
0.243 -0.04488974790921368 -0.07110610426211987 0.019030420424168113 -0.012945846942987194 0.014309107265652082 -0.0028492479156060893 0.013319782832151258 -0.08594561252811378
