!Created with skrf (http://scikit-rf.org).
# GHz S RI R 50.0 
!freq ReS11 ImS11 ReS21 ImS21 ReS12 ImS12 ReS22 ImS22
0.13 -0.026915010120163473 -0.15752769575432635 0.031441834223300456 -0.015980154428975196 0.041909233684630835 -0.04399506229555768 0.10866901076128356 -0.13444956053807525
0.131 -0.02661791295742639 -0.15687171688892865 0.03134535455327919 -0.015967661558826576 0.06396003649631123 0.020605008583947093 0.1080332699583775 -0.13320070384771063
0.132 -0.02712379262136985 -0.15458644854548614 0.031503180784719025 -0.016043000428540156 0.012154536508558179 -0.006340857806807753 0.10449743647710265 -0.13113874647609158
0.133 -0.027500687905673286 -0.1537666329699316 0.03111946328748594 -0.01605785341563838 0.02763056903669021 -0.03644970665092697 0.10757670261639916 -0.1307888983205883
0.134 -0.028547953124310153 -0.15311409317333957 0.03133775722026491 -0.016090623838076776 -0.011319352350078426 -0.06144502668372417 0.10679557009041567 -0.13278942381816772
0.135 -0.027967120953622096 -0.15071362847153413 0.03107001198271645 -0.016212434689947427 0.027992920254142475 -0.010533581038869777 0.10469269218092472 -0.12970184719001038
0.136 -0.029660363841542785 -0.15064393981155597 0.03131543176998989 -0.01596181459465961 0.024275565370750065 -0.057432738913617006 0.10811407820284175 -0.1312991901014977
0.137 -0.029368762318716695 -0.1484021577692112 0.031160614985299748 -0.015993406814871994 0.026246465583124403 -0.011323100875383794 0.10446367055832108 -0.12784913365511766
0.138 -0.02942657313749822 -0.14790678312013295 0.03121335289502557 -0.016042718272400336 0.04192996543729379 -0.008200410044142733 0.10579651674481759 -0.13093658189309962
0.139 -0.030491912448564265 -0.145862330570265 0.03117901103772884 -0.01607690501819441 0.08417810815636204 -0.02773083080078161 0.10912745003650086 -0.1283758894063388
0.14 -0.03172617566201066 -0.1455807000061495 0.031024106738956815 -0.016039526149785648 0.04396204331871263 -0.017169887776271413 0.10392800472466975 -0.1289982649964228
0.141 -0.030496577758706716 -0.14358732189714243 0.031144018497523646 -0.015893214944286905 0.06038884630399766 -0.05411106045259419 0.1063778286615818 -0.1270780401855795
0.142 -0.03222005207290548 -0.14479660540252 0.03092752458358411 -0.015856922237367323 0.011171401837095956 -0.008507737930752638 0.10474112467287398 -0.12725613555939327
0.143 -0.03070707563860385 -0.14286353726043238 0.030942747087159307 -0.015845366626364314 0.09968922871630656 -0.029680703001635368 0.10314678094337612 -0.1258229824725099
0.144 -0.032044716928547316 -0.14125467974635822 0.030858348549306813 -0.01621243903497043 0.041449036762914025 -0.037650770694912794 0.10087137828456533 -0.12201911230652941
0.145 -0.03267741873478064 -0.1402804757744254 0.031019211586274274 -0.016000176838127406 0.04090360190996636 -0.056721061710612815 0.10405307531151547 -0.12552753227488364
0.146 -0.0324784483762056 -0.1387885179544025 0.030941254162811252 -0.016059730099380356 0.06531495429709769 0.013180114783542675 0.10622206842091912 -0.1273551138184145
0.147 -0.03285650735119842 -0.1371344908941715 0.03067312523111726 -0.015982956134455707 0.011528881419900059 0.013242718139518729 0.10176565138866424 -0.12300689317123391
0.148 -0.033834812665066945 -0.136252099569744 0.030903069702964213 -0.0159188759375701 0.05441037821140354 -0.01973521128465629 0.10491968873864631 -0.12498276235990187
0.149 -0.03321117807784995 -0.13509075781373486 0.030853117138140054 -0.016141205761162417 0.042170930953871054 -0.00704575029801238 0.10139127133307801 -0.12215413199400944
0.15 -0.03347594527830725 -0.13301718870948412 0.030786925895156993 -0.016062901037025623 0.006756409999911665 0.008661975829019829 0.10196166075557268 -0.12414646721546621
0.151 -0.03403933436118594 -0.13356997367264778 0.030780729283965656 -0.015973107651520956 -0.0161972335890374 -0.046144821257048496 0.1027169847404586 -0.1252130132375753
0.152 -0.03486462695794227 -0.13359186536041406 0.030587349791437644 -0.015906602733886943 0.03220943042878214 -0.02763836290324288 0.10262112150663294 -0.1266716982645377
0.153 -0.0345102253915828 -0.1329556485397031 0.030627950867105423 -0.016138106840471872 0.05272764991506211 7.636276460913577e-05 0.09987146364517305 -0.12283093297348242
0.154 -0.034277887952367754 -0.13062392594181307 0.030684421703936846 -0.015847903136400977 -0.011856886023398716 -0.014792125903815432 0.10373812579740675 -0.12442797834614276
0.155 -0.03511679207487153 -0.12932714136696113 0.0305173785437594 -0.016007377728138938 0.016164395102024023 -0.0165365820568472 0.10257985599719968 -0.12409255586314372
0.156 -0.03596689059770498 -0.12968503358857625 0.030626017957035588 -0.015846903250959988 0.05487290548460932 -0.029037129448086677 0.10025297960017658 -0.12249475663987446
0.157 -0.03566312300911262 -0.1273994797380011 0.03017155218785001 -0.016285199436073736 0.05710835635680889 -0.0645243532794173 0.10153321526966361 -0.12303339664550204
0.158 -0.03524447644305047 -0.1252154457716802 0.030756108355388077 -0.01629567913424539 0.006786105558824167 -0.03177193656743112 0.09972545025814869 -0.1214201099014993
0.159 -0.03613843680655832 -0.12617893759130439 0.030521542424954785 -0.015788582298805975 0.02717309011374517 -0.015505666913532171 0.09916215422610068 -0.12244843433477538
0.16 -0.03622463912302958 -0.12501943676850177 0.030552860664007562 -0.01604872556602721 0.060430896280760815 -0.02753901423776903 0.10183142262705526 -0.11909145357780108
0.161 -0.036589516909102775 -0.12402747321805063 0.030651196316350944 -0.015934981774699014 0.047443069593832356 -0.01430749637411783 0.09889936725304792 -0.12186378570278114
0.162 -0.03856658614079914 -0.123098844290745 0.030587953300111527 -0.01612708055994226 0.027068837741146542 -0.02192338009854606 0.10065582322145986 -0.11891509928250547
0.163 -0.037615895958339605 -0.12246514311713336 0.030596775782981096 -0.016050242523138938 0.006627293556158137 -0.029032406906410273 0.1007848150573814 -0.12038321670231605
0.164 -0.03732225582960242 -0.12163554747230282 0.030406205191539862 -0.01602003919274859 0.06906009826791464 -0.02285883415561793 0.0996054708083149 -0.11985073533329639
0.165 -0.03768169959404636 -0.12156322738365997 0.03028215398480965 -0.015908626516519076 0.04283419150836544 0.006506751633035878 0.0986845837928492 -0.12215337015436442
0.166 -0.037734313732137176 -0.11983255755241007 0.030130758201508925 -0.016248526405922715 0.047269126561530574 -0.012178722021262769 0.10062733829386526 -0.11755651211672542
0.167 -0.03858776245744701 -0.11889516569951332 0.03023443438684555 -0.015937870079031982 0.025671454952748213 -0.01867096178915425 0.10033932071595818 -0.1202562840986048
0.168 -0.03790882045947129 -0.11783058377106624 0.03010944287873114 -0.016118477111814196 0.0621000229344783 0.010246892491245004 0.09834139389519728 -0.11789309027237521
0.169 -0.03743933303003236 -0.11688347611743605 0.029977509504245 -0.016097376001753302 0.02436194495208907 -0.035594014913050115 0.09924827005568748 -0.1196288934178278
0.17 -0.0380888149993253 -0.1166624502540127 0.02998962234239036 -0.016229135192247834 0.030195207441153712 0.008977383609056118 0.09993338681817007 -0.117084476694367
0.171 -0.03865117314521708 -0.11562015505291107 0.029960154626705513 -0.016048697351172415 0.0052409247285738 0.026079201945299092 0.09824701812531472 -0.116848353567058
0.172 -0.0390063903109502 -0.11545134746808243 0.030012509112671518 -0.016212564129466013 0.03674763653565867 -0.007459744463733438 0.09942784853011763 -0.11494521223821409
0.173 -0.03904955763524372 -0.11407380080826285 0.030077766007241005 -0.01622387931508182 0.04347096964995951 -0.013442109610841843 0.10233286036566516 -0.11875612134047238
0.174 -0.040364294730090004 -0.11219773495234646 0.029741935005167034 -0.01640329651752589 0.0026662804885950572 0.015759590784540627 0.09884454629584073 -0.11762411602939345
0.175 -0.039043365768898594 -0.11218843999108627 0.029965998716479314 -0.01628798960966907 0.030644088130742313 -0.008387365009052395 0.09881542078091618 -0.11461857990815144
0.176 -0.03940236425263941 -0.11151275728539126 0.030025434559551298 -0.01626801028433805 0.022594364062356237 -0.015056787270489482 0.09822559044436215 -0.1184864754725809
0.177 -0.03966427445075883 -0.11132468413670216 0.029796297632876927 -0.016100762804078007 0.06282687612912745 -0.0002577330359520424 0.0986084839795926 -0.11681102194971461
0.178 -0.039123038984750474 -0.11058191317688212 0.029884125100483955 -0.016376779473627905 0.024226499612289808 -0.024766163109210478 0.09638081311170044 -0.11849088538084834
0.179 -0.039616827002402905 -0.10966144419448207 0.02985835860668455 -0.016391070735066286 0.024773773487598464 -0.013498869283890172 0.09991097961652137 -0.11779066807765595
0.18 -0.03933657244927824 -0.10926144079959832 0.02961054200185646 -0.016339583763344122 0.02450107922982877 0.002271445727839883 0.09563952931360033 -0.11548570603794704
0.181 -0.040700344812848836 -0.10786782793715267 0.029660360352141497 -0.016437902919710513 0.040383183523886264 -0.016668343685435436 0.09671736387273781 -0.11731170368079706
0.182 -0.040367601915361324 -0.10755436738243769 0.02957390269363925 -0.01625824655637099 0.039415988757765794 -0.013412807766261262 0.09475974473326526 -0.11464109685436337
0.183 -0.040754894510694015 -0.10637402096158645 0.029629032138128193 -0.01652003684944598 0.01363807156064838 0.014739027892076748 0.0954674259058156 -0.11667761854222598
0.184 -0.04062749462369349 -0.10596783453117319 0.029613194232313764 -0.016383282357458142 0.04355968957203146 -0.016534472447853457 0.09443264424085544 -0.116978287556957
0.185 -0.04128322543239949 -0.1051383602475202 0.029353220031620834 -0.016517033647003434 0.023507091376316045 0.003251201636654717 0.09759212638135521 -0.11388084174131126
0.186 -0.04062133030412987 -0.10464483561814543 0.029746997049327012 -0.016295158742147996 0.021706418759251164 -0.009154742005416404 0.09891208700334225 -0.11574120916967556
0.187 -0.040839799498757094 -0.10313670559867674 0.029512993487756687 -0.016448835032094464 0.0316157601280001 -0.023237095903682375 0.09458737761366573 -0.11439077182170092
0.188 -0.04061162741675901 -0.10307484189448014 0.029573255250493494 -0.016443682907876067 0.019979430271247055 -0.013873841260067485 0.09712359209158351 -0.11519780602014157
0.189 -0.04162113852363781 -0.10299943040485336 0.029900568318035337 -0.016491142811045672 0.025792113182125816 -0.01699869179093452 0.0952015318467151 -0.11391969353512582
0.19 -0.04103361244545367 -0.10160827853040658 0.029394381571632638 -0.0165848613613398 0.014767236262514371 -0.02924030387426792 0.09501658508028278 -0.11239192462694642
0.191 -0.04163593114044035 -0.1005153721165764 0.029532618880230177 -0.01670132741751493 0.015289794390905274 -0.0003235102673522069 0.09525177422860619 -0.11278540347209182
0.192 -0.041223692897178824 -0.09978164094990913 0.02954301631038227 -0.01643827702146679 0.024620738887355092 0.0034761420646845466 0.09636744040496088 -0.1147655806750025
0.193 -0.04209943533251961 -0.09964360081472627 0.02939470110158193 -0.016753540573888302 0.02286988742907564 -0.01998826365689738 0.09584169773668906 -0.11292398029320987
0.194 -0.04176999522257054 -0.09829558357534574 0.02956739384764691 -0.016605118825643566 0.015433509806659316 -0.01588839193818516 0.09651669612386485 -0.11331728054626902
0.195 -0.041635395176567246 -0.09881663149156768 0.02933537610385511 -0.01637492044586068 0.03512029510438531 -0.024121878171294055 0.09521001588883837 -0.11113510713703305
0.196 -0.04200613464948051 -0.09748775201862393 0.02947506809936448 -0.016630651971653445 0.03052096049283403 -0.026551934822038423 0.09477148258880895 -0.11244823528035612
0.197 -0.04224146275921614 -0.09648470549684106 0.029342676404453684 -0.016546563638157367 0.03572838535780719 -0.010632398141598807 0.09657724503586775 -0.11350070566620979
0.198 -0.042085520524206194 -0.09640370049212699 0.02926940012486474 -0.016608431507077893 0.040319174168000606 -0.02269438229796134 0.09392465026583967 -0.11230813813136548
0.199 -0.041395482505698286 -0.09594016535768221 0.029090699216735596 -0.016604675527784992 0.021951950037249195 -0.03711002610434693 0.09572162423988904 -0.11212324799931497
0.2 -0.04145157207902156 -0.09521954728982449 0.029312805103816886 -0.0166689086166122 0.029192066776112552 -0.030010405613550197 0.09595648316764534 -0.1123721823150597
0.201 -0.04171332404189292 -0.09481109908733178 0.0294506584183006 -0.01651813874683389 0.019448125330520045 0.007172951153194343 0.09496254546910438 -0.1129590395924733
0.202 -0.042997683810402254 -0.09478410408373017 0.029333679136770353 -0.016562059500564785 0.00938221232623492 -0.031564323914197175 0.09368359315181811 -0.11176329332580069
0.203 -0.04235113002774421 -0.09267261605887141 0.029150780169341153 -0.01672985803876897 0.03910058585839811 -0.03847009041376898 0.09524358732063708 -0.11101288463835214
0.204 -0.04281793681992752 -0.09289560008467705 0.02909597760207183 -0.01691696571947814 0.03283970942219088 -0.019946089301967798 0.09540194394554982 -0.11040309613371613
0.205 -0.04198046530483433 -0.09263604192552856 0.028980921894408537 -0.0168652655271141 0.0303621681819466 -0.010368473850386138 0.09462550052582516 -0.11225594575421174
0.206 -0.041948807646190266 -0.09181417377497922 0.02911868575837834 -0.01673625882441379 0.022001509909722945 -0.01877264325561156 0.09223868370787926 -0.11120213605742245
0.207 -0.04280265878343888 -0.09044188945549127 0.02918878316259831 -0.0170912194865058 0.029463324007994816 0.00815362821966312 0.09243041677380413 -0.11055931710489877
0.208 -0.04319816910790063 -0.09107535932329873 0.02887647741545425 -0.016959310586288325 0.032369465233494016 -0.0010217665577006388 0.09430488669525788 -0.11070676276764893
0.209 -0.043447067841526466 -0.09021802144102649 0.02897280884987037 -0.016900325812496484 0.035969999819047555 -0.012685762603730144 0.09496478709339 -0.1110986722047395
0.21 -0.043397284577054746 -0.08843725156606456 0.029004497461566022 -0.017152060416354167 0.011854133938651342 0.010402166275093905 0.09467539608581714 -0.1123427218701977
0.211 -0.04364973777426416 -0.08945730554643291 0.028946699392747584 -0.016976040760259308 0.028099985957680658 -0.02345952559161305 0.09448728992390637 -0.11059085990640981
0.212 -0.04365444940972002 -0.08755473786506472 0.02899270595792159 -0.017084825860113867 0.04533376996099243 -0.013777799036313869 0.09505069724484458 -0.11148682965511275
0.213 -0.04343508299893161 -0.0882127163967898 0.02885665872068833 -0.01711748605714878 0.008685241043088045 -0.020660628276483496 0.09299815571245341 -0.10764393487768177
0.214 -0.04350674298936233 -0.08624706886683042 0.028972352529036866 -0.016892470372066398 0.02279520267761199 -0.03605262441751367 0.09415980142688266 -0.1103207716774603
0.215 -0.043218369400957336 -0.08652805085497248 0.028804816040945827 -0.01696924424951781 0.016871909765835063 0.005183739676590366 0.09330776406866086 -0.10998834039625044
0.216 -0.04376747778565622 -0.08566545635248023 0.02873337679549379 -0.017047656191964532 0.051462692393097226 -0.009688033786103296 0.09308162764970071 -0.1107238163276053
0.217 -0.04334037983253631 -0.0855163637944865 0.02864724904768401 -0.017420482959734036 0.030610481695562592 -0.028943803887681772 0.09215415681551675 -0.11131644609192982
0.218 -0.04302368519180613 -0.08477979851408282 0.028830835991462283 -0.017200352000984718 0.029575105058939198 -0.0313953635761716 0.09388124300220362 -0.1094681599893971
0.219 -0.043840469039200886 -0.0837953291950002 0.02883634962765299 -0.01715704327280481 0.016936140111728823 -0.011249314068274265 0.09312623231102476 -0.10948063358654621
0.22 -0.043995336292140565 -0.08384970275094655 0.028645286680350004 -0.017121845599853885 0.028664542245279114 0.004457478268802445 0.0935639705654283 -0.10865569508951183
0.221 -0.04396057859274472 -0.0832152512512999 0.02874453176355905 -0.01748585008320532 0.03457756806159333 -0.013970186008991596 0.09488242830320774 -0.10950764200919685
0.222 -0.04375079701726008 -0.08249362209685636 0.028632455965316186 -0.017190142992396865 0.01433601361564502 -0.016962158853170893 0.09239826574751264 -0.10810293560561801
0.223 -0.04357999124616912 -0.0823614059390975 0.028558144861351532 -0.01745483451360483 0.019614205815936887 -0.025237499054043135 0.0907354526165573 -0.109810267161438
0.224 -0.04390867631759655 -0.08093276626083283 0.02859191883856156 -0.01725009435270514 0.018141344539831062 -0.03875877562779879 0.09199840840401803 -0.1091916227429091
0.225 -0.04344965371752541 -0.08071240349346478 0.028676603245766163 -0.01768589692713 0.04285935985010012 -0.03012665045080543 0.09128680638388194 -0.10949959431214958
0.226 -0.04338999439579876 -0.08026422216367476 0.02853817136324579 -0.01716704053071308 0.010170956181599411 -0.012484055154359802 0.09265527370423497 -0.10830472866024303
0.227 -0.04438479426501074 -0.0800931314675787 0.02868458139934313 -0.017380825791335267 0.03917546779355551 -0.027673261415541203 0.09358513366236465 -0.11003855562036698
0.228 -0.04402034896409022 -0.0794355922952384 0.028315114335280705 -0.01740318652796214 0.03177283425778781 -0.03991865933917863 0.09075430376678213 -0.10883670524732149
0.229 -0.044078199685938166 -0.07877883575782622 0.028446065036036205 -0.017451202940025865 0.019985911851774025 -0.007047398213348964 0.09217878255663316 -0.11101486883432404
0.23 -0.04447283971438532 -0.07852066732245398 0.028205047950069482 -0.017667258490715293 0.022879684249253664 -0.013441218618303327 0.0911278293347955 -0.10780566199110225
0.231 -0.0441337827557186 -0.07724020801111406 0.02841446545410676 -0.017276362987931074 0.027433401014836933 -0.030108106411320293 0.09231310852603283 -0.10879425524659007
0.232 -0.04473597463019736 -0.07697526253978597 0.028544794505988125 -0.017369831725212403 0.03041224287325275 -0.019121549266543338 0.09277382782727418 -0.10799553426940423
0.233 -0.04499124221710172 -0.07652102759701711 0.028141139700170764 -0.017423782676252945 0.02317748030233074 -0.018971560619374658 0.09223487619238294 -0.10941953009791083
0.234 -0.04422095098403675 -0.07621320264993305 0.028273927439939544 -0.01741023286455791 0.01741642642328614 -0.012722571697484976 0.09059412981934464 -0.10786602314117527
0.235 -0.04411351514375369 -0.07548960887494828 0.02821939743407224 -0.017642851334637215 0.033692740665231376 0.0005768470978426461 0.09197702793884781 -0.10878564794279566
0.236 -0.04507686279984255 -0.07592399977585025 0.028327331423580116 -0.0176360346461202 0.01952771554228329 -0.02753393884600709 0.09093727233492103 -0.10654239205899016
0.237 -0.044980315048744265 -0.0744542533348431 0.028152915428370586 -0.01765075105645907 0.039814226936581 -0.016432269202375765 0.09182016819959811 -0.10680502451583833
0.238 -0.044523078467606766 -0.07433792237109843 0.02842903048693323 -0.017826198707043495 0.03218278116303697 -0.01321676842044221 0.09253522527729573 -0.10750976165510538
0.239 -0.044925131837626045 -0.07430359540003728 0.028306785768700125 -0.017829254575228413 0.029476901223199486 -0.03164145491240392 0.09344453589419008 -0.10675153919168026
0.24 -0.0446129384198802 -0.07314737626986141 0.02820855534908869 -0.017723676640933016 0.03202049290237454 -0.020726162144919073 0.08997395312697248 -0.10675657126003497
0.241 -0.04506163322168925 -0.07262932999757955 0.02811616136181275 -0.017678789272305408 0.03615967761000804 -0.029719426893404854 0.09156305552868305 -0.10844058489693313
0.242 -0.04503764232858759 -0.0724637589952401 0.027904170246718107 -0.01783170022252623 0.02853827610624471 -0.021749082462682333 0.09087750405578658 -0.10805169720567463
0.243 -0.04416194649576721 -0.07165183874315399 0.027989629333179895 -0.017957234623294363 0.02338084164754257 -0.006365050226469471 0.08900237492292068 -0.10592827027127505
0.244 -0.04396162270562644 -0.0716840446473049 0.028205269567058138 -0.018058747014076948 0.02298979251288141 -0.020930430549338692 0.09058136585988746 -0.10795275313042074
