!Created with skrf (http://scikit-rf.org).
# GHz S RI R 50.0 
!freq ReS11 ImS11 ReS21 ImS21 ReS12 ImS12 ReS22 ImS22
0.13 -0.02370700923390356 -0.1568111142925838 0.04956598001024079 -0.022733066464824196 0.061977708290847484 -0.012710886691816562 0.14066986272140836 -0.13622681806938997
0.131 -0.024020455637941706 -0.1562401281653465 0.049823935207098095 -0.02259296910585926 -0.004830987316332605 -0.0263964501861308 0.14090685238392642 -0.13941322685831076
0.132 -0.02346566821852932 -0.15525505833576525 0.04984951720384681 -0.022672929936765025 0.04986720770678226 0.024366003052999546 0.14198452479873036 -0.1369793901318414
0.133 -0.02511259435190858 -0.15327997962557177 0.04945602527300016 -0.02251479124789181 0.05522445101631721 -0.03018855990835711 0.13874132563596286 -0.13794083102825822
0.134 -0.02586783182725735 -0.1530441510744889 0.04941439006705625 -0.022646345777564778 0.0698444239291505 -0.0641630282011645 0.13795567594474786 -0.1363816435617923
0.135 -0.025153591713143755 -0.15113964110133743 0.04930560215829029 -0.02250395791784836 0.060554581636760536 -0.0249411516979644 0.14143708326244234 -0.13359340086517665
0.136 -0.02687916367829048 -0.15074097168564993 0.04917315528337453 -0.022620122474476926 0.03136215529553299 -0.04283830016748605 0.14089103210778656 -0.13689005002939608
0.137 -0.026756535374277527 -0.14870932777913393 0.04900287080556284 -0.02269900444306708 0.0804566304296696 -0.04365353590636479 0.1402057258412896 -0.1330880524724468
0.138 -0.02671590457379652 -0.14849726738425317 0.04920705698468784 -0.022895560010179873 0.10140497084847117 0.05132055322329669 0.1404890258046524 -0.13290514263574293
0.139 -0.02686871742464797 -0.14694692901343262 0.04906149026060774 -0.022649845962320808 0.07814817363881268 0.0004168597305538906 0.14158255691997024 -0.13262504258490346
0.14 -0.028213446419695032 -0.1450461324353771 0.049026822142651576 -0.022923419914779284 0.056656011491846084 -0.09085671972259549 0.13730368776917673 -0.1347859801608762
0.141 -0.028380662372368012 -0.1445237457505442 0.04926834689894091 -0.022833110717164953 0.043240785647277166 0.03327123908227877 0.1402680596834363 -0.13307145885648644
0.142 -0.028684105240587097 -0.1450454205357507 0.048918716460662696 -0.022655244445468972 0.08170494671362752 -0.048198788220811896 0.13490353327799595 -0.1316274419621236
0.143 -0.02885945172990123 -0.14290718667741278 0.0487813791303503 -0.022671135253634237 0.033217573952730506 -0.034137642669367314 0.13886928828058911 -0.13304857512424798
0.144 -0.02866573225564967 -0.14104972026586873 0.04877833255160818 -0.02282990900453985 0.023663868714270134 -0.02765824392346421 0.13460913546740627 -0.13400799571212318
0.145 -0.03007807662425739 -0.1412520636665169 0.04893679831398589 -0.022743945482440884 0.07655389684653724 -0.044483237087327196 0.13530002327148552 -0.13107366272404297
0.146 -0.029870512945407494 -0.1386260729539973 0.04864978170404179 -0.022999030886435387 0.09012566317231997 -0.03606273245561885 0.13992346835318256 -0.13376935683870514
0.147 -0.029372466247839284 -0.13809390394466747 0.04855663449996938 -0.022737214355914713 0.047951154518730374 0.009672900665624264 0.13775976869405374 -0.12902991078127934
0.148 -0.03006299781281774 -0.13636593256798402 0.048652139121062164 -0.02264598702674178 0.04910360573054072 -0.026220675388092328 0.13654178367671813 -0.1309315102418986
0.149 -0.031033808808714976 -0.1353872419080939 0.048336910085645904 -0.023102133498900793 0.07369541790470616 -0.039392363416940496 0.1357027384157384 -0.12671330434856384
0.15 -0.030612085533663073 -0.13506008748672968 0.048223900110689145 -0.023159870301589208 0.12143887606682564 -0.03472088610332856 0.1395587963928604 -0.13092788704377745
0.151 -0.030484927116519407 -0.1338037133715858 0.048421649124860085 -0.02300890606853501 0.043391206989758485 0.0056544816215035945 0.13560547889602248 -0.1293118646655314
0.152 -0.031463453665969164 -0.13266145730541049 0.04839893215919473 -0.02297097782117736 0.06758493929930125 -0.07421450496828426 0.13685142971385772 -0.13179631991115914
0.153 -0.03053188366658854 -0.13213133977068398 0.048643719657725966 -0.023129813709308094 0.07732390976103963 -0.00914160914297518 0.13378173820864211 -0.12914469041125737
0.154 -0.03272918705568861 -0.1311945268820632 0.04824754974099906 -0.02282642742494714 0.029179503871324893 -0.0015608267415003858 0.13762636241128107 -0.13020734709167525
0.155 -0.032241503075891964 -0.12954464191259263 0.0480763457965524 -0.02323602090333585 0.06328909642946579 -0.025005797662046785 0.13588354245178946 -0.12804320492645702
0.156 -0.03298466814482473 -0.12885697075231076 0.04831072428430492 -0.02269235215564978 0.05858533213222257 -0.0533102759761145 0.13331390865288986 -0.1300063517906541
0.157 -0.032270808109243924 -0.12857667919434118 0.04813570994469794 -0.023123080418951295 0.08018072152258941 -0.028473159731387553 0.13600521859739642 -0.12895744034426793
0.158 -0.033835049918663596 -0.12673978702258337 0.048560683305491015 -0.023514426165262114 0.04070458071339893 -0.009162306872183907 0.13433147381136393 -0.12654966085215916
0.159 -0.03329715476249696 -0.12736629575603967 0.04810576329855522 -0.02299031042785281 0.017919451456947583 -0.005418456687454974 0.13450676595222044 -0.1269178788131158
0.16 -0.0316062710171303 -0.12557034230367684 0.04792158234168906 -0.023096738176128458 0.06029175903393761 -0.04801302335185641 0.1340877159499664 -0.12660335230684686
0.161 -0.03440992054123116 -0.12454517443052783 0.04820884679954823 -0.02348778209291353 0.06625650103033523 -0.0005029050795634845 0.1326158578938199 -0.1286344967510158
0.162 -0.034902633222546504 -0.12301022772744047 0.04796653770747834 -0.023267366724815736 0.037615462807038196 -0.013202056695238863 0.13395941318143867 -0.12663432641037012
0.163 -0.03459089438243582 -0.12335555191020249 0.04823071698649026 -0.023287108498301606 0.06226492050055527 -0.03914998192118659 0.13101846146622248 -0.12868704980234896
0.164 -0.03341905642745288 -0.12120162595355728 0.04779252692911866 -0.023066877583562597 0.04765979827273411 -0.030368650193354867 0.1325188953361418 -0.1279461406694554
0.165 -0.03383120042360386 -0.12227397653070679 0.04784356803892743 -0.023208536568491606 0.04770704177445961 -0.01766289699223877 0.1334907887713522 -0.12698999483847975
0.166 -0.03481881882438804 -0.11999655460374636 0.047578187487162645 -0.02322766081614343 0.05457406209692929 -0.04338135968717415 0.13223164605254645 -0.12464761952145273
0.167 -0.03517001325484165 -0.11905507542665227 0.04764313135050111 -0.023150612288998305 0.09452783106776483 -0.030922693593187806 0.132447961586457 -0.12602273456146101
0.168 -0.034821529677393215 -0.11887977906336017 0.04763296250447647 -0.0232238161920517 0.06852654433628706 -0.0017978609062759734 0.13459061926374746 -0.1260573425429172
0.169 -0.034110797964437244 -0.11700374745251262 0.04747200929577858 -0.02344414784220212 0.025478545618689164 -0.03366242614441254 0.13186852745787697 -0.12722325149816177
0.17 -0.03483525741922756 -0.11641304318967113 0.047499087661659216 -0.023541576090547574 0.06174214263063362 -0.039491066930184865 0.13066868165360604 -0.12568608431483294
0.171 -0.03559615324977794 -0.11551875263225543 0.04730131088084383 -0.023616462818412187 0.031099235864220462 -0.035692190552840265 0.12975663740254387 -0.12565350971349531
0.172 -0.03542461391496289 -0.11581301787568674 0.047347100746345405 -0.023383776775357596 0.07875960713923168 0.02544315051090409 0.13356418146499685 -0.12510104885061313
0.173 -0.03684974821104008 -0.11500060361219748 0.04745910773151437 -0.023477450095474632 0.04085434770445019 -0.017854088073336254 0.1333292546137393 -0.12549244693775388
0.174 -0.036858348402349896 -0.11299833757089393 0.0470433088654095 -0.023810055829425456 0.023370348229349795 -0.005439295382863719 0.12892966622159518 -0.1250639129449028
0.175 -0.03648504305257636 -0.11245581287670046 0.04716449850282062 -0.023766294825930453 0.000281126648274824 -0.034958143027414006 0.12924889394375325 -0.1245210529984314
0.176 -0.03643273940647862 -0.1121578993590333 0.04722409371874563 -0.023700379794893842 0.07086278091102928 -0.030435941792538817 0.13240649479265731 -0.1263905303154007
0.177 -0.036636709857318664 -0.11143313305280128 0.0469606591550861 -0.023516774316750366 0.03873237051266632 -0.017486444036451592 0.13049206656141055 -0.1265600488681286
0.178 -0.03563780667009463 -0.11002505073884533 0.04729233263682264 -0.02383034088493471 0.045226871262028116 -0.04962560082617812 0.1293718789662949 -0.12411191333165096
0.179 -0.03696853199609174 -0.11034405096902246 0.04725176418895225 -0.024242395241351807 0.04079624779773371 -0.0023837619540777078 0.1306100310054829 -0.12728118891387571
0.18 -0.037105233548201444 -0.10933991932652645 0.04689890061560947 -0.02404198447157126 0.08050330123535282 -0.005851678203988216 0.13097409613536584 -0.12629232794713027
0.181 -0.03752364440358801 -0.10856446732551356 0.04677524111857151 -0.02415357556800921 0.036342468751639094 -0.006957020424594765 0.1288242814979692 -0.12652260542290614
0.182 -0.03745660324363926 -0.10825789936796434 0.046717796704363185 -0.023937694105896377 0.04631867409291703 -0.011885813075946005 0.12836049154468143 -0.123245894049463
0.183 -0.03799902408305577 -0.10671437225146187 0.04688144615580783 -0.024155380068518632 0.07830183655879337 -0.004949444294206535 0.12920240455466434 -0.12567975900810266
0.184 -0.03759352804407429 -0.10652941047963954 0.046666535248888336 -0.02376363734462793 0.041903010793341695 0.0017505152155817701 0.12858349537022476 -0.12490121638427167
0.185 -0.03840784150030357 -0.10561984923285643 0.04672775354169939 -0.02382302785690087 0.032361071446508426 -0.02078940289435771 0.13014203866976878 -0.12417012853134922
0.186 -0.03764246571949995 -0.105415065228088 0.046527434254325484 -0.024108908308323067 0.023016947892546182 -0.025492521044892868 0.12868607948400196 -0.125717752484224
0.187 -0.03853761169047436 -0.10384287416787995 0.04671182898298146 -0.024107878162327994 0.04768959978001529 -0.01746477792944862 0.12830282928428458 -0.12546139461903202
0.188 -0.037565617909825065 -0.10434907189763899 0.04667394074022828 -0.024303290035536225 0.036982987793840204 -0.03757742770560403 0.12820172608892233 -0.12430619777478825
0.189 -0.038174065583586464 -0.10219812331220766 0.04678490322294287 -0.02433308432715288 0.028339577955643114 -0.040021528190054924 0.12817314568001117 -0.12563495488896298
0.19 -0.038334637158096194 -0.10221642389558669 0.04639483660521354 -0.02451086681007575 0.04852403497352964 0.0008332222931810969 0.12943297827897274 -0.12545191727815283
0.191 -0.03867674222506976 -0.10100615775773782 0.046758786567235165 -0.02455778724612977 0.06636049277247558 -0.0129670702322638 0.1284843777082058 -0.12314086540520791
0.192 -0.03830112379993166 -0.10122769583007203 0.04677120501678343 -0.024924480996757873 0.05685204806106804 -0.019111267077180902 0.12822715031049156 -0.12346253318662356
0.193 -0.03835317193788221 -0.10117857452582447 0.046287693418787586 -0.024594879711416804 0.04261356153873182 0.010289438762167744 0.128844865708279 -0.1215567675427864
0.194 -0.03960986633989834 -0.09889534388160583 0.04620865967890883 -0.02450669596956271 0.05337793901686415 -0.02206701731712904 0.12714229560869966 -0.12330238110040863
0.195 -0.03845404105527883 -0.0993299090149509 0.04657816691653051 -0.02436178226592756 0.06297668187306603 0.01273015254954521 0.12725592258732898 -0.12209799910222568
0.196 -0.0388095769767602 -0.09827907766016473 0.04629390825774284 -0.024885079652108087 0.052998006876369595 -0.028002671228532238 0.12796601161653126 -0.1242837540589653
0.197 -0.039714235769184314 -0.09735062529748763 0.04623588192673391 -0.024349682848970513 0.04127789226117047 -0.025847226820426127 0.12844740105091282 -0.1252286025039524
0.198 -0.0389189354817651 -0.0966022578529735 0.0462337653075469 -0.024540043130169727 0.01139325111566397 -0.004881080984312015 0.12630653616278137 -0.12366006444926393
0.199 -0.03946247112674926 -0.0961806818270185 0.04618526560103853 -0.024531754370202743 0.049687992433477775 -0.019869716736925027 0.1275650062251502 -0.12306896122516257
0.2 -0.039000074194653095 -0.09564788615518285 0.04630586714266045 -0.024375848863412826 0.03160806506672845 -0.02965313226134196 0.12718466417260432 -0.12397516522743564
0.201 -0.039382626944476126 -0.095287384919199 0.045935818310878285 -0.02469857563877221 0.047678429878758685 -0.04506150903809258 0.12740275607570847 -0.12257186704883417
0.202 -0.03981757896942081 -0.09516455328432395 0.04594256102590066 -0.024695752565962206 0.028459366380014676 -0.017701584902371396 0.12738070012132918 -0.12128852536322846
0.203 -0.03953981786503464 -0.09348386890465571 0.045868969462850705 -0.024965364864286684 0.03427419683649848 -0.02235011831726107 0.12706448848531013 -0.12305829565119873
0.204 -0.04013139073707978 -0.09343025698717622 0.04588942179620287 -0.02499803299912967 0.053190824735348585 -0.03830727449024195 0.12633893999909518 -0.12265093300037132
0.205 -0.03980115676050183 -0.09309484303462283 0.045917975515743004 -0.024929651591743884 0.02837325502235294 -0.007927513499159869 0.12505690749027246 -0.12349911542673958
0.206 -0.040450225142096286 -0.09206799994123031 0.04585309558206659 -0.025009096511670322 0.046820220416331444 -0.022888756004229144 0.12503954392064562 -0.12370817569912476
0.207 -0.039555054542382055 -0.09153356175350393 0.04593867127984941 -0.024973430939403414 0.05614866522570982 -0.026076993125754466 0.12490281016744614 -0.12219437494709508
0.208 -0.04043950525402293 -0.09191090258783036 0.045777286337749315 -0.025197815410629928 0.02017869511630775 -0.025084272707131712 0.12529687472686163 -0.12232360231371536
0.209 -0.0404995517156391 -0.09087770477961994 0.04572077258150492 -0.025128254080145202 0.03414127331644659 -0.005226026838708413 0.12650098654708197 -0.1232557003836983
0.21 -0.03984207776092828 -0.08977911226803224 0.045474170332256 -0.02530336028985555 0.030874539836127368 -0.020932990245643032 0.12906245042607545 -0.12338812712888371
0.211 -0.04123824329127068 -0.08969165310259719 0.045471474562150976 -0.02553814233458334 0.03504109711688949 -0.042688572130313 0.12623220845259647 -0.12281437404599284
0.212 -0.040519079420419164 -0.08832313616516917 0.045692674537817154 -0.02525278430561084 0.046329673364227 -0.020839268727195166 0.126118564568503 -0.12311776480678842
0.213 -0.04070575434114111 -0.08820744375474825 0.04538396463207398 -0.025423162695470965 0.03112126350153921 -0.018198301128079842 0.12449010402060837 -0.121235921655602
0.214 -0.04124694131927061 -0.08761995064803113 0.04549507399311919 -0.025159705681709044 0.013677464958714438 -0.030262192870126277 0.12622232821816884 -0.12177181744571207
0.215 -0.04019915772653596 -0.08746357370289905 0.04548160756328223 -0.02529321648911675 0.022801866523022303 -0.02003035601873509 0.12463783175775903 -0.1236645317917116
0.216 -0.04062676232764659 -0.08681238871935183 0.04521255027138704 -0.025403482375145746 0.042134129482955994 -0.020273557101276034 0.12469032317992644 -0.12226273003116617
0.217 -0.04105466059526067 -0.08662242105551694 0.04512153394789616 -0.02602783723812827 0.028650795905872547 -0.028420986198056497 0.12351786643410226 -0.1223242120325356
0.218 -0.040042195985601214 -0.0859138807416399 0.04528675690732847 -0.025704389175269547 0.04073085450765788 -0.004574318420057417 0.1256111617493212 -0.12254983888505769
0.219 -0.040878114407886586 -0.08500482681004001 0.04559027045863538 -0.02576389612788826 0.030467241673639327 -0.007087311833064749 0.12637831931955737 -0.12019395754000188
0.22 -0.041047890467611065 -0.0849576498666537 0.04517557746564743 -0.025649471417912295 0.03145031935498101 -0.042509169724519597 0.12469175930847533 -0.12331942751012016
0.221 -0.040659536724597226 -0.08441794750965435 0.04545140263492116 -0.025846636279267098 0.04749070890516754 -0.020076203153768735 0.1264311478330474 -0.12389171132894397
0.222 -0.040932431388518695 -0.08376474309205367 0.04498110537729421 -0.02580504386344597 0.036925558822977565 -0.019179673272733344 0.12356927485250876 -0.12037963844343948
0.223 -0.040907910063944536 -0.08311476728717275 0.044690111205153135 -0.0260870487445085 0.04534935506233118 -0.030140797720631975 0.12203899803929433 -0.12249274549919031
0.224 -0.04128365469247859 -0.0818300669414549 0.045386018977396116 -0.025858418684703434 0.04385554650886338 -0.02129052963813602 0.12357709869183017 -0.12299150119794287
0.225 -0.04088479677731701 -0.08165618801768246 0.045322080651877435 -0.026516683011075605 0.0463956195195208 -0.04099590912329978 0.12460354874368161 -0.12208164697415591
0.226 -0.04068971795702004 -0.08125924797202237 0.04516433610619973 -0.02578988279732816 0.0411747738577823 -0.019143957240006594 0.12254839208078845 -0.12184095002477484
0.227 -0.04116979407546508 -0.08110043686408405 0.04503015734004817 -0.026181093234247454 0.047932851638718285 -0.035856220669151076 0.12484335452995508 -0.12258064591437498
0.228 -0.04148453160345387 -0.08004226920208245 0.04498191193582214 -0.026151890237418225 0.041813321773028676 -0.027724118128981987 0.12334236252610654 -0.1223658401477495
0.229 -0.04107428932773417 -0.07954457851541763 0.04510501120847358 -0.026097475012066308 0.04507452709224284 -0.020834362072654378 0.12389949538276591 -0.12286070665526254
0.23 -0.04187704623731763 -0.07951254260011811 0.04485453598420241 -0.026443683187415003 0.038973255577426695 -0.01394363290531402 0.12271089928896227 -0.12111783108585197
0.231 -0.04106815849025901 -0.07822555054791953 0.04465108803216329 -0.02601072006952754 0.04690455506983869 -0.03330032763358903 0.12510006124619963 -0.12242890088012218
0.232 -0.04157974338499937 -0.07833070412481484 0.044921024343082414 -0.026052869556929318 0.04622965971877262 -0.025627280292237722 0.12381793007009607 -0.12206268510636625
0.233 -0.0415191784931393 -0.07749073248109986 0.044650343285820224 -0.026623075726065405 0.035881465622074414 -0.036965106108927025 0.1226358932578852 -0.1218323732802774
0.234 -0.041717050597783134 -0.07757106015389867 0.044730147030743364 -0.026246664835806493 0.06527103606106124 -0.0316566165180562 0.12253255544356562 -0.12237773813859196
0.235 -0.04141893830926077 -0.07681512367604475 0.04462948362692741 -0.0262619306218841 0.05490091016658159 -0.050779434867535625 0.12310603422708673 -0.12296854354122952
0.236 -0.04135575255657275 -0.07732911060590819 0.04437162117672968 -0.02657725590869388 0.0513147132194087 -0.03514847884375227 0.12015211292809423 -0.12147165456671771
0.237 -0.042329149246153996 -0.0758931139089528 0.04430569827919599 -0.026492222940997262 0.056960333332447315 -0.02346343125752583 0.12343737976134136 -0.12036128226626418
0.238 -0.041526031945832494 -0.07575168472600644 0.04447879395378685 -0.02651216185170174 0.03927066983308931 -0.01977056912009654 0.12296560915117 -0.1216733572487373
0.239 -0.042551812074747286 -0.07516186569663917 0.04452892335888744 -0.026695305947824023 0.05297266335117128 -0.014651282198133645 0.12342717046368472 -0.12185267755731395
0.24 -0.04139267404147138 -0.07466840287352501 0.04418117580218254 -0.026428309056722457 0.048021201945860834 -0.02693801304362824 0.12154467319011038 -0.12063682997561191
0.241 -0.042772554199765625 -0.07368712680341975 0.044180683301084274 -0.026763894749591486 0.04337856888193848 -0.03648480929493864 0.12242181613698619 -0.12241041068353485
0.242 -0.04165491490819603 -0.07399343564096524 0.04387256629792816 -0.026885094741256985 0.02982411151746668 -0.033887385730423776 0.1207472512028393 -0.12162194967383863
0.243 -0.04162796892052001 -0.07296059694254903 0.04424901213646537 -0.026742835210616666 0.03636376202554187 -0.016651956365834802 0.12059281025573745 -0.1205591057024222
0.244 -0.0419374443169567 -0.07336520231475177 0.044485426782763786 -0.02742124802012706 0.044793054762155206 -0.026972611050951195 0.1201683417610155 -0.12202885982008048
