!Created with skrf (http://scikit-rf.org).
# GHz S RI R 50.0 
!freq ReS11 ImS11 ReS21 ImS21 ReS12 ImS12 ReS22 ImS22
0.13 -0.017602481360863908 -0.1577067807960371 0.07638794393341064 -0.02884805498730382 0.06042832432778788 -0.054117691751546154 0.1156581299802599 -0.14578877145152494
0.131 -0.01739950160829749 -0.1566827394118314 0.07667312919964801 -0.02838294009260878 0.12077621252922707 -0.01166636882296213 0.11707585090311548 -0.14177952748232894
0.132 -0.01763364091794337 -0.15529212286953267 0.07683354409033945 -0.029358954042694466 0.13053350750422987 -0.04065903901280105 0.11341112752054403 -0.14671621950197286
0.133 -0.01851124918033272 -0.1540786493307079 0.07658046757577933 -0.02916796454733585 0.08858856056966813 -0.021113894375759543 0.11564106205006124 -0.1414768612322247
0.134 -0.019006706818003385 -0.15344533952336456 0.07672622947959658 -0.028868273458138156 0.09751493001839245 0.019435521396949193 0.11296870516143087 -0.14222074518936995
0.135 -0.018740631636368035 -0.15126601170611798 0.07598805693262381 -0.02928126771404922 0.10101831294653393 -0.08776808049715519 0.11426754431964682 -0.1439043299010696
0.136 -0.020562011781511763 -0.151113196773016 0.07574758225517111 -0.029160896606583105 0.09709198286635941 -0.049902506800440796 0.11246422262661755 -0.14325290027431734
0.137 -0.020216075178228623 -0.14867392628626075 0.07591912429659445 -0.029020343831229735 0.085571587595161 0.024165706399359322 0.11259023751419779 -0.13707037391048565
0.138 -0.01947484257424049 -0.1485214003134268 0.07587722255110052 -0.029405795007137987 0.08207439027818968 -0.06176664372233079 0.11175543063324749 -0.1398218641627006
0.139 -0.020404583572714984 -0.14748422052893437 0.0757000128539249 -0.02948837034470957 0.0655382962617539 -0.033853990487688744 0.11697967721757958 -0.14124380291200436
0.14 -0.020827409309686018 -0.14649466543480388 0.07582711705321213 -0.029779705554921057 0.0774069529814708 -0.06538815160367524 0.11466762266358022 -0.13801782128636733
0.141 -0.02179212756936845 -0.14312015027627314 0.07582253677521368 -0.029574075188891717 0.05577293829881083 -0.00989965854251316 0.11202820871509778 -0.1387658694931317
0.142 -0.02207074304232964 -0.14438821094490292 0.07513943829160329 -0.02945380447279727 0.08024393522931418 -0.02480779133437087 0.1131872211916727 -0.13766658948330698
0.143 -0.02210687189454948 -0.1426780229877931 0.07522773951516365 -0.029551808187576394 0.10962760063958264 -0.05825157751816314 0.11050428457068578 -0.13961996194904822
0.144 -0.022576700856478647 -0.1409013558628961 0.07508420709175431 -0.0298715451821674 0.017139924987617218 -0.03925182981362428 0.11068932292749564 -0.13902214306347302
0.145 -0.0228390804130224 -0.140726940340747 0.07517811668897988 -0.029880104477391863 0.047801014102552386 -0.04182390678326226 0.1109028530893041 -0.1362344439471224
0.146 -0.022622266890914067 -0.14053502934818712 0.0752513421267101 -0.030115564834747095 0.10738876116597253 0.005098176939192189 0.11523948645632075 -0.13742502736372186
0.147 -0.022046177144102726 -0.13788172786363717 0.07486561039583925 -0.029877398124023014 0.0999057538456039 -0.003581656300979612 0.1113643617482176 -0.13337323031985393
0.148 -0.024212054704125005 -0.1361690886654265 0.07502989399986422 -0.02999384010636956 0.08464139018028277 -0.048748093380806094 0.1127978752315476 -0.13922550393124913
0.149 -0.023882265445096366 -0.13524554239489694 0.07453812694339536 -0.030156669785398247 0.09268597444205164 -0.0051070944731404526 0.11025833626360806 -0.1329449484550599
0.15 -0.024216433275480616 -0.1345523050570614 0.07437324367866766 -0.03048693384868256 0.09932920198499585 -0.02639809650412835 0.11101686002607256 -0.13422014896078316
0.151 -0.02444532214206672 -0.1350571896628206 0.07490197970645107 -0.030424313713521844 0.08648905458670658 -0.05900775100925738 0.1080232149065129 -0.13437356419506347
0.152 -0.024909299363992773 -0.13424533669231606 0.07417853633598546 -0.030353464562678085 0.10008953951097836 -0.04020420656768377 0.10964468139212108 -0.13552844337027184
0.153 -0.02534582945402879 -0.1331579768412001 0.07476712675199482 -0.030635420997653668 0.05612187340008511 0.009812376315800545 0.1101055287300685 -0.1307172147047053
0.154 -0.02531465874186919 -0.13207520874101022 0.07475622030254851 -0.02998082219313541 0.07308962054195058 -0.05448135728200052 0.11068033667147237 -0.13479538767233254
0.155 -0.026142723799199265 -0.13017640995280647 0.07436375162965966 -0.03095183533571929 0.08315727312877104 -0.02584588281497075 0.10954768335616 -0.134475966066584
0.156 -0.026024495992467023 -0.12979244047955596 0.07396912856991535 -0.03033591944720291 0.07478754296722372 -0.060870049883630206 0.1072138201213293 -0.13532589714639784
0.157 -0.025788396500285773 -0.1287742803650565 0.07430400025358874 -0.030823987875652107 0.09600278995668436 -0.029273187897926375 0.10962361758595887 -0.1353914157659434
0.158 -0.027678159376661456 -0.12745453436341272 0.07462036929768072 -0.03118380503417647 0.09310066970687536 -0.02877546297003309 0.10880442970010178 -0.13118138331164897
0.159 -0.026207896293727134 -0.1277260991919563 0.07421486107643172 -0.03099656710626183 0.09109246785456915 -0.038697936001185686 0.10650098222572064 -0.1319935747811493
0.16 -0.02714444731677062 -0.12607692780250584 0.07423965391348436 -0.030929311077776706 0.07045472227810971 -0.03306706016457926 0.10856888261474239 -0.1319000401494204
0.161 -0.026472403048291206 -0.1248432888260799 0.073921571888574 -0.030946374238248822 0.061680090353806484 -0.05163745402144419 0.10808842791825078 -0.13354220971431927
0.162 -0.028519919746069766 -0.12415721650340228 0.07392865538753314 -0.03155907310948617 0.07052890405166556 -0.059556868540487674 0.10728457539623308 -0.13185661521185454
0.163 -0.02668406319716472 -0.1234183946537359 0.07430681253891344 -0.031317886364568406 0.10861246750862619 -0.024317218942731245 0.10642283381307846 -0.13391096351028847
0.164 -0.02773423978769048 -0.12309754056613792 0.07364919500017361 -0.030984608441504722 0.10199914969134732 -0.04282646015900507 0.10764676466666007 -0.13054739555731765
0.165 -0.027676465199684003 -0.12297867601146746 0.0738000050465002 -0.031560928787572856 0.07371624390024602 -0.03208458001831355 0.10671507848715692 -0.13310684364430084
0.166 -0.028079485409825536 -0.1208987786572152 0.0733181037319504 -0.03184919961509304 0.07851669901492432 -0.03142539658108162 0.10530471403912453 -0.12936321261740677
0.167 -0.027996646482894478 -0.11997585634978924 0.07393222587107269 -0.031158365689024616 0.11452856652917591 -0.022133907563178724 0.10646599516568092 -0.12976526784207887
0.168 -0.028749070274440906 -0.11955366672307519 0.07347553253570475 -0.031629446183923035 0.09328397441966435 -0.042136966604352954 0.10682738970809075 -0.1285950102177906
0.169 -0.027269725041639357 -0.11831972765901869 0.07313225297705822 -0.031427803424140394 0.08631350527838347 -0.005065256250363351 0.10341639806396949 -0.12891258062287095
0.17 -0.02880053769667017 -0.11739002110450227 0.07343290733158475 -0.03206173106646542 0.11031950631765018 -0.06675539738743085 0.10698239880058505 -0.13117794225601442
0.171 -0.029431542358367774 -0.11744716907724001 0.07341193382316345 -0.03196533199086754 0.11636233629873481 -0.0038716762803291138 0.10336361533310105 -0.13042181870515152
0.172 -0.03027604042607049 -0.11693325583447897 0.07291852487863265 -0.03216183277061844 0.08037614946644758 -0.005078148239147928 0.10557847005627974 -0.12766712112178297
0.173 -0.029708063092719065 -0.11584443953233531 0.07329633926717849 -0.03206189559808221 0.06590948342740977 -0.04556683999065644 0.1070523971381382 -0.12923697964392644
0.174 -0.030463463506373252 -0.1143399818905149 0.07268348640531183 -0.03232958712345723 0.0536302525793793 -0.025841756227777592 0.10420842467895045 -0.12840918757404898
0.175 -0.029782425051429046 -0.11393130079819373 0.07269703334755505 -0.032319034659499 0.078815977218281 -0.017208032106506913 0.10312458389496382 -0.1265576692016453
0.176 -0.029843867927137592 -0.11315102610716318 0.07311634895985725 -0.032514870953351774 0.07314383122417953 -0.045726644294034065 0.1051526463181679 -0.13074457174128212
0.177 -0.03004757079808478 -0.11232940632048716 0.0729827148459527 -0.032096300170845755 0.1058420282358276 -0.01272750930890741 0.10504056176568398 -0.12782818366587848
0.178 -0.02969720459221578 -0.11152883065372357 0.07293562945805898 -0.03261590113415255 0.08697790169818238 -0.035631334425039275 0.10261268715283735 -0.1273786350763963
0.179 -0.03014411109044642 -0.11187888060265944 0.07258505734553863 -0.033230439147148065 0.06849389088840725 -0.005217725052432362 0.10451500175205278 -0.12840774510488176
0.18 -0.02995255266231893 -0.11014959110600675 0.07228803885072642 -0.03309415551056214 0.07441031607356423 -0.0050596380840833635 0.10200086364779834 -0.12698794799319915
0.181 -0.030880932792545703 -0.10953765807021656 0.07226063974319692 -0.033195363526515184 0.07528028683379669 -0.0579339690522892 0.10323555625063074 -0.12742005773840337
0.182 -0.03102452385277658 -0.1094265676357641 0.07191953239439725 -0.03290835789773241 0.06936861825499437 -0.027576403563842278 0.10164282367012806 -0.12765215741682687
0.183 -0.03134827808137609 -0.10804337420404268 0.07228577651185597 -0.03314551374035429 0.06260114903038724 -0.013984508234760728 0.10473081806958671 -0.129369797329209
0.184 -0.031290057544236416 -0.10754261778151535 0.07216948693440378 -0.03329644444859782 0.051421570811362956 -0.016466960558114408 0.10084959414081894 -0.12912822328500884
0.185 -0.031856812471398675 -0.10647841991394429 0.07175904366694637 -0.03275514717487228 0.06348246678662658 -0.023789247217211408 0.10507998563062473 -0.12524343377820515
0.186 -0.03152134704003846 -0.10625323877982822 0.07208235278412137 -0.033017391296440025 0.06758062820441119 0.001954503117792011 0.10248954725775923 -0.12705404177918053
0.187 -0.03175457923413571 -0.10512260055393993 0.0720352454208384 -0.033388746841751166 0.09612408826997675 -0.054575941031860406 0.1026534631285302 -0.12498902834084114
0.188 -0.031322227999778005 -0.10505625360122677 0.07229089942829778 -0.03352572234457058 0.08285515093194784 -0.016415067115094786 0.10314192175296388 -0.1266310193078584
0.189 -0.031787763834095685 -0.10344680150612161 0.07214664497808711 -0.03368173302731546 0.07864123968835357 -0.035098647562196404 0.10273360691913204 -0.1254050964639057
0.19 -0.03175025690033855 -0.10410572863441396 0.07134210576668357 -0.03388883830544882 0.06623133122362751 -0.023488481083425244 0.10078870438134815 -0.12389222762581362
0.191 -0.031977886751353796 -0.1020030689810291 0.07175541124267053 -0.03393568276594196 0.09652637192998915 -0.05183411925712831 0.10196843289978255 -0.12414855092038965
0.192 -0.03252884507335103 -0.10175833200465727 0.07210083429974098 -0.03291468940280441 0.06638322614300236 -0.026607908061917825 0.10274773427602843 -0.12602428591972986
0.193 -0.03258946572046163 -0.10189089756010881 0.07144204071130442 -0.03428392579065353 0.0607292968289404 -0.011967801730149117 0.10298005904610759 -0.12499535450600083
0.194 -0.03237799356576879 -0.10056860113267767 0.07151524224388249 -0.034139222283303225 0.0669164082371157 -0.04194507020055574 0.1009346453054978 -0.1247308673306582
0.195 -0.03222659636668048 -0.1012979806769078 0.07198237122907233 -0.03356537904024111 0.04298559746801625 -0.03712402442251688 0.10159727621579133 -0.12356507224040537
0.196 -0.031987851349732116 -0.09994364103399336 0.07206981911134909 -0.033582963082946685 0.056089062047074936 -0.005553263837562445 0.10155521850955129 -0.12456959624750585
0.197 -0.03322350443345538 -0.09887845664201336 0.07119468580520562 -0.03392799316280855 0.06094468846177236 -0.02587343607497661 0.10149740795024163 -0.12604218538338266
0.198 -0.03288088205188702 -0.09846344626485745 0.0714862685980715 -0.03424818536514189 0.08184766049111139 -0.047137056450055184 0.10095262617109814 -0.1239739255355644
0.199 -0.03294660638980688 -0.09726805956059993 0.07101111510602173 -0.03439598076805434 0.06633612840846988 -0.02275522614761571 0.1011468773975067 -0.12497661364178209
0.2 -0.03296557613074955 -0.09673875092204075 0.07133708175315803 -0.03438110029660947 0.06600157421930754 -0.03408959610440574 0.10059253478186508 -0.12455245412310563
0.201 -0.032615845103585915 -0.09706301336816288 0.07068329930676766 -0.03480252211347226 0.06886687646138137 -0.038400837535191225 0.10010253236298079 -0.12463941685753996
0.202 -0.033162209431884575 -0.09696701390993501 0.07119257207352805 -0.03443734888223219 0.10243781002003302 -0.014603680370840347 0.10175628477853121 -0.12237505792968237
0.203 -0.03295732052006701 -0.09491493655113192 0.07101823987823681 -0.03477234181445869 0.0430915468977127 -0.05050440259606876 0.09988988370769547 -0.12435106187881591
0.204 -0.03304963050082708 -0.09492592440072692 0.07108484765726102 -0.0345901744427133 0.06646279279827949 -0.023628167131193038 0.09962444419597065 -0.12350964545673561
0.205 -0.033677753111358226 -0.09415365882867639 0.0708641553718917 -0.03481433536523066 0.06857805435833804 -0.04347767043700525 0.10098795677505126 -0.12297517898545364
0.206 -0.033460261450782076 -0.0939602620800056 0.07043728693822285 -0.03514489773988884 0.058844964428927074 -0.02750963266991892 0.09907734194659028 -0.12374068534640477
0.207 -0.03330115344741858 -0.0932910465320324 0.07070328266847745 -0.035148795035951294 0.08844985539286815 -0.05378037023185649 0.09900031757971328 -0.12293033307937669
0.208 -0.0340009633655704 -0.09288583357648453 0.07028355263236548 -0.03530149803230997 0.06857034470363038 -0.016065671593219734 0.09935804824902401 -0.12248252212701168
0.209 -0.033472766233421554 -0.09206137253968215 0.0704655440000914 -0.03498634073560391 0.06133998393433455 -0.038374083446419134 0.09864675170528973 -0.12385677406735647
0.21 -0.03284348792688088 -0.09131825585549229 0.07047302449556468 -0.035371264634970354 0.06573341341460956 -0.028592778017327524 0.09932534980313211 -0.12396317894489989
0.211 -0.034714227261824826 -0.09137993291089977 0.07015880521069057 -0.03582408418036417 0.08420350104404432 -0.04226006436039179 0.10097534460328629 -0.12270500786161957
0.212 -0.03399966204124572 -0.09018789218953743 0.07073389738837053 -0.035726022846938314 0.061695788332302465 -0.041053138400896 0.10182643773455864 -0.1227204164196043
0.213 -0.03412700994105377 -0.09083049294818607 0.07002502497934032 -0.03600506469668975 0.0761646466122601 -0.05016732899283239 0.09838915812963152 -0.12186133007687865
0.214 -0.034281823174808435 -0.08901976846760264 0.07058924952167087 -0.03549603652256386 0.056619750249247335 -0.03539440570132925 0.1005144622432622 -0.12201392643514102
0.215 -0.03406209127065148 -0.08912869884226636 0.07025522558246827 -0.035660405799080336 0.08719274238880671 -0.041733540910655675 0.09966978004026365 -0.12266650343232259
0.216 -0.0341911067660635 -0.08877977439201257 0.07005377159576809 -0.03582428893166901 0.04438430517259386 -0.04396130543412683 0.09918246330848962 -0.12110004939747673
0.217 -0.0341899919464768 -0.08822670729059112 0.06985786013262951 -0.03664363914335379 0.06176540002210483 -0.03415454862613783 0.09973561394282708 -0.12276255376113814
0.218 -0.03386665861081206 -0.0870691808911878 0.06996083518849218 -0.03619440452980216 0.06754391104149729 -0.05433555126537735 0.09950745436233172 -0.123067494884758
0.219 -0.03487863518424916 -0.08701361264458869 0.07017505002993986 -0.03627167478322553 0.07802250527654644 -0.01858671737949117 0.098484474512804 -0.12289284091259153
0.22 -0.03473626432173877 -0.08661086085216958 0.06963159323775947 -0.03604964159002833 0.06745231026638039 -0.010482501143844964 0.09863853315965375 -0.12076321613510764
0.221 -0.034954063687645545 -0.08588006371696691 0.06994610960651029 -0.036742430612074356 0.06808896993017215 -0.04768380111714441 0.10102463052380313 -0.12181968428789088
0.222 -0.034223486106175253 -0.08557147649981611 0.06985061567727006 -0.03656028785158055 0.07507449844839605 -0.032912831823556206 0.09906805422251004 -0.11949220814788736
0.223 -0.034609745556614536 -0.08496993960084807 0.06934556828124272 -0.03697771251236944 0.06876588321449167 -0.037413112972240245 0.09675199305887217 -0.12297849574643299
0.224 -0.034741824241849226 -0.08359069742756053 0.07012607549633852 -0.03692804545596629 0.07469865821029205 -0.045333777772547434 0.0960109359300019 -0.12124151220870437
0.225 -0.03480488084747052 -0.08314185260980123 0.06971721594380072 -0.03735381890167002 0.07208567219882418 -0.0418365045909386 0.09721224794518138 -0.12113120818260671
0.226 -0.034265343269672954 -0.08349997573381067 0.06967793947637611 -0.03673212651781857 0.06125127223378251 -0.02674053827547879 0.09787977646540527 -0.12036039194191907
0.227 -0.035581449731813285 -0.08279788607879321 0.06978050458334921 -0.03693777994530965 0.07482807967042374 -0.057368958802566934 0.0988761375942071 -0.12036212735001128
0.228 -0.03532791659888781 -0.08241410552277598 0.06917854810040633 -0.037266573876203406 0.06863024950942498 -0.04123582997703739 0.09652885941256738 -0.12006750341017781
0.229 -0.03463805467713973 -0.08139740889912382 0.06943635255983445 -0.036839412340660675 0.08162031428729664 -0.05678447542246877 0.09515978412164178 -0.12163323762182628
0.23 -0.03497245111070071 -0.08173072258371607 0.06917033408423144 -0.03766263716967244 0.07357875842834022 -0.022757554368038446 0.09710892018428224 -0.1205480211310605
0.231 -0.03525571406683661 -0.08069307591210019 0.06889095533661402 -0.037167679921391854 0.06806170818262482 -0.026994062038557545 0.09666330433479474 -0.1203940607426666
0.232 -0.03500386832134099 -0.08007565422499664 0.0694092419020028 -0.03742831887823695 0.06951657429827666 -0.04558427818357772 0.0971608459050681 -0.12204106141031236
0.233 -0.035068451631097015 -0.07914171499505837 0.06915589407461889 -0.03775136725047934 0.07658483890426412 -0.043125188074456415 0.09713800341548309 -0.12248200325914818
0.234 -0.0354057389004903 -0.07952381154735833 0.06866273828172581 -0.03793818038884922 0.07837239643855985 -0.0432086869247858 0.09560769865028218 -0.11982629010245102
0.235 -0.034905509089328074 -0.07940698813479469 0.06912173234189914 -0.037692134535359294 0.07755365928035743 -0.03501850850730241 0.09753564017556163 -0.1210607663615511
0.236 -0.03560565267136607 -0.07901638689498844 0.06861565793501893 -0.03832595552500115 0.08201514656524728 -0.02607125973022333 0.09587357957139708 -0.11898887282044962
0.237 -0.035203382707819274 -0.07758582263224506 0.06877749090013409 -0.03825652968717666 0.07818956282813319 -0.032478075372455964 0.09683116938645508 -0.12117465052156724
0.238 -0.03577694124371185 -0.07726676077797037 0.0691648879776514 -0.03809680226265964 0.06520312113869979 -0.03253286790217931 0.09646958328398324 -0.11919861234374361
0.239 -0.035676465631708766 -0.0774474613912504 0.0685874967235943 -0.0380308650099752 0.06318735167066412 -0.04071045686701782 0.09593752912625468 -0.11947877118717787
0.24 -0.03567637731597415 -0.07641585613614015 0.06824623090487175 -0.037905751839190975 0.056806942144271344 -0.04612805740328419 0.09475690472354989 -0.1179231886639016
0.241 -0.03609902852772945 -0.07535838747365016 0.06824280871721163 -0.03809085002947817 0.07886491760055254 -0.04471379930243203 0.09625738649644228 -0.12043496802177422
0.242 -0.03588582211880266 -0.0757674650725739 0.06825772207093492 -0.03839081521670477 0.08435408707545415 -0.04812342739107921 0.09439563657633322 -0.11931058610361728
0.243 -0.03459940331589855 -0.0750563141127808 0.06839263379744533 -0.03850665285961925 0.07090849218591043 -0.061324117696516814 0.09340073975070512 -0.11816562354605294
0.244 -0.03536338620894299 -0.07546527733840105 0.06840604272608758 -0.03909757172042566 0.06609195676199783 -0.025227923232803116 0.09456504542418573 -0.12038207211567717
0.245 -0.03602950682676745 -0.07445825147702649 0.06852457309665314 -0.039174553223824835 0.06562538055163512 -0.04142513971478163 0.0953603382380847 -0.11760366686086976
