!Created with skrf (http://scikit-rf.org).
# GHz S RI R 50.0 
!freq ReS11 ImS11 ReS21 ImS21 ReS12 ImS12 ReS22 ImS22
0.13 -0.004707817820258101 -0.1573559610847685 0.11686237354642805 -0.03507794931505433 0.12472640362462133 -0.028648708371753918 0.13970943184514223 -0.14124600947625146
0.131 -0.005428918195249431 -0.1565024468281506 0.11662028733523054 -0.034326222599273544 0.1512599810672993 0.03912140821916304 0.13958961192185856 -0.13789736940839875
0.132 -0.005212846743625531 -0.15498166804575275 0.11708161282371578 -0.03518381379998494 0.12110572164993627 -0.04477161011335576 0.13621445307364544 -0.14017859027089175
0.133 -0.005813594030216101 -0.1545437467617679 0.11700573359559831 -0.035391943443107955 0.0757137546040631 -0.023120210577960657 0.13815882298353308 -0.14020627569627986
0.134 -0.007028272438596793 -0.1532640682867194 0.1166891305912751 -0.03501308266321448 0.060481822645560346 -0.055999905022916636 0.1351603549468674 -0.13842018099462236
0.135 -0.006504367812936087 -0.15156256885234137 0.11615288712924954 -0.035275403718317194 0.053489497619611776 -0.08458453326708024 0.13866320145111263 -0.138801299627992
0.136 -0.0077985148733524965 -0.15175040293534603 0.11588904384631413 -0.036042800698555276 0.10443567583007313 -0.08451883347343996 0.1361282609377856 -0.13882614219727135
0.137 -0.007476576063621131 -0.1497579667663539 0.11560962717249876 -0.035590283888806994 0.10655752300494875 -0.05245222108393709 0.13542695177321307 -0.13398612368046542
0.138 -0.0077801012882376015 -0.14903096993969034 0.11588720621019469 -0.035479356394220445 0.1329813043627539 -0.008635706797709995 0.13691292583087641 -0.13879840230015833
0.139 -0.008319310223596683 -0.14694758459476426 0.11569509050452402 -0.036377712569896865 0.17125038160379877 -0.035574064884101496 0.13771306811751402 -0.13786950905642179
0.14 -0.008824487431805417 -0.1467511944117899 0.1160856267090846 -0.03623062959193753 0.11748934889213397 -0.047339005025726764 0.1341061090176615 -0.13716447391033426
0.141 -0.00949566554499102 -0.14427294464764126 0.11577639488067369 -0.03675952689555636 0.13921829157932752 -0.04966388108519715 0.13597838913935104 -0.13397963683807446
0.142 -0.009623289380792701 -0.1458737099933697 0.11513835414716542 -0.03623990201544488 0.11206293621121126 -0.05370603843031436 0.13365627484026746 -0.13659089767382812
0.143 -0.009891769321034355 -0.14365002853020645 0.11516325976265313 -0.036390402616948044 0.1199621451720981 -0.04448575068153969 0.1326751666883674 -0.13600686992761352
0.144 -0.009808879000176197 -0.1419328412901911 0.11490666809618089 -0.0374539440541128 0.0849092907633164 -0.1026871963577672 0.13216604821343636 -0.13364134487790483
0.145 -0.011210151041569274 -0.14151151973511839 0.11511071171032324 -0.03708073490130941 0.07858757273049287 -0.05090088925971971 0.13129437299126057 -0.13475508303911407
0.146 -0.011373426558423765 -0.1399970935300715 0.1150403410726607 -0.03726688121747947 0.1353230213375313 -0.028349414355244223 0.13494778233111096 -0.13606162030455013
0.147 -0.010373755444585239 -0.13959956198253723 0.1148431841393683 -0.037375790845846975 0.11575896786816403 -0.07517355481417666 0.13489502613231094 -0.13254204706834274
0.148 -0.011521740899741848 -0.13850631138954228 0.11477637387332766 -0.03746614279220095 0.08731748602566113 -0.021983766221082564 0.13655241118681785 -0.13355771508407505
0.149 -0.010924440916321072 -0.13707411462565108 0.11462501634598266 -0.038078658954753895 0.1257958376961516 -0.03746480252329035 0.13317424091429728 -0.13093372466738437
0.15 -0.010966397841761767 -0.13514512859707384 0.11412900433990761 -0.03840504111952861 0.07095361548850664 -0.04462516519439828 0.1330980065563532 -0.13128103647915956
0.151 -0.012116085596705808 -0.13627317572103814 0.11452822072699158 -0.037871876171944284 0.1341805076703937 -0.029467036841222757 0.13230203349654893 -0.13304144994714706
0.152 -0.011210919703466663 -0.1349476981400513 0.11460007065286097 -0.03790620750005408 0.10642520530361343 -0.024042223102620653 0.1322133262024234 -0.13390518470927115
0.153 -0.012760605162865589 -0.13328562032635835 0.11495711744299172 -0.03892231024373145 0.11801573188328233 -0.06427245827201573 0.13244544117999457 -0.13104693372681536
0.154 -0.01223464806784671 -0.13309512964241527 0.1139080548622588 -0.03854795474140096 0.12801521764100732 -0.05149924187664643 0.1338336215336209 -0.1369856204734535
0.155 -0.013380146284265221 -0.13157802539806468 0.11426218009071351 -0.03963706939574802 0.07141291197146264 -0.04009352865840984 0.13123278750591758 -0.13228262196342117
0.156 -0.013821026707190006 -0.13004886769743423 0.11351224724095994 -0.03849562618481018 0.10050790024690377 -0.05943269042558791 0.131032617039772 -0.13472357212054958
0.157 -0.013636407240750992 -0.13047515317744543 0.11383631365017366 -0.03943302717280746 0.13260387704617552 -0.021818914012352458 0.1311292187951936 -0.13285850063732252
0.158 -0.014291539312477992 -0.1287978343281684 0.11492219695635818 -0.040249296224573766 0.07659087496536914 -0.008399234313211575 0.12983528762357982 -0.13096589181700793
0.159 -0.0138797494040524 -0.12937003481887832 0.11383840041215779 -0.03945302561374227 0.11814379077323853 -0.05417610395357344 0.13056245557456558 -0.13213682483215294
0.16 -0.014275184153659536 -0.12764507263757194 0.11414629504086794 -0.03983037440451488 0.1167912574621379 -0.03678195227080225 0.13245680569194296 -0.13097044451009165
0.161 -0.01447542608160761 -0.12695389483352268 0.11390962297459209 -0.040360641119393074 0.1210070629655962 -0.004809663424830063 0.13015030056647772 -0.13247955920633245
0.162 -0.015661463956170282 -0.12548248547208618 0.11337393601752153 -0.04045752276812708 0.14323052834391772 -0.06528136701422423 0.13153382839298677 -0.12960869420594054
0.163 -0.01500094434949573 -0.12585410660038765 0.11384053550086184 -0.03938533560194312 0.11260320077410463 -0.03279126042147597 0.13016148265606567 -0.13224056053455369
0.164 -0.014562337849854645 -0.12459439703393853 0.11278781939232504 -0.04074132950103232 0.09224468966752607 -0.0276339672591973 0.13037370410191054 -0.1297101580772577
0.165 -0.01541842653682722 -0.12357916858162105 0.1136182092887603 -0.040633229541070126 0.0894320794417246 -0.06534102289243719 0.12943623362566675 -0.13046269551834414
0.166 -0.016003665509835004 -0.12252364847035374 0.11240772777436683 -0.04071430634851725 0.10129381331152015 -0.04921385849208504 0.12877960514924272 -0.12869757093043865
0.167 -0.01586023454229018 -0.12241264131226964 0.11291843994972463 -0.04130452752469716 0.14576245955556622 -0.04063836589686529 0.12963705705785925 -0.13074168031252728
0.168 -0.01613803706619346 -0.12124522976732258 0.11226766173609441 -0.04126187271182557 0.1335630812783874 -0.014480181210198027 0.12637688350628223 -0.12956257639907856
0.169 -0.015921698043232017 -0.12076309284925146 0.11204307182566621 -0.04106556508327063 0.12256978775027186 -0.020615234643034695 0.1275179189179562 -0.1295526151141079
0.17 -0.016471956864577954 -0.1195451796306952 0.11277573395284654 -0.04160387519781624 0.09955236015559905 -0.06668141978294626 0.12932960214027087 -0.12882178375330428
0.171 -0.01692022284714679 -0.11913240247091722 0.11209951401481706 -0.041808886960625236 0.12855997107633782 -0.03328648203582563 0.12703731569994967 -0.13015097493017946
0.172 -0.017033915335049353 -0.11911985810791569 0.11241910271851316 -0.041832463306760236 0.13339903812705656 -0.0606092148800895 0.12816697080235004 -0.12641247112315315
0.173 -0.01661276616149856 -0.1177359841342788 0.11262783395748843 -0.04184794664766676 0.11728778596137995 -0.05383333714689063 0.13008354912288542 -0.1282075557303162
0.174 -0.017985079473548923 -0.11566428463711391 0.11206546737567061 -0.04259285373211281 0.09989839058373946 -0.04233956272116315 0.12639058000995973 -0.13136458197674397
0.175 -0.0173028230307347 -0.11592489535149082 0.111864971346232 -0.04260702541074323 0.09584506004158506 -0.04251354638861694 0.12764248636409695 -0.12591588722949526
0.176 -0.017972334249195036 -0.11532909582693363 0.11182757765516392 -0.04250268402004599 0.08556689609644129 -0.0341256120449926 0.12628116726475352 -0.1305899276576424
0.177 -0.017868796684803723 -0.1143781731852105 0.11180065988075262 -0.04231057011180665 0.14851585744817775 -0.041797026422590616 0.1267686469314315 -0.12936879679205043
0.178 -0.016879796776861997 -0.11323794129708455 0.11216052756719724 -0.04288512627190388 0.10874607358750607 -0.04127803557217455 0.12444625704534527 -0.1286519384843397
0.179 -0.018002916573558653 -0.11329533161027934 0.11133729931029736 -0.04389666325702295 0.10861035737197391 -0.01670646083464853 0.12668673484860143 -0.13154145585941493
0.18 -0.017714217584432576 -0.1128056870884188 0.1116365757114114 -0.04368062533577023 0.10741068778656182 -0.02794770211428141 0.12490934453777712 -0.128869007436155
0.181 -0.017792511971519546 -0.1121784475334716 0.11127619220327259 -0.04395365737629865 0.1083169001262428 -0.05073814148773624 0.12517509753967082 -0.12910925458716097
0.182 -0.018471311541889277 -0.111536499301467 0.11073476158099131 -0.043683178314740695 0.11873415948219469 -0.053866035094008335 0.12569938371118888 -0.12777035967539346
0.183 -0.018855538426743746 -0.11025561424858325 0.11127093375255051 -0.04433922583178484 0.1258653345259115 -0.05459973740884457 0.12340571888631062 -0.1306618182411484
0.184 -0.018566294470337127 -0.10991807933629688 0.11050610242992981 -0.044205871513095636 0.11435966184607518 -0.024978600670452822 0.12478866849587011 -0.130419203939369
0.185 -0.019230780432784134 -0.10910974279799078 0.11059315063296782 -0.044199752887417655 0.11425035601191619 -0.028725782000380045 0.125156176648883 -0.12853697690100627
0.186 -0.018826216032592758 -0.1081115001578828 0.11097627080604394 -0.044319236585230085 0.1255832475441647 -0.05023030354232026 0.1267171808963476 -0.13023824662787653
0.187 -0.018884180113255954 -0.10744237891824227 0.11054096934892323 -0.04465202626851207 0.1090101415382692 -0.03682341137976153 0.12426429430111376 -0.12732505974217775
0.188 -0.01906427423462829 -0.10725130453284419 0.1104814065298168 -0.045608488442297014 0.11567064490922671 -0.031566261326659704 0.12454538310289172 -0.12977079997012295
0.189 -0.019287511623942297 -0.10680452056716766 0.1113875441391992 -0.045127536320737335 0.12122391935216105 -0.04231635305728473 0.12540341419645973 -0.12989203285769912
0.19 -0.01945087124274788 -0.10599065674148886 0.10972429479090336 -0.04601985079146567 0.1117818140545884 -0.058241856190752485 0.12306461913907336 -0.1262875574080178
0.191 -0.01976395139690477 -0.10539667390978424 0.11066743222084933 -0.04633777799339395 0.14730405808899008 -0.045128859685297174 0.12384464617634716 -0.1267638803305132
0.192 -0.01995472652696036 -0.10468130540411268 0.11055739984727582 -0.04556232543821683 0.13967792860967407 -0.029497532929233256 0.12441164554369773 -0.12928244629697155
0.193 -0.019598803948769682 -0.10461376150621528 0.109975756915613 -0.046494133600625515 0.11044700787997183 -0.02897369694895487 0.12191157918902998 -0.12740664170130472
0.194 -0.020470851115064533 -0.1026506780728914 0.11043649403046424 -0.046221894743779336 0.10323899885855607 -0.06009376643651662 0.12579183238441413 -0.12633974184220764
0.195 -0.019996835136677302 -0.10342923245153797 0.11059606007646464 -0.04518984603346957 0.12056878506076596 -0.019454887965910935 0.12271524280307745 -0.12686366595954052
0.196 -0.019848818719835678 -0.10248195471192047 0.11009485256086379 -0.0463561068873397 0.10258258950622129 -0.038864490890962035 0.12367649940801992 -0.12657525351406496
0.197 -0.021172377895126746 -0.10200252535231288 0.10955932943205428 -0.04658512418133531 0.0884782635705147 -0.04241148593735925 0.12308376255494001 -0.12902721305489562
0.198 -0.02031240632817765 -0.10126977287230773 0.11017193465514413 -0.04622033492908403 0.11926118116047989 -0.023776309052074222 0.12135058501978814 -0.12969556405549434
0.199 -0.020863866399727614 -0.10029638685389439 0.10980199634924462 -0.04678675880693063 0.08023253883448368 -0.0604168898904911 0.125275532869816 -0.12681340903200378
0.2 -0.0201325403034815 -0.10067426297402059 0.10968646921115718 -0.04682804213724447 0.11535473126751998 -0.013537511869223919 0.12306543440630223 -0.12686901788490287
0.201 -0.020481776848905245 -0.09981131757991987 0.10940265735525971 -0.04736792951018967 0.10407418374916491 -0.032572127250910625 0.12437328995940987 -0.12812672524116245
0.202 -0.021416539688635855 -0.09974428961155922 0.10908431139637204 -0.04659540694733596 0.10955025800497258 -0.05496947319647422 0.1223330481013419 -0.12711085950231646
0.203 -0.02075177261648132 -0.09786004313430488 0.10930303571556362 -0.04792727071337737 0.1176585626596536 -0.037363883520212464 0.12396523542766935 -0.12703159753866974
0.204 -0.020692990083734597 -0.09756014520352878 0.1097248247682521 -0.04703108394369703 0.08906397894295912 -0.05583380346620193 0.12236194022033442 -0.12587370554966265
0.205 -0.021052583062656834 -0.09775903984875323 0.10889524950307485 -0.0479927347818589 0.09849247881583417 -0.04312699985985999 0.12140984557895627 -0.1277172975275328
0.206 -0.021504902826235513 -0.09703626647779424 0.10889173171938842 -0.048187482717464314 0.10120987750507858 -0.05009470528796179 0.12138834353492998 -0.1283169377289766
0.207 -0.02081328778167243 -0.09582790680936955 0.10929400506658671 -0.048697898177370025 0.11442775082883393 -0.06941317941612397 0.12197504047462919 -0.12585639934769913
0.208 -0.021214876434804606 -0.09559965230524921 0.1086122948738845 -0.04864229188953071 0.07748606186138934 -0.06742935506016047 0.12247564564262763 -0.1275279790134177
0.209 -0.02192428003013111 -0.09534471134810112 0.10857235596540116 -0.04832055537957223 0.11389227418810867 -0.04180984461160107 0.12057714874559779 -0.12781551209614692
0.21 -0.02098147758093921 -0.09447852734038331 0.10871382904648014 -0.04921623991218452 0.10922009483462225 -0.04242952962368449 0.12328341760811906 -0.12942491797498618
0.211 -0.022612682749748328 -0.0948698455058637 0.10813587001669832 -0.04975401970071078 0.11047307149751723 -0.07389906379810914 0.12304020645517029 -0.12747285447141868
0.212 -0.021901323975634577 -0.09415770694383428 0.10870153339479251 -0.049019371728444845 0.11671610305935234 -0.061982341822300835 0.12151720922482091 -0.12794554902505398
0.213 -0.022638181126412523 -0.09402085841527272 0.10824057871162686 -0.04965244887768048 0.11077676181607177 -0.05639373752003944 0.11903811795701949 -0.12411103354652575
0.214 -0.022135231801610596 -0.09258280171199136 0.10838682507025582 -0.049092975011078364 0.10373635783533162 -0.05150223512926316 0.12215714870190861 -0.12654895473480848
0.215 -0.021995451653523356 -0.09216769005467011 0.10804307062000158 -0.04918109396688298 0.08019212819619034 -0.0585768038149587 0.1202194881659122 -0.12620008767297375
0.216 -0.021813263056160763 -0.09195323182562345 0.10769335252227061 -0.04966404748351967 0.10478391163582183 -0.04929706785225274 0.12205743177836308 -0.1262318952612928
0.217 -0.0221859057673258 -0.09178361342171375 0.10743102812317702 -0.0507557883521524 0.1129370986377828 -0.05428921581634578 0.11916317125324959 -0.12903358794266317
0.218 -0.02126709747477923 -0.09059407482365757 0.1078182520714813 -0.050430730615055507 0.10656190274394386 -0.0675711035133565 0.12166880523499307 -0.12859465350246835
0.219 -0.02273501013350221 -0.0905851939071735 0.1081044418004348 -0.05057351806532856 0.11319516678521667 -0.04470329766346659 0.11865802815390107 -0.1263771521086238
0.22 -0.022854647676724637 -0.09051399515722575 0.1076393528373917 -0.05019448265670591 0.12696605758968704 -0.06448939347334048 0.12088688327718704 -0.1258878794293143
0.221 -0.02201874068841474 -0.08985101716981544 0.10768069235198673 -0.051102798477717364 0.10296600263642672 -0.04233550209742364 0.12441535196122515 -0.12765577565125666
0.222 -0.02225258019476566 -0.08925058138771946 0.10707769203287365 -0.05098894443857443 0.10743006761748448 -0.05237249058618448 0.12061525166944657 -0.12609187371642702
0.223 -0.022312391825132585 -0.08918380734230995 0.10684769450898608 -0.05152275765667093 0.10619562640950327 -0.060249088067743255 0.11806006467573976 -0.12733345179748662
0.224 -0.02235016689387013 -0.08705296721042957 0.10752535916864153 -0.05154947076680244 0.11188779359026994 -0.032333161641063826 0.1182958789831285 -0.12681540835503394
0.225 -0.022925225091707007 -0.08745243918744018 0.10740244541574706 -0.052623576686885234 0.10742848258036491 -0.04948599914186499 0.12027634175997472 -0.1254226004381899
0.226 -0.022378405908982577 -0.0863337622879464 0.10695146802317979 -0.05113688658588517 0.08935750861431588 -0.07031290729974639 0.12013831861840261 -0.1257931445265525
0.227 -0.02304895880617363 -0.08655904354236785 0.10715174123079933 -0.051738672134034436 0.09976038025843952 -0.06337195315693842 0.11904188219850814 -0.1272949138870402
0.228 -0.022299628971313643 -0.08610627395159495 0.10681944951320184 -0.05251384792173815 0.11452406873824364 -0.04624009320909392 0.11850114732503539 -0.1271062521912863
0.229 -0.022409129592454773 -0.08524752189831891 0.10679102966300594 -0.05230305417704483 0.11424455577576101 -0.04460344433841418 0.11863298354800474 -0.12807884178373
0.23 -0.022835396757717494 -0.08514315266851853 0.1063664558726212 -0.05273890634981607 0.10364200157757189 -0.05005459638042483 0.11733760325439198 -0.12562244741406262
0.231 -0.023407424960265686 -0.08378957034899469 0.10639540491697606 -0.051842290338459725 0.10847444094489847 -0.059812641083094496 0.12046694357233624 -0.1272910727287274
0.232 -0.023162181231591045 -0.0839481488706363 0.10746078190674967 -0.05232441946190628 0.12397067927940285 -0.0504680236457171 0.11876953846155532 -0.126916131312141
0.233 -0.0229572656636823 -0.08334017298035004 0.10644381238466565 -0.05265488874283409 0.11357356679540431 -0.0625828944043801 0.11932484488900098 -0.12713951929601977
0.234 -0.023335969263762003 -0.08357612327195492 0.10620506615847972 -0.05255562223551426 0.09542383403584 -0.051379031661748266 0.1176255151334117 -0.12705123818565464
0.235 -0.023284191916167336 -0.08309712136498104 0.10564697089345965 -0.054066832852986954 0.11501837446109413 -0.051894912896921365 0.11910918290913113 -0.1266353437990976
0.236 -0.023479733906531436 -0.0823019507475243 0.10583243015484317 -0.053284966036798255 0.09414819943993531 -0.05354136847216052 0.11682483908264794 -0.12638975984839676
0.237 -0.02322090467040448 -0.08214427475097397 0.10597335543646037 -0.053404565446453084 0.11700093708888398 -0.07210360082707051 0.11750228577413753 -0.12822032319675725
0.238 -0.023047788602878063 -0.08159582589087813 0.10606017709942642 -0.05393535407482305 0.09723442110176646 -0.06581661319693864 0.11900105575090243 -0.12586781738387873
0.239 -0.02424612528523241 -0.08141383340496383 0.10586673014260664 -0.054048018509429786 0.10020929260868242 -0.05567922638929521 0.11823454670280437 -0.12667137489945968
0.24 -0.023739171146630007 -0.0805432600108735 0.10605957761285043 -0.05387966422800005 0.09657133579416627 -0.06216570926375428 0.11717140487885801 -0.1254107490376333
0.241 -0.023806556755720264 -0.08000339314794552 0.10525786913061315 -0.05494677142317403 0.11635117009323713 -0.04602451832864018 0.11830394432970061 -0.12737910736568095
0.242 -0.02405617846237856 -0.079462812608544 0.10499802846109503 -0.05409511377013237 0.10577928152533739 -0.05792186805865741 0.11673921549212855 -0.12699377511704874
0.243 -0.023263060252399756 -0.07893718967287282 0.10533437480065172 -0.054020646464148725 0.11044274320943638 -0.03950980456942231 0.11491735518745987 -0.12604649510353275
0.244 -0.024097184798607462 -0.079605854190084 0.10510700852676452 -0.05493179741262316 0.10866921115586423 -0.06663146654848401 0.11495436068511154 -0.1268387488253634
0.245 -0.023657962842754888 -0.07840425834454223 0.10533736993881117 -0.05550046241155265 0.1054164217163254 -0.05998789572172818 0.11720025374571558 -0.12476342961665035
