!Created with skrf (http://scikit-rf.org).
# GHz S RI R 50.0 
!freq ReS11 ImS11 ReS21 ImS21 ReS12 ImS12 ReS22 ImS22
0.13 0.012911130118936449 -0.15612085382037985 0.17956684177898763 -0.0435376832140636 0.18073054136984287 -0.06372155188791404 0.15338467069828146 -0.14413573584649653
0.131 0.014194318461216193 -0.15601604360582988 0.17873214574431615 -0.04438404243040923 0.20279834138855785 -0.05368217151876026 0.15535099517342635 -0.14140896711367473
0.132 0.012667672975882414 -0.15339919524053955 0.181177017289719 -0.04470703750923 0.17844390853039757 -0.0468998521665398 0.14827204889754642 -0.1454453989901639
0.133 0.011674771385544016 -0.15259949761663538 0.17982804259390553 -0.04552571967639945 0.2041609384236624 0.015542240009904285 0.1528218031347637 -0.14431312337481916
0.134 0.012016001043074296 -0.15275283601866874 0.17943876934510464 -0.04474359663302024 0.18280629617382285 -0.03676848570192219 0.1531154088840486 -0.14350149151520947
0.135 0.01212009451252498 -0.14968761897765284 0.17971947846621497 -0.04656062783359257 0.2260466857186323 -0.0400671256377615 0.15185377797747462 -0.14173819192348494
0.136 0.010570583306887807 -0.1502076616789101 0.17923416155441274 -0.04685114412437924 0.1573041300561463 -0.03876716429343428 0.15094804245515414 -0.14339665276349753
0.137 0.011501718824965717 -0.14865250129124802 0.17860105942309498 -0.04700094751221906 0.18129692856290508 -0.044831147907590574 0.1498037553719929 -0.1381913847348934
0.138 0.011279957528998158 -0.14813412745059204 0.17847498377940582 -0.04718846180638502 0.2618631865154665 -0.013962291176258825 0.14960153907811746 -0.13981100929103016
0.139 0.010373135257796685 -0.14694786233545679 0.17956775491753715 -0.04696813069788365 0.20845297923799286 -0.024853956127069154 0.15164099894230632 -0.1407951664316552
0.14 0.009705859538780231 -0.14581146700231032 0.17882686897107783 -0.048196991517463546 0.17775445611517746 -0.09498301366564423 0.14911237686970744 -0.14028346124982252
0.141 0.009286537570317081 -0.14438580599312797 0.17882436303264457 -0.04781810006722423 0.16550602767972933 0.009286764324419067 0.14725568463894612 -0.1415718488433207
0.142 0.008911887471953431 -0.1450657493633669 0.17726064907705685 -0.047879596555650834 0.22029696876323773 -0.015076599276161872 0.1465859362581516 -0.14023069220756648
0.143 0.009650909944003598 -0.1426820823509755 0.17779198104879498 -0.04825659151916882 0.17885050116129447 -0.035865826920754684 0.14796945236395834 -0.1391726983524055
0.144 0.008652318141307472 -0.14233423106734522 0.17738516450194206 -0.04956147717442097 0.1913707789518515 -0.038518590275068064 0.14427124089615176 -0.1394693155725129
0.145 0.007978106083689299 -0.1411886968186701 0.17849586419249464 -0.04929488906792076 0.2102626033724672 -0.04798187190049303 0.14597617674578456 -0.13898562116629132
0.146 0.008424997833403825 -0.14021353271471035 0.17819976305777985 -0.04978049337083567 0.190568863507206 -0.026462878948710328 0.14858295728437668 -0.13870550607485488
0.147 0.008881406381742821 -0.1386477667759393 0.177924492123406 -0.04983505813620208 0.13886553442034288 -0.011112425079886752 0.1474755451536457 -0.13500973487594192
0.148 0.00771038505412327 -0.1379388314786613 0.1775699934113421 -0.04981869101228974 0.18783644688325185 -0.09712551242895363 0.14923403268884514 -0.13978165836797923
0.149 0.00781804181603199 -0.13648663222273025 0.17642299099186792 -0.05138289603510292 0.1724728868362259 -0.06257035561211949 0.14688900348575468 -0.13367995084513287
0.15 0.007217424012880334 -0.136028912078011 0.1765027642326291 -0.05137977622406617 0.174335368570586 -0.0008739474857919108 0.14524240507880928 -0.1364621551068466
0.151 0.007004124007097284 -0.1360826946981852 0.17718367589091621 -0.05147993366825208 0.2091710518530066 -0.05224860682639222 0.14477313642600964 -0.13501856857522274
0.152 0.0065275122422561544 -0.13575573882627584 0.17670865620170756 -0.051578951452262975 0.20355914045314524 -0.07291399314917317 0.14448057649242474 -0.13996056752731348
0.153 0.006115301664641681 -0.13438003231685894 0.17817479546144424 -0.05252489425083859 0.1763478062521391 -0.0614970905254503 0.1441429462459005 -0.13691702504346534
0.154 0.006725333271388484 -0.13195959688172296 0.17646743275392981 -0.05184244096186273 0.17238421919074157 -0.035166868772276164 0.1450663744119722 -0.13936695401102953
0.155 0.005932264911059542 -0.13202437031571232 0.17688267645643763 -0.05340797103434333 0.1401284475732587 -0.054813413250391914 0.1441021703813689 -0.13701764670613173
0.156 0.005136653283465101 -0.1301388708449981 0.17640505403621815 -0.0522042369611856 0.17704795076085983 -0.03296233227528635 0.14287967935208834 -0.13743270940709137
0.157 0.005444605255921602 -0.1311719847819166 0.1752206226551043 -0.05331705092667503 0.192660161089274 -0.054630716006152484 0.14718200732802605 -0.13743175942261193
0.158 0.005424787520822463 -0.12971151266908576 0.17769528677774232 -0.05491424842337236 0.18814620115808375 -0.057152295735926374 0.1440772885093121 -0.13332728475530628
0.159 0.004379142038701365 -0.13036697777029455 0.17586694538032605 -0.053228239789752475 0.20844776790342495 -0.020754686639811795 0.14337618152626552 -0.13557826276201485
0.16 0.004544627500947532 -0.12819477956765057 0.17635350205416905 -0.053968824897477015 0.1907533066823989 -0.06417361273682648 0.14494614522354432 -0.13391481761514692
0.161 0.004340181198202307 -0.1270807328425944 0.17564881473884744 -0.05468201756496713 0.16260443545583736 -0.06310894338531729 0.14204388049184197 -0.1378624356682715
0.162 0.002356032954655914 -0.12686388777153185 0.17540618973898386 -0.05513352549023337 0.19222784726515663 -0.0562614655810067 0.14508883316514204 -0.13401076085740915
0.163 0.004473495097498453 -0.12706476896142344 0.17508987890291847 -0.05475095919326001 0.17585876063213052 -0.09969082244873562 0.14391879243247122 -0.13614261278127446
0.164 0.0036101456772941335 -0.12493474727837528 0.1742520624848073 -0.05482459787882398 0.17449395817097393 -0.05982998512734187 0.14384035922691726 -0.13426230322861404
0.165 0.0036724552674449154 -0.12442686269935384 0.17577899515519052 -0.05604422428733152 0.16885686770108144 -0.10996517040190809 0.14383613042918272 -0.13498552377216314
0.166 0.0030909678482289797 -0.12387695248723397 0.1742681063171767 -0.056955935522912796 0.187644392632968 -0.03367929162068744 0.1436486028254048 -0.1311443024074368
0.167 0.0026334287816442924 -0.1227504440452801 0.17555732291828888 -0.05600567852649502 0.16572956150986515 -0.04255373921262113 0.1440366611418358 -0.1331970966813132
0.168 0.0031049730198405207 -0.12199415336792722 0.1742252253121189 -0.05811082492089265 0.14790321245710755 -0.06383760971383559 0.1407063340746212 -0.1343649297156836
0.169 0.00319315269160932 -0.12030257229441634 0.17455684569868127 -0.056859720062355894 0.15966636867681422 -0.03984284750882972 0.14276994215302535 -0.1372423291036011
0.17 0.0031993897201471762 -0.12053428632753273 0.1745567574675692 -0.058080815599203535 0.18327593132745823 -0.07608675999956123 0.14240459748203912 -0.13531180744289806
0.171 0.0025797541704495786 -0.12012125450583154 0.17386767552700258 -0.05803300973632799 0.16237822920305872 -0.06581693672907725 0.13914078103895797 -0.13549930563582918
0.172 0.0012061163051573648 -0.11999961894502624 0.17296075094610308 -0.05786836076007856 0.20129144638248084 -0.04879737915299251 0.14311011086194314 -0.1342275532292797
0.173 0.0015641935257247612 -0.11914486812078293 0.1737226807828145 -0.05789595613498591 0.1797360716371601 -0.03763102097726038 0.14512693905348958 -0.13553757312536627
0.174 0.0011336646997759361 -0.11730962377102493 0.17354356380347044 -0.0599025097933679 0.1949562347005296 -0.0822013458752108 0.1407585687297241 -0.13549945033344366
0.175 0.0011743125299425105 -0.1177915216521007 0.1730544155393082 -0.05912902015817817 0.1931066142582431 -0.09735545736436692 0.14129846805645688 -0.1326424892014093
0.176 0.0014091375577810195 -0.11708677532686379 0.17295403197866732 -0.05992378613042471 0.1518332275739758 -0.062270274842972956 0.1417144140388812 -0.13409004404276503
0.177 0.0011905974170203064 -0.11635314594307104 0.17235828104670028 -0.059836764521468556 0.17093383682023308 -0.03529354215310178 0.14133846182433654 -0.13434149656831176
0.178 0.0024449782085274397 -0.11569616199498073 0.17355646855094276 -0.060434289445259574 0.15173725321515846 -0.06734576910655798 0.13678324307535908 -0.13550557788793732
0.179 0.0007585942331203746 -0.11474619874236947 0.17269332305761115 -0.0616262581610498 0.16102395532827402 -0.05156916275354573 0.1415889305198066 -0.13538719330635063
0.18 0.0018251888047397325 -0.11365739084594831 0.17202670326401812 -0.06186199284979481 0.1607697637484162 -0.0796608428760665 0.13960385929595007 -0.13516141804718723
0.181 0.0001225510600670736 -0.11434133884677805 0.17183077390524754 -0.06227418205480371 0.1649144920795882 -0.025692067457729246 0.13688122204549732 -0.13212318511656312
0.182 0.0004678195838021895 -0.1136768629251529 0.17159130400029246 -0.06130061329884949 0.1701243488398934 -0.08458739679930792 0.13893595550642532 -0.13399445603796514
0.183 0.00031042542903183054 -0.11206907473572991 0.1722581749885112 -0.062477390114735964 0.1589941140248679 -0.05484922793258 0.13905015593614456 -0.13607151337938952
0.184 -0.00011232616479263958 -0.11226371892523583 0.17177373415746575 -0.06257629002198016 0.17278105581721342 -0.059414740043139486 0.13581092552163457 -0.13614052149226236
0.185 -0.0003748775107098739 -0.11110312702372135 0.17117826381276025 -0.06263437985188292 0.17067589534526076 -0.05092271416875247 0.13939580244110406 -0.1336591304192965
0.186 -4.80645700300279e-06 -0.11141121526796958 0.17171114096652926 -0.06285316521142645 0.17158258032715107 -0.08351618796546893 0.13836001359858394 -0.1347111741012722
0.187 -0.0003348517859952461 -0.1097208217443848 0.17117616066315566 -0.06288642333446771 0.16907820990780525 -0.06848810323109199 0.13608683315676054 -0.13441527689968807
0.188 -0.00022178424409137332 -0.11015932031780587 0.17244601220332292 -0.06376431621474239 0.17062867146890986 -0.027503080131911446 0.13755160320922163 -0.13332979426488728
0.189 -0.00017443066001773865 -0.1088070628062516 0.1724877003222389 -0.06427276787018157 0.16399459549398623 -0.06516125821249241 0.13703591143999688 -0.13354924864810755
0.19 -0.00034679097847451954 -0.10859474776720138 0.1713292478014949 -0.0648033547151867 0.15372262884378188 -0.06313224429645319 0.13846034147992056 -0.13215163180430728
0.191 -0.0006034998550246517 -0.10823528146930762 0.172331888733088 -0.06489210181038607 0.16723160229700446 -0.09367377180108674 0.1374374740852466 -0.13299128809201102
0.192 -0.000837244174159989 -0.10745502716177867 0.17158395468950802 -0.06415251678313276 0.17236805870301844 -0.06302634573464384 0.13803282313379955 -0.13222986557622152
0.193 -0.0012161546717571066 -0.10802519895563253 0.17036917455824763 -0.06603929348394916 0.1687776805253627 -0.07688924036816813 0.13656175848253074 -0.13298277397664243
0.194 -0.0007618564142744098 -0.10594464712753131 0.17138445403787822 -0.06575842558213538 0.17407173221627875 -0.048309937059982405 0.1376081204442588 -0.13453077438629849
0.195 -0.0012202370243895898 -0.1063839791548767 0.17014780115793565 -0.06531661927717185 0.16226457213541173 -0.08187982330754014 0.1354264154062983 -0.133235563137205
0.196 -0.001317830946679057 -0.1050628471451767 0.17050858170382824 -0.0657317166315826 0.16411198346210518 -0.049476282584550835 0.1375414558295137 -0.13366879414368468
0.197 -0.002505474535880738 -0.10436803584164041 0.17032835800688367 -0.06682182400309593 0.16269525615128386 -0.06715032972331446 0.1362948756023434 -0.13469614067969063
0.198 -0.0015286548206874934 -0.10420377073477566 0.171329674481005 -0.0653837641324375 0.1534606939246586 -0.0509956346908413 0.13532213824169642 -0.13297809522865653
0.199 -0.0012524672382419125 -0.10328453596708459 0.16894400767072087 -0.06803911067539244 0.18028489252597166 -0.07871033906224341 0.13702878354567882 -0.1346275967338939
0.2 -0.001751911015620327 -0.10293391875333148 0.16888453781721896 -0.06683664263557781 0.16852397455454446 -0.0529634543838502 0.13630840804835545 -0.13397094110448748
0.201 -0.002139571252353234 -0.10271345981363543 0.16945652083039311 -0.06663103034638646 0.16205906873259734 -0.051694496387916754 0.13605419878884475 -0.1369509502034041
0.202 -0.0021365380140941736 -0.10241817884603258 0.16926481607152033 -0.06811945993021305 0.1684112608322186 -0.05074996608131057 0.135573529779267 -0.13158578741505325
0.203 -0.001992770427946593 -0.1015428776575987 0.16992784474666908 -0.06816796542121165 0.16675684465489368 -0.08335325896946459 0.13451335366325345 -0.13319033753950446
0.204 -0.002138186114190103 -0.10073362236032989 0.16961987624230965 -0.06761102709481491 0.18434309171086316 -0.08525672674422793 0.13423897921651895 -0.1334695465587208
0.205 -0.0021666777952012474 -0.10136944320655802 0.1680473583947101 -0.06903082351802894 0.14387218939769372 -0.07344534445565928 0.13521690105523493 -0.13449969959166017
0.206 -0.002294315400120506 -0.10089103824107216 0.16926427572551453 -0.06945597600037476 0.1531999763668319 -0.08866980358418543 0.13477910165502635 -0.13387965892243422
0.207 -0.002881826512938306 -0.09988013198996326 0.16910050299514753 -0.06920635785805648 0.16250799140856248 -0.08544488680048407 0.13344872574394964 -0.13434490069904328
0.208 -0.002599344030827516 -0.09947522237695398 0.16778195711443883 -0.06978008851883788 0.16346654596995508 -0.06335883996472666 0.13292177617440842 -0.13341004150793448
0.209 -0.0027334825670903827 -0.09942074489277625 0.16874978584012745 -0.07025797767227347 0.1649504199485698 -0.07868588295762662 0.13365429605372564 -0.13428444839627293
0.21 -0.0024044070118345194 -0.09842478472882463 0.16852875261138392 -0.07086813250458111 0.15926849835107906 -0.08031126800924279 0.13434793727853392 -0.13522598094387633
0.211 -0.002922475081412096 -0.09870835155358097 0.16776414645052282 -0.07066587918950837 0.17267401075084807 -0.06823698932585519 0.13399619937601565 -0.13340078365325198
0.212 -0.0034276640299545917 -0.09798106180698074 0.16831299715107392 -0.07102550827745958 0.17690136498060122 -0.07513719301665682 0.13388680965166685 -0.1359364846540569
0.213 -0.0033388677850008214 -0.09857322761191104 0.1679459403692124 -0.07143265241486606 0.1668723668778107 -0.06406782763012883 0.1323466809839924 -0.1314136648374295
0.214 -0.0037092949223797565 -0.09663951394151596 0.16816329474666694 -0.07137724525727318 0.1767003584984812 -0.06352477491004256 0.1333856203590941 -0.1358188862388411
0.215 -0.0021889589585355196 -0.09657936949149783 0.16771589865913306 -0.07171694457814334 0.15963760124764168 -0.08417282839489422 0.13310096914957809 -0.13424491654769588
0.216 -0.0036807979184097337 -0.09603060735533228 0.1670619524189493 -0.07221426614495614 0.17359199430323363 -0.07427723179369256 0.13282058334379582 -0.13360343328164342
0.217 -0.0030015196870313903 -0.09579343661666224 0.16689840381810206 -0.07373369637438305 0.16857377765594272 -0.045437473727325324 0.13268327478878147 -0.1338317645847734
0.218 -0.0031073132204013174 -0.09474111593566668 0.1671897685631359 -0.07291238091330056 0.16251051471303682 -0.06961721403445797 0.13340936440160883 -0.1329699032089282
0.219 -0.003219933591053272 -0.09483718013412593 0.16758406831714245 -0.07355540892140011 0.17124660446611173 -0.07822515609690407 0.1336847208626855 -0.13503360869979872
0.22 -0.003957571010067187 -0.09464819960679981 0.16707370780885397 -0.0730264256628655 0.1703879584782544 -0.05105110335746037 0.13195325047285197 -0.13238247872901948
0.221 -0.0036959625438686937 -0.09393307126512088 0.16760369707335693 -0.07463494069361121 0.16959763796548394 -0.0846012037227501 0.13308059495404106 -0.13375913627434083
0.222 -0.0034327250754607867 -0.09339110372819921 0.16608044188077925 -0.07404973762938885 0.17858713081291633 -0.05994720343884146 0.13091971858069446 -0.13211076023041263
0.223 -0.0035799119355091643 -0.09321657051782964 0.16575443574795634 -0.07482403926477636 0.15828872578989234 -0.08185350367724967 0.12869053200354033 -0.1350965005069452
0.224 -0.004253488437134305 -0.09176974070147935 0.166277072747027 -0.07526901781174793 0.1585703630126691 -0.09991667314898844 0.13127601768827982 -0.13317283712846137
0.225 -0.004129124769863536 -0.09179783249391042 0.16657374546155734 -0.07688787415618663 0.17267162421597465 -0.09172598222766379 0.13143528023300388 -0.13515852926910515
0.226 -0.0036201581915616815 -0.09145038727579317 0.16534266055086988 -0.07433894756226853 0.16651078185636753 -0.08563042242665103 0.12971246657949348 -0.13305811446037252
0.227 -0.004602012166047041 -0.09141497635988133 0.16579761843080731 -0.07585639690122968 0.15327413641770077 -0.07892770220736463 0.13026720864183247 -0.13379821562649594
0.228 -0.00428300378269673 -0.09105152377855012 0.16638242474683765 -0.0762055969359172 0.16926241738271225 -0.060673822910630996 0.13122491265054692 -0.1343023897245051
0.229 -0.0037597375348139526 -0.09036241591823041 0.16614348777255772 -0.07495672854571875 0.16644825654566112 -0.0951921522859896 0.1296974306332265 -0.13517388088980745
0.23 -0.004436868590177135 -0.09010271778621262 0.16505977402371982 -0.07686411251404185 0.1577121545613722 -0.06855285401506808 0.13023096806760567 -0.13361391306875642
0.231 -0.004301933165611152 -0.08904507031323179 0.1652286827798498 -0.07655584691831911 0.1533050365427636 -0.0752318184377756 0.13176475604939386 -0.13323396136251944
0.232 -0.004694500639442096 -0.08923723048321865 0.16489434095941516 -0.07693635049195176 0.1556101311843986 -0.08479775415942117 0.13044615669970905 -0.13316548639610454
0.233 -0.004725586173255279 -0.08802377284340464 0.16401131360092658 -0.07806651947281333 0.15656401930588723 -0.07517828035314526 0.1308356338638497 -0.13577971200991185
0.234 -0.00455760557682032 -0.08865813183292537 0.16406296002779705 -0.07779682782206476 0.1686219894394023 -0.07270786902139602 0.13014552742524851 -0.13353407411040513
0.235 -0.004572337108589209 -0.08802912054470148 0.16347505629825532 -0.0780481681510891 0.18545463673465393 -0.09136331122916563 0.1299727417418911 -0.13492105414987035
0.236 -0.004777878226481493 -0.08771560047468532 0.16404658938316252 -0.0786076826480983 0.15408911069526954 -0.07669883650064692 0.1288349523557043 -0.13341165615890868
0.237 -0.004897036886341098 -0.0874352178371879 0.1630939103659864 -0.07826102756534742 0.15886635173113936 -0.07206305410708433 0.1297338715717701 -0.1327635037711933
0.238 -0.0045222840656456344 -0.08633150521178297 0.1629581831166377 -0.07905187873826516 0.16409988881853485 -0.08105095440682375 0.13061214869176588 -0.13418708467186535
0.239 -0.005427769721196994 -0.08697460873928392 0.1644576205355423 -0.0786936105267766 0.16770287057282446 -0.07155904608029434 0.1304039214420176 -0.13491432268140005
0.24 -0.004983359866914624 -0.08585478449065757 0.16317894811782102 -0.07898206532519923 0.16151429068355877 -0.08205840115188157 0.12914499508327754 -0.13215804809591025
0.241 -0.0058285388600065715 -0.08536573526958355 0.16266557606485768 -0.07975400765214859 0.1633609054609764 -0.0800964508380854 0.1301788021768261 -0.13414897039818813
0.242 -0.004911138193846374 -0.08540578390103909 0.16217938695183776 -0.08005237634554992 0.16687415594421892 -0.08965043612530016 0.12794934867503385 -0.1348998877329122
0.243 -0.004700399401787837 -0.08456011586740303 0.16282032814003689 -0.08013914877684415 0.15725945868335484 -0.0797473020253943 0.12761907758318466 -0.1334548815198626
0.244 -0.005904044255030423 -0.08484851583385605 0.1634365049255219 -0.08115212169219277 0.16165565520212483 -0.09017368336583213 0.12865308395355862 -0.13490305726611296
0.245 -0.005682647242978406 -0.08387766940797868 0.16337544293743061 -0.08163581057017581 0.16143964300147473 -0.07701460807736395 0.12872671793534526 -0.1321639280178225
