!Created with skrf (http://scikit-rf.org).
# GHz S RI R 50.0 
!freq ReS11 ImS11 ReS21 ImS21 ReS12 ImS12 ReS22 ImS22
0.13 0.057181779515333236 -0.15136214515464985 0.2753850673240866 -0.051670651463531274 0.24382962152008034 -0.04664290484083616 0.13944672858960247 -0.153421554236302
0.131 0.05753825833863916 -0.1493039809646686 0.27679401979484214 -0.05211767035872969 0.3490021269756782 -0.11656359212411378 0.14442953823422017 -0.14972186785385524
0.132 0.05743171332918956 -0.14869850005948645 0.27726297580061143 -0.05132561896470372 0.29848617385836523 -0.026645023266350747 0.1397689570136807 -0.1506305375788431
0.133 0.05581025757371248 -0.14680550741264983 0.2762721140773601 -0.051996741469370375 0.27117979620259225 -0.0041104024424449635 0.1405871046026394 -0.15111313834768503
0.134 0.05675377680067307 -0.14808304056287352 0.27635562739368513 -0.05248631597457785 0.27004605410720706 -0.03814168028170686 0.141644017538283 -0.15128009861802333
0.135 0.05573066727746871 -0.14525940821955016 0.2752218470978862 -0.054704960196013834 0.26281527550353895 -0.08153754257707817 0.14137973795992967 -0.15180464437976698
0.136 0.05521408644627426 -0.14572909500943804 0.2747908589528966 -0.05530247729758291 0.29632157093375566 -0.0666652654750005 0.1404192928141946 -0.15230411915424544
0.137 0.05552211794250413 -0.14414160656870895 0.2735952369427165 -0.055497770631133356 0.23956539260493026 -0.06773214385356201 0.14142046246029158 -0.14937344663042762
0.138 0.05549379102867412 -0.14365172505911464 0.2744509665429802 -0.05665362163524383 0.2774296660863437 -0.05482955037366561 0.13908343059138278 -0.1488334362037778
0.139 0.054658889521419805 -0.14333317991585473 0.2746865553803147 -0.057283622139921705 0.23843100126945643 -0.08741204449613862 0.1406581487069901 -0.14902648944608798
0.14 0.05445024893260543 -0.14181965949023725 0.2750971998521041 -0.0572293502675853 0.28226073178621947 -0.05872256285685504 0.13896716027766579 -0.14829603642079725
0.141 0.053636578189945265 -0.141006154988341 0.2744674861131126 -0.057955084758178725 0.2846741400807281 -0.10577094024978673 0.13928000528963347 -0.14631027872162072
0.142 0.05347087702354927 -0.14136429560336475 0.2725988920265277 -0.05812684933918461 0.2670586737326419 -0.05483350263358505 0.13749588546350044 -0.14683337438326535
0.143 0.053388643961777386 -0.1396096473393277 0.27249012159861324 -0.05848216084543362 0.32449460957152176 -0.035473755216952584 0.1361418025676584 -0.1465551649188438
0.144 0.053365431697875054 -0.1376761561929802 0.27340156655461023 -0.06062298520070544 0.2517665113587931 -0.05073724889253613 0.13656346755785193 -0.14646665219638025
0.145 0.052512823171175206 -0.13819849246026591 0.2734517746898111 -0.06046212599528686 0.27792211465902833 -0.055798991623014 0.13554720713401056 -0.14464100795225834
0.146 0.05288726935213348 -0.1367001989770647 0.2731142908246653 -0.06137334386135599 0.24036561631881823 -0.03856902910349151 0.14151614663279993 -0.14443806407238668
0.147 0.05321909602754195 -0.1371290623624448 0.2727869143826427 -0.061471827019212874 0.2528778366376375 -0.09356158477790459 0.13831082081117618 -0.1443946660765253
0.148 0.052174759886402224 -0.13501273994429244 0.2729397653432781 -0.062446920201630826 0.2824398506029381 -0.05700941652842215 0.13927379861089947 -0.1429547131870782
0.149 0.05264482592209229 -0.13444793551993384 0.27235418036330433 -0.06476673507946391 0.28491242418803414 -0.06640780084775434 0.13655909587558573 -0.14147267141693143
0.15 0.051965675397196355 -0.13434227163432436 0.27205499203027944 -0.06480697356605572 0.2636653671036099 -0.0715004531657926 0.13609443964947907 -0.1441733985199427
0.151 0.05216145887058865 -0.13333345306540864 0.27240343962136637 -0.0637255646264098 0.28003098841803337 -0.041916818703479616 0.13562005592487933 -0.14407802875930975
0.152 0.05149379976795174 -0.1338549714131673 0.2720118686879942 -0.06464618971763644 0.26344009484661407 -0.09092628874021419 0.1352978530407857 -0.1459317204458099
0.153 0.050870872599911514 -0.13215434202389337 0.2741579043399168 -0.06670491933572131 0.2353489567107836 -0.09664910147348063 0.13319008925311618 -0.14159781288080484
0.154 0.05068088623480847 -0.13138062894148012 0.2722516224241988 -0.06602249350773391 0.276425884402544 -0.06841818350439148 0.13381297927911665 -0.14402226906696672
0.155 0.05024046794025575 -0.13086757170587401 0.27229381021731724 -0.0694731391373746 0.2950185105356388 -0.10472247195294743 0.13454166087076208 -0.14578890734632996
0.156 0.049920504892012794 -0.13014329150941115 0.27133099052824833 -0.06757626219057442 0.2823820147186807 -0.06135805475286506 0.13255475979807754 -0.1429602906900748
0.157 0.050607900702932924 -0.13018335498338193 0.2716882853755919 -0.06801816237040768 0.2641363312430146 -0.06291872117930417 0.13472005276332835 -0.14515982698516258
0.158 0.04959553978162761 -0.1283372669511245 0.27402930566413125 -0.06976162931250036 0.20241752985041778 -0.05212332280814183 0.13352776383260828 -0.14140457696661915
0.159 0.04813652360730908 -0.12976373223925436 0.2709008416630961 -0.06940300253088227 0.28580902060703156 -0.09415017919617379 0.13372642366437218 -0.141157018364038
0.16 0.05055990724781672 -0.12822984400939344 0.27158690280434905 -0.07031353916430262 0.2740170278264522 -0.0880221863745873 0.13515479267316413 -0.14085154279354323
0.161 0.04924151475979137 -0.12699338918027978 0.27129738274486354 -0.07107090467918968 0.2795903904671957 -0.055372662537143784 0.13327440169884983 -0.14470480535384614
0.162 0.04852209502060419 -0.12720587731987365 0.2710009989005815 -0.07333264212990336 0.2565304579274989 -0.07990629993533623 0.13433136571070248 -0.14093225201813234
0.163 0.04892885734447625 -0.12609337708734408 0.2712246623176715 -0.07121339004028372 0.2758056334218076 -0.050753729495933486 0.13120190716734942 -0.14259246430702407
0.164 0.047996248151437146 -0.12555608429738382 0.2704098057636725 -0.0733013321140007 0.2755078880526498 -0.09997646569360182 0.13322329222852905 -0.14283504495857582
0.165 0.04846006618726645 -0.12500837786535504 0.2713660024495253 -0.0732727815481831 0.27898086755328294 -0.07177337393179714 0.13236405193526565 -0.14306117568937532
0.166 0.04896712659171304 -0.1246638272977856 0.2704300402420443 -0.07559129446779321 0.2424930090061479 -0.07637639584713049 0.13255869497428877 -0.1400160726965481
0.167 0.04759358613466292 -0.12347120037000395 0.2690975860539188 -0.07350815349418338 0.27478841624642714 -0.04156165337813498 0.13175112806556832 -0.14068989039707616
0.168 0.04815463796157401 -0.12377493914118289 0.2693176109835111 -0.07399834283934342 0.2834373452682991 -0.06256454325007567 0.1313459076793447 -0.1404007104574084
0.169 0.04817351838115961 -0.12208103495675461 0.2680387385990521 -0.07518573185309085 0.27667939716031625 -0.04949172725671169 0.13168224210829155 -0.14071736762273634
0.17 0.04754059770988218 -0.1224392822196588 0.26983018678988613 -0.07597359350342711 0.2499017222484884 -0.06682965450650102 0.13274896102526684 -0.14063234261522037
0.171 0.04747959830435981 -0.12218155814015888 0.2684862234574949 -0.07564807515967797 0.2998538488486552 -0.09588863927416508 0.13049718447502215 -0.14049805700025814
0.172 0.047286993687414874 -0.1221416425387199 0.2688867356836901 -0.07656425502444453 0.2847151845005347 -0.07610601092419929 0.13059495485724015 -0.13910611418624175
0.173 0.046729769675044455 -0.12096961127352836 0.26847232317835273 -0.07669941870283334 0.27653605417704413 -0.11959755367738971 0.13370785706227664 -0.14022865079997923
0.174 0.04613510666585538 -0.11972785960879972 0.2672206900795068 -0.07892207031534043 0.27829513952812235 -0.07782302394948376 0.12865471763736247 -0.14230773893255866
0.175 0.04717291696682515 -0.12035056693706143 0.2682042144667862 -0.07983152120253785 0.2898145405908291 -0.09072620465701073 0.13015025679424216 -0.13782621743891546
0.176 0.04712719362754374 -0.1201688331402047 0.2684274916549767 -0.08062248234091839 0.24771116381384545 -0.04251045864182075 0.12989297542140713 -0.1426299810815898
0.177 0.04575575455799071 -0.11914800446309008 0.2677347704690748 -0.07981309676085216 0.2480267096515378 -0.03486663346943024 0.13010576271553978 -0.1407459995432116
0.178 0.04708812555493106 -0.11789469971258189 0.2683896471568574 -0.08105816592747161 0.2781433566355234 -0.11145473359845416 0.12626038604702675 -0.1397544688649016
0.179 0.04495087163598925 -0.11881990074909791 0.2674898122457005 -0.08281878364931151 0.2613231692617444 -0.08299975216847551 0.13220439529653757 -0.1412069621951752
0.18 0.04513056824454004 -0.11743975521497615 0.26652962722215207 -0.08286204640687637 0.2795950285832862 -0.08803207659626595 0.12779266901430883 -0.13861726124430837
0.181 0.04589614487075862 -0.11764324023609829 0.266206297872796 -0.08427429126507197 0.2526786694112222 -0.09617966676656972 0.12776641858173116 -0.14040787875243874
0.182 0.04531641913490039 -0.11656140251886062 0.26568909416158915 -0.08345741861977284 0.2827154004681202 -0.07350510276255555 0.12668179907700824 -0.14017612478487523
0.183 0.04499803959940149 -0.11609368193385795 0.2663181310413633 -0.08447770364231448 0.2812824060553383 -0.06152642191572956 0.12702527316281081 -0.1416330911604185
0.184 0.044189768666557015 -0.11646879046701233 0.26563512333314804 -0.08490360535103028 0.274511493953644 -0.07699134609659881 0.12539019338983487 -0.1404399153095693
0.185 0.044834710594194874 -0.1163313518039791 0.26556545323309755 -0.08474966376908198 0.2465183692420629 -0.07552795365313221 0.12731615811696423 -0.1402771654755447
0.186 0.0455066786010625 -0.11528784754949091 0.26527828319699354 -0.08528476216589691 0.26396106124728935 -0.08707679842820294 0.1276165558538833 -0.1383353063804027
0.187 0.044713937353875376 -0.11437555284827641 0.2656783986142544 -0.08565852975660077 0.28670374940145993 -0.07889124014627971 0.12712185906744314 -0.139008380117918
0.188 0.04482577553467017 -0.11475080948357216 0.26664037618565317 -0.08656622532600541 0.24424644042869026 -0.08049966451131654 0.12674599107139972 -0.13988456858986534
0.189 0.044435127153995835 -0.11368047996201618 0.26651041916165885 -0.08847445441065302 0.27130334071667844 -0.072858660722278 0.1250567400082387 -0.14003390710581262
0.19 0.04476580223886604 -0.11364510023327024 0.26443225233984957 -0.08895658409886756 0.274181188583311 -0.08696564033101221 0.125523608681765 -0.13818632501075037
0.191 0.04445736428917035 -0.11291238893416186 0.26561442319218215 -0.08919922969442065 0.25333690865876507 -0.09519404942100271 0.12622346501814055 -0.13674067458676803
0.192 0.04380010579473929 -0.11243583759920538 0.26535218134818433 -0.0881578422533614 0.24953311498999042 -0.1044024073210794 0.12640981305930302 -0.13821511822944224
0.193 0.04364925953165852 -0.11216659205476956 0.2647341538660818 -0.09056824757818732 0.27323722344415247 -0.07135589681796557 0.1285165883042762 -0.136775338519822
0.194 0.043513201041684234 -0.11110760852628886 0.2640734480394285 -0.09004728301119451 0.2655189394118715 -0.0893016714587405 0.1244793133521859 -0.13890093239921134
0.195 0.0440915990666082 -0.11279012870126302 0.2637720541710777 -0.09113735841565532 0.26062709235097775 -0.04586046437888741 0.12432458075515486 -0.1380744736731078
0.196 0.043954909625771546 -0.11127437219254376 0.2641254442669494 -0.0916362691940212 0.2501400211626537 -0.1249257334048563 0.12552110197972863 -0.1378629120632067
0.197 0.043122705083322395 -0.11083943377313633 0.2624237934674203 -0.09125498589170916 0.27183878890296787 -0.09622868511087698 0.1250841836959508 -0.13878530059256533
0.198 0.043905763134405494 -0.11008009380487374 0.26484757786132757 -0.09173623793297216 0.26303977900331693 -0.08487350083153808 0.12333103154739901 -0.13821014057270622
0.199 0.04489958696836017 -0.11044063759893921 0.2630933701462396 -0.09145953647311153 0.25705007235927413 -0.10062398179303654 0.126493683917312 -0.13759424077222585
0.2 0.04378653779739789 -0.10955085769154015 0.2627085531730162 -0.09422174222596841 0.26486151779660105 -0.08365543235065247 0.12549506780439038 -0.1368746378745185
0.201 0.0428756473264797 -0.10959912983776061 0.26252286128099445 -0.09249961943634798 0.23627371890448967 -0.092094716591448 0.12545656580320863 -0.1397219528042976
0.202 0.043070219655856445 -0.10990621399051516 0.26269407730304284 -0.09407313264113933 0.27476609117043427 -0.08750927674406703 0.12429613527695765 -0.13764205966466717
0.203 0.04326098159076959 -0.10781264288498542 0.2616913308152062 -0.0947284753547193 0.2872873052796404 -0.07794150373540845 0.12273684203094835 -0.13795672855480756
0.204 0.042581083757129934 -0.10820225529483904 0.2632851965928306 -0.09500340284687815 0.2679101635652122 -0.06460679459251946 0.12488351482628551 -0.13719348716790933
0.205 0.04188166895108202 -0.10819970016448387 0.2603712635593221 -0.09642238885931971 0.270766553613704 -0.1261436980348057 0.12418590958318806 -0.13585411265688233
0.206 0.042201940949591024 -0.10785882183574041 0.2610111885197465 -0.09681331268107428 0.25437836647566164 -0.09349724022670744 0.12251105591677686 -0.13817859991449766
0.207 0.042428686531403484 -0.10699298810888339 0.26176015003147624 -0.0983347923276306 0.25333163808826253 -0.09082032024838611 0.12008238453645043 -0.13700032916428811
0.208 0.04144644877350027 -0.10670426529629076 0.26074813362429344 -0.0981479716354883 0.25971670024366794 -0.11247893568230038 0.12345470143918706 -0.13821310064206357
0.209 0.041632047550456935 -0.10724943238357752 0.26091258420390595 -0.09741260052399127 0.2577030736861215 -0.09839822915092719 0.12378922721308142 -0.13782354159880197
0.21 0.04280624580411839 -0.10584180868483835 0.2606502610711111 -0.09963560243375015 0.2589303556056 -0.12028905092124154 0.12236163036153308 -0.13878341725630616
0.211 0.04101166043262629 -0.1057346175705536 0.260110308709719 -0.10061510453422304 0.25190005186243014 -0.09275472212324049 0.12105781748836072 -0.14016462679660904
0.212 0.042169580996921016 -0.10620916351821594 0.2614604257150098 -0.10008357249424528 0.2574539354909216 -0.0950352410672245 0.12412404598257402 -0.1360705438903044
0.213 0.04249794508122968 -0.10594728017808006 0.2607152502369851 -0.10082704677007316 0.26101083414722004 -0.1076434911184681 0.1214999611924018 -0.13600335456052093
0.214 0.04163687088635204 -0.10416362203264745 0.2613650708998797 -0.10002967670830941 0.24686803030002022 -0.1027616700495236 0.12395312732399433 -0.13963283462499435
0.215 0.04242494608923349 -0.10470049005138166 0.25991320959245834 -0.10070153099543795 0.25641580762420363 -0.105241005022973 0.12276041702306546 -0.138227574611459
0.216 0.04247080196633682 -0.10479244385398687 0.2593999358986709 -0.10208943244205479 0.25991853232980683 -0.10095656706528013 0.12028504057034795 -0.13745984240212147
0.217 0.04162473085143888 -0.10396944980827212 0.2592732852887643 -0.10508216035905805 0.26082138821280126 -0.07839847798571563 0.12183449332678659 -0.13806082597759461
0.218 0.04233851599020453 -0.1039689493568938 0.2591528000115244 -0.10270085450895312 0.2443892287806747 -0.1072308488330975 0.12288298416943473 -0.13699388248288488
0.219 0.0413573730145048 -0.1039968698518563 0.2596685982530697 -0.10405552485459307 0.25984342438935437 -0.11953324920110478 0.12217720456136877 -0.13702510120600797
0.22 0.03990993190033912 -0.10350383398202956 0.25868773863784483 -0.10346532188530182 0.2644574680414796 -0.10516276358580182 0.120986067250441 -0.1376323758418511
0.221 0.04089768951032588 -0.10310920136022421 0.25938965944525355 -0.10576422840549839 0.2555471610229428 -0.10543079643315485 0.12228776208065323 -0.13645454794641176
0.222 0.04110046053756481 -0.10271306751360751 0.25747677710992184 -0.10561326883590715 0.24208837526543683 -0.09994656862131983 0.12061368789528888 -0.1363449758342782
0.223 0.04071665514036709 -0.10298656732662169 0.25822264949142265 -0.10639299682952862 0.2452059776906251 -0.12292237801200011 0.11898144681517346 -0.1376228609171592
0.224 0.04048001079962136 -0.10117739909379406 0.25878513314954593 -0.10632997492032845 0.2598530389144679 -0.10792940789170845 0.1193990978606496 -0.13742401276574465
0.225 0.04028501709783802 -0.1009144982491053 0.25853576593203176 -0.10973624747199254 0.27132201109835624 -0.11951559851693797 0.1196399815198582 -0.1370303212001278
0.226 0.0403218006070422 -0.10143121791813689 0.25805022635938335 -0.10673045922208481 0.2647233125375957 -0.11813558736140745 0.12044685350781022 -0.1370164632682021
0.227 0.03940306804039211 -0.10072737680545199 0.2576438389564488 -0.10733039542448884 0.25534669523624554 -0.117308561508128 0.12092813806796866 -0.13812066074079002
0.228 0.04002004851003841 -0.1008184580229569 0.257162006623037 -0.10931513451192382 0.2668104765708984 -0.10897037057380732 0.1205841790632971 -0.13744671548718268
0.229 0.040250612205591826 -0.10057892515051486 0.25732016142157377 -0.10955596186744268 0.2852077158117479 -0.10982351964124612 0.11759005353932271 -0.13795865132438603
0.23 0.03996151753726907 -0.10067232711026664 0.257146885515787 -0.10990353312257717 0.2490587402654637 -0.10717659567065574 0.11937426002096034 -0.1370069336601348
0.231 0.03974043528987062 -0.09982199943104983 0.25557102963439093 -0.10970214838243465 0.24935593540627873 -0.10353629373573006 0.11915435507670925 -0.13766928424485209
0.232 0.039657396612864264 -0.09964455944368038 0.25709951004583337 -0.11099703386496614 0.25119463828913713 -0.12648749893231204 0.11956419294059552 -0.137525161470355
0.233 0.0398077132246746 -0.0987919267816746 0.2552843460872477 -0.11206297766912345 0.23653257479134893 -0.12186091020785256 0.11903703149906492 -0.13714899598087507
0.234 0.03973963658518737 -0.09934552314089817 0.2545330444657447 -0.1105693218783143 0.2488791653157589 -0.10052391214730777 0.1174796251807588 -0.13788989708341584
0.235 0.03980286756801503 -0.09879325905251878 0.25571650283130687 -0.11160966145516733 0.268838074214469 -0.12756900603279375 0.12067801805907767 -0.13820985827602938
0.236 0.03985929468029142 -0.09914382370920366 0.2557607041527002 -0.11193796959555448 0.2692609633956039 -0.10959975792265853 0.11653589620319389 -0.13626517354936593
0.237 0.03947892686377835 -0.09803704098189742 0.25576377223678376 -0.11398527661652008 0.254679705470142 -0.12216923447059044 0.11791166535060763 -0.1365093339154528
0.238 0.03992245142884057 -0.09782110530616614 0.255632410756034 -0.11289015855926324 0.24004957782725062 -0.11279350894193843 0.11955432627053017 -0.13671277541852353
0.239 0.03907566521469536 -0.09842457390179844 0.25460905760378105 -0.1145241833408406 0.2477392080742945 -0.12874077605671969 0.11895329621610444 -0.13528734687161262
0.24 0.03923924099155148 -0.09758291214893257 0.25268136724871326 -0.11418442689413831 0.2689912307177693 -0.13153952987317316 0.11733877053707599 -0.1364129204795221
0.241 0.03832315024935531 -0.09678498287326275 0.2529098706196537 -0.1149027336422866 0.2761107520166486 -0.11128422592912246 0.11846088675936405 -0.13817192779284834
0.242 0.039001809841995916 -0.09739179188443801 0.25199014178930773 -0.11602199215657168 0.23851836399837972 -0.11107942864557242 0.1166571104098305 -0.13775846427696867
0.243 0.03893671200897799 -0.09665379880395546 0.25230467972930004 -0.11674080125676907 0.2507817839295394 -0.11265254066983581 0.11397831228976887 -0.1362538436323404
0.244 0.0394437058522949 -0.09748650374099325 0.2545431264605315 -0.11735670674526236 0.23132623785876213 -0.1090650836833993 0.11602233900743884 -0.13785886653526186
0.245 0.038898422139622 -0.09641589227704268 0.2533511954077454 -0.11780507751928468 0.2707099929460162 -0.11839122354400203 0.11866422763658498 -0.13481341611523737
0.246 0.03874365025814756 -0.09661856409374896 0.2510655613601788 -0.11793539493511955 0.25273547613536734 -0.12852387668030998 0.11651505550184317 -0.1360873362360176
0.247 0.03829400541522121 -0.09593364341605903 0.25163885607765574 -0.11970969635207723 0.2503771261041278 -0.11509929803283148 0.1143952951108039 -0.13701985605884984
