!Created with skrf (http://scikit-rf.org).
# GHz S RI R 50.0 
!freq ReS11 ImS11 ReS21 ImS21 ReS12 ImS12 ReS22 ImS22
0.13 0.13439607134966994 -0.14571966648859935 0.41226638270852817 -0.04711438947085727 0.41081391182381577 -0.055750717707669296 0.16270531140288902 -0.15288615841611033
0.131 0.13695559451991857 -0.1444599438070512 0.4111959670414296 -0.0498272216415204 0.46579206843285104 -0.07974939591406902 0.16702927956738745 -0.14932659735536505
0.132 0.13506645611184093 -0.1428724939128237 0.4137697365749131 -0.05086805489207137 0.41717747011275624 -0.07871248604984447 0.16345832821838857 -0.1512743758907686
0.133 0.13353093361259968 -0.1431153856438637 0.412738826914031 -0.053157291458841946 0.43410377674935247 -0.03822805769634506 0.16349835624000486 -0.14939140317947233
0.134 0.1340624830472455 -0.14352019441986955 0.41290678641492495 -0.05364699549807457 0.32948307311766584 -0.0779359291910263 0.16407416339411995 -0.1529260675674849
0.135 0.13402122273922673 -0.14003553096822888 0.41126055803875516 -0.056908056027588416 0.3737586180445803 -0.0445959206949824 0.163714030129892 -0.1511417884036609
0.136 0.1341439322552502 -0.14140685886901 0.4118051866459015 -0.0561546779941055 0.45125626753187403 -0.02972246083813078 0.1640041398889759 -0.15230719946521656
0.137 0.13343673904836026 -0.1404123476147505 0.41095913916161253 -0.05831821529396994 0.3832748701422641 -0.07951335723049677 0.1628539612602219 -0.14861822915216996
0.138 0.13388530927490055 -0.13965182494038667 0.41137080651452873 -0.05855133622992236 0.37788967946496044 -0.026816514914795097 0.16165689517164605 -0.14921827867661916
0.139 0.1337726240950544 -0.13868707085184998 0.4124269664356087 -0.06048097577946401 0.47664157670266777 -0.048961548952909516 0.16376157719693532 -0.1522077160790838
0.14 0.1330052314796464 -0.13868081747848568 0.4123592690508596 -0.06178320541232865 0.39846061534485105 -0.04006330975917855 0.16187977412216065 -0.15137352404128643
0.141 0.13189413187609106 -0.13876998670050955 0.4119806127191929 -0.06264167410149238 0.40927087146106444 -0.0650325432840585 0.16130520439104573 -0.1470604954106563
0.142 0.13223275581556948 -0.1386738246071702 0.40941770158657775 -0.06217007673869019 0.4149003580950189 -0.0822734742092485 0.16037438254832856 -0.14923127631961275
0.143 0.13205948191451305 -0.13841276875461847 0.40934464345436894 -0.06355148774910377 0.44869895102545765 -0.07686764781672388 0.16078238529190045 -0.15108948873751543
0.144 0.13158808084564885 -0.1369220308728331 0.4103699467635198 -0.06646252634616572 0.3923219380332949 -0.09400967977108299 0.15748344941756612 -0.1492119855292598
0.145 0.13175979908693258 -0.1374412173191346 0.41023190035062823 -0.065899041739108 0.4083710754966831 -0.07227659828443005 0.15900204983041735 -0.1469809107575086
0.146 0.13179556245592117 -0.13656348034840238 0.41004229815791243 -0.0680427299013468 0.3490656588157298 -0.057198439645629616 0.1595249751766615 -0.14880140927897573
0.147 0.1314403592437682 -0.13649576023815574 0.4096018931660115 -0.06884801816635482 0.3869841548729103 -0.09001843372293557 0.16024701317043677 -0.14640881117438542
0.148 0.13076335681950957 -0.1358627795792975 0.40937560951436014 -0.07018057449836931 0.45056682825696975 -0.08946927598398577 0.16116832016005653 -0.14781365766685828
0.149 0.13082313435150458 -0.13490196386421124 0.4087836602855468 -0.07419871353063524 0.3907675595530384 -0.012560260385868811 0.15546656708541284 -0.14397272664424493
0.15 0.13006467474413735 -0.13474399825037656 0.4081776631133841 -0.07340674472373986 0.4599806008107942 -0.11580988504572662 0.15715327557758813 -0.14622079540448413
0.151 0.1303485044914434 -0.13541281045218392 0.40926183305314656 -0.07284514891524528 0.4224188147690678 -0.06799603003247653 0.1565897766457018 -0.14448558207846754
0.152 0.13032416194831786 -0.1352224292194785 0.408621808175967 -0.0746553467579578 0.3764270803215683 -0.05498727263215235 0.1562844021394122 -0.14874393961021748
0.153 0.13009567060956273 -0.1339218982401741 0.4117964859649883 -0.07675932421578448 0.4006234736445067 -0.08529902567869375 0.15895781450085925 -0.14389118588889335
0.154 0.12962441241151762 -0.13387948404044095 0.40794471241432634 -0.07640017767965526 0.3810621790487127 -0.08740792809912612 0.15658942446275925 -0.14852077681092007
0.155 0.1288837599077838 -0.13241341755067296 0.4087598625834696 -0.0817235204696574 0.3878131852286085 -0.0935298816919364 0.15921988819033062 -0.14674197735990124
0.156 0.13024193698969086 -0.13277165170073688 0.40840563906962385 -0.07735163820780352 0.41893830127774445 -0.05655330286230698 0.1568727192277706 -0.14676880874362677
0.157 0.12992050330079377 -0.13332407005288163 0.4067895409352859 -0.07990805392018437 0.4540993150394106 -0.07825784800561209 0.15568781652272073 -0.1482710185994286
0.158 0.12962382314524842 -0.1313258789565281 0.4105087663727048 -0.08393706984616396 0.40898485697729353 -0.0916633661358308 0.15515665534682993 -0.14573519993554981
0.159 0.12859950568818224 -0.1330272559092568 0.4072135671675264 -0.08210983984612494 0.40760705157599936 -0.10586428546704413 0.15551589335688157 -0.1444698573011976
0.16 0.1287249006684252 -0.13190053261595194 0.40815672375682344 -0.0839793251148126 0.4228733047309828 -0.05317354431632895 0.1568952989627712 -0.14516943389682915
0.161 0.1291605994689785 -0.1311824957033863 0.4091011661271337 -0.08458418073210588 0.4011042998894056 -0.08716607591494453 0.15306905423486955 -0.14764250931257109
0.162 0.12707869058283866 -0.1306994145194009 0.4066676553505479 -0.08619338939588593 0.4229795368000392 -0.04815613776368022 0.15521058915804248 -0.14439120077176898
0.163 0.12916348534950947 -0.13107004640178965 0.40869596759215787 -0.08709135468736068 0.40953642605401425 -0.08180075946027282 0.15438011582342392 -0.14382659215930155
0.164 0.127467993397649 -0.12992490760773484 0.40417530568874693 -0.08820102086649953 0.38931169738822813 -0.1009624156679326 0.15443095793692613 -0.14691345692924335
0.165 0.1277726090191803 -0.13092144076090168 0.4057501602809914 -0.08750899105519701 0.41349175319738274 -0.09576516926881584 0.15252002104509296 -0.1444819553291176
0.166 0.12796283683220774 -0.13006417192074962 0.4061645234645434 -0.09368041108281447 0.4018040208179874 -0.07896666441482059 0.15230869490219764 -0.1446706778839608
0.167 0.12721953212193335 -0.13025706064741652 0.4058290526956601 -0.08909711093837289 0.4185252165226863 -0.11269258643374104 0.15360050150040971 -0.14371928762605454
0.168 0.1273709711306123 -0.129921770518542 0.40510954430478335 -0.09253968290336798 0.4384050945271632 -0.050299488156183174 0.15234339045705791 -0.14536559714570843
0.169 0.12658122172818012 -0.12871953140157572 0.40500255744186253 -0.0928983728930683 0.44128871487893406 -0.09358680111750749 0.151657834405698 -0.14685597605518314
0.17 0.1267838803099705 -0.1296806909639144 0.40577626613104184 -0.09442316192852815 0.4048100554810472 -0.09251688627720371 0.15438829467280635 -0.1439889404420727
0.171 0.1257257573188436 -0.12880240172939442 0.4039536107472542 -0.09214877394744385 0.4196128055842846 -0.08459871720796476 0.14963121067466545 -0.14593114708267288
0.172 0.1259986778338154 -0.128432729917627 0.40258369637120245 -0.09618217895829703 0.4239966916438039 -0.09246754029377004 0.1516913543261351 -0.1419946851499288
0.173 0.12629496187025088 -0.12843857960145358 0.4049458285097153 -0.0970297130353172 0.4058652205145844 -0.10021035678210433 0.15443387030958786 -0.14533247478415132
0.174 0.12519419220566189 -0.12786672855285383 0.4033719964038532 -0.09890480428776012 0.4021130473069927 -0.1010098742828958 0.1506595150735181 -0.14495469328431318
0.175 0.12539257980620894 -0.12804023630191275 0.40244061316420193 -0.10016296111348696 0.41809502221437306 -0.10712042051325134 0.15077356048643206 -0.1424717615208102
0.176 0.12500544699943647 -0.12682349693202902 0.40282527474588253 -0.09941158514099903 0.416234484676414 -0.10715236828083335 0.1513185416116521 -0.1456606800271926
0.177 0.12465817193206996 -0.1276574694546284 0.400719537430013 -0.10079925508994304 0.39473778212133914 -0.05400780587606699 0.15124755124952838 -0.1454257319916148
0.178 0.12687902881228777 -0.12734140483739334 0.40395909107910444 -0.10249749713065132 0.4212811740437081 -0.10857541068513459 0.14517688548379154 -0.14491786296281334
0.179 0.12453365189278132 -0.12692008084929568 0.4013621191392432 -0.10630138786346038 0.42491531395596677 -0.07060665529624104 0.1517793190833247 -0.1480590481006124
0.18 0.12433929955060503 -0.12716681447867545 0.39988794949390305 -0.10549967958082501 0.4248510069747516 -0.15006212650579914 0.15025503487550315 -0.14537782600293292
0.181 0.12447599666258208 -0.12707998164348214 0.39993341548073724 -0.10735501178144109 0.37967892144368065 -0.12351652712117775 0.14853415359107652 -0.1445011306990878
0.182 0.1246010796842775 -0.126980083324676 0.3993350597154336 -0.10696152797374525 0.40340715067711264 -0.10110196112688535 0.14942044136639845 -0.14416105004937133
0.183 0.12465614042938884 -0.1263882794956978 0.40057354340065143 -0.10829818006847007 0.3925584353257596 -0.10223261638313588 0.14906730610833083 -0.14652578169096167
0.184 0.1246385698790133 -0.12647118283166406 0.40032260931656605 -0.10806228064373047 0.40807262863020566 -0.09343496667862083 0.14597691858467163 -0.14537978311341396
0.185 0.12202064333504133 -0.1264314456413428 0.39954481044664597 -0.10960894668463159 0.3908992055472258 -0.11331500215127828 0.1491420780426413 -0.14361292968665523
0.186 0.12295955127175588 -0.1262825838199339 0.3998603529565165 -0.11020046212359319 0.40504883619751625 -0.12474182218472013 0.15014403266680237 -0.1462829985156093
0.187 0.12307854792726852 -0.1252125673211774 0.4003559046672832 -0.11152137326888902 0.3988696223743135 -0.10167459086784755 0.14813483959559803 -0.14520606549552498
0.188 0.12364894372466899 -0.12555141863235136 0.4018347299400386 -0.11183889559738519 0.41375769011348407 -0.07487038953310227 0.1495472059531022 -0.1451216328907658
0.189 0.12326806054546151 -0.1251860646852476 0.40199988845847734 -0.11422913810668998 0.3928059972834084 -0.09091606399929965 0.14707284245661068 -0.14556228875787447
0.19 0.12310157579551233 -0.12626498099951466 0.39828934001517996 -0.11556461774180499 0.4125855360177089 -0.1337659041316605 0.1478992478543419 -0.14295870841019376
0.191 0.12266837154026085 -0.12483581059082288 0.3981710054142718 -0.11749687973335446 0.4140202059782845 -0.10574774474551141 0.1471456148802317 -0.14374605225707707
0.192 0.12141799470689706 -0.1255418451043375 0.397934125919495 -0.11673311618233098 0.3803999110874929 -0.1351968112207122 0.14823128689509793 -0.14587954116757806
0.193 0.12261481716870358 -0.12564444175303266 0.39856394851810334 -0.11903466291790511 0.39777298731116006 -0.10796823676350918 0.14777885108161806 -0.14318215585697733
0.194 0.12166247261097035 -0.12412073192361932 0.3976887357372725 -0.11747853659649417 0.4006511055825962 -0.11506294342929202 0.14808071952330137 -0.14473842989113
0.195 0.1214098030120559 -0.12574715174479034 0.39684772584165573 -0.11780776999028611 0.3779790181106583 -0.08945299427133048 0.1428690055845749 -0.14462837654727742
0.196 0.12282281695829447 -0.12391556059354197 0.3981952236780867 -0.12139279301654925 0.4017907047405049 -0.09297232946235039 0.1475373650874798 -0.1450709535004201
0.197 0.12231819442265512 -0.12502893156570746 0.3963764497422673 -0.11924376719733423 0.3938135826138237 -0.12373099074304023 0.14640886383580431 -0.14591789871175234
0.198 0.12191488271440827 -0.12357725311647315 0.3976266236327784 -0.1221465280884318 0.40293725691463084 -0.12544469057797836 0.1433124905995188 -0.14473229041244534
0.199 0.12168337289089984 -0.12437057606539549 0.39662009292847533 -0.12288541786041866 0.3915136031082391 -0.12081637230239864 0.14821972439273737 -0.14487002668296073
0.2 0.12096965357438148 -0.12361276549283011 0.3959914268985463 -0.12362758607139994 0.38758163875759544 -0.126259625347259 0.14607853285572636 -0.1442381059107683
0.201 0.12095401267360185 -0.12406810836046502 0.39475747132727 -0.12507733655552125 0.4050886781842819 -0.1689616509832273 0.1469431588353707 -0.1455311843619243
0.202 0.12108404779159276 -0.12450184936413043 0.39530454224201955 -0.12276905658294594 0.3740355757232197 -0.13933033063827951 0.14534375871043023 -0.14263424430677196
0.203 0.12106509355097757 -0.12333428949141743 0.3936764275065481 -0.12690591229448941 0.41425841329902835 -0.11432102210807095 0.14574435476176817 -0.14379533206895098
0.204 0.12061369777664144 -0.12356862140279214 0.39524750192576624 -0.12736351063611384 0.41657525611947777 -0.12331603838568572 0.1442871884478804 -0.14453786262360455
0.205 0.12018924412245591 -0.12249776063049822 0.39545349382583705 -0.12980500933024822 0.360438229919775 -0.11196501406400962 0.14427351079938155 -0.14347575820982375
0.206 0.11988459223601662 -0.12277852362054911 0.3948031471380441 -0.1289394515308227 0.4101427605097665 -0.1264283185097764 0.14456593854325278 -0.1454287310952554
0.207 0.12007552059461322 -0.12347733236073136 0.39435313707183645 -0.13134032239578178 0.37621032549340283 -0.12198795346298501 0.14058275092804662 -0.1451321816741399
0.208 0.12046828223176982 -0.12311210037965158 0.39449995150940603 -0.13164339378674653 0.37278987264575875 -0.11670659050183463 0.14385485182381427 -0.144161240929619
0.209 0.1203892513532847 -0.12456884856983734 0.39418147878700555 -0.13183988879441058 0.39084873749577387 -0.129617372745194 0.1433979739334636 -0.1442543910799493
0.21 0.12058402012065235 -0.12221987115611449 0.39225630888285806 -0.13461595638573265 0.37977507235759095 -0.12401500434688983 0.14346399630950765 -0.14639008280948257
0.211 0.11968784320981225 -0.1233495115042725 0.3928057480102306 -0.1345177663113541 0.3825141066554936 -0.14477572235749323 0.14315980394368863 -0.14522307174180804
0.212 0.11955545132634238 -0.1223582475886717 0.3941341799131423 -0.13432202512870317 0.395327106796793 -0.13182251198202097 0.144588681301159 -0.14519410373981315
0.213 0.11899624570816417 -0.12316028426431831 0.39182339549441747 -0.13482854960007834 0.3973321132525421 -0.1482050478389342 0.14214266917404172 -0.14329454427683347
0.214 0.11891687810509438 -0.12197876937229142 0.3920187269461339 -0.1354848409078092 0.37537813642521145 -0.16317104524658702 0.14381592382246017 -0.14624863970105487
0.215 0.1192505379626509 -0.12231538715186126 0.3911683225975144 -0.13582374471822295 0.385480296354863 -0.1481509623313713 0.14360099556841185 -0.14435132991663324
0.216 0.11870210964424315 -0.12263632165772784 0.3907058399220316 -0.13676875512990458 0.39440901811101126 -0.137124242704986 0.14283064074089163 -0.14500102261594447
0.217 0.11766140494657648 -0.12265009961702131 0.39199560829283564 -0.1415187586270061 0.3836727391013942 -0.13515658018132393 0.14201214931403366 -0.14472950927634143
0.218 0.1195161865113279 -0.12240474081494164 0.39105710979197533 -0.1395638803445926 0.406957240434058 -0.14650659987545891 0.14393458272560303 -0.14456425963100208
0.219 0.11783878065481483 -0.12182870168778515 0.3920748640570434 -0.1405675276909733 0.3796788467137398 -0.16076256033080868 0.14165391401595132 -0.1434396870219871
0.22 0.11753909918445545 -0.12296068630330774 0.3902014875418709 -0.14010768603948312 0.3870659732168247 -0.15643151481305576 0.1407901487389451 -0.14486910769578465
0.221 0.11865249769640843 -0.1223584971281208 0.3911327760886002 -0.1439662576626871 0.3952212947374454 -0.14160302296653385 0.14313582235535777 -0.14544364215336594
0.222 0.1187612655727338 -0.12266640325406808 0.3878657420323472 -0.14382273056604564 0.392657185131997 -0.1609751978810664 0.14201618805931174 -0.1432505770120122
0.223 0.11808288244599971 -0.12261738301829742 0.3872709814935645 -0.14561414570711778 0.3807610745587563 -0.15805550215570138 0.13845773435522074 -0.14642099822221344
0.224 0.11788788779578932 -0.121037891692696 0.3890283422321538 -0.1462458755388862 0.3879505498113192 -0.13879105210193754 0.1421593828887322 -0.14523533536116673
0.225 0.1180540608153706 -0.12030767850292659 0.38935967750885214 -0.1492491273329727 0.3621771947130453 -0.15482251060430058 0.14104803605636512 -0.1460408302475304
0.226 0.11723619415246912 -0.1210173262727858 0.3879603681208064 -0.14569769386422604 0.3841987614031554 -0.14568721459383094 0.14085810612899338 -0.145063670973001
0.227 0.11702447547044298 -0.12230765440393657 0.3891975240582167 -0.14812884507852236 0.40622545488998013 -0.1398301072946355 0.14079025438370787 -0.1464043361692874
0.228 0.1166544761298347 -0.12236223650891007 0.38625930635286143 -0.14981499790135638 0.392347208024824 -0.13227356472387397 0.1405190131512549 -0.14710542838538754
0.229 0.1164718223224163 -0.12149371944770082 0.38729599706694384 -0.14786730070692514 0.4041392065778612 -0.14315830368049298 0.13844680704006698 -0.14634066460739223
0.23 0.11625923270083542 -0.12150768411282932 0.3849431218068982 -0.15170787677675193 0.3818801131323041 -0.15751699606771744 0.13906100858022175 -0.14486300396217044
0.231 0.11646261541114891 -0.12004306959600017 0.386808646797786 -0.1509393835302032 0.3793868772652711 -0.15353802075991607 0.14023057829451352 -0.14639104236555422
0.232 0.11559696022121843 -0.12131686964553434 0.3861905689456772 -0.15020599421176753 0.38703687004569254 -0.15535536611924766 0.1408736360289076 -0.14531878810826826
0.233 0.11624311564330081 -0.12058044955826257 0.3838939530753946 -0.15338787761844358 0.390355991260478 -0.14438903683884963 0.13901003028263217 -0.14742031188481244
0.234 0.11600045465058836 -0.1209442168666746 0.38469496764156186 -0.15248504774261923 0.37485262449567036 -0.15398577724199647 0.13833462339183147 -0.1461735173694214
0.235 0.11602066213648281 -0.12106199323819022 0.38269544628812757 -0.1550195725812612 0.3879478377669309 -0.16298088787556178 0.1402224168630858 -0.1460875725013333
0.236 0.11558869921387128 -0.121529963196481 0.38336764302400944 -0.15602904070589205 0.37817529852031445 -0.15939477985500897 0.13655945450138812 -0.14505728341994062
0.237 0.11485402056729614 -0.12002835898192307 0.3830870014105448 -0.157652221032894 0.3856121689672784 -0.1714176069299264 0.13892726352896106 -0.1450632878827116
0.238 0.11579950752743841 -0.12027992230450517 0.38677126861174355 -0.1562167756690109 0.3890531271721371 -0.1608240832676521 0.1392140183484381 -0.14437393618644045
0.239 0.11480485977902559 -0.12126620853554189 0.3839564129167773 -0.15887590606366472 0.3850592602285363 -0.15014675500618177 0.1391740876299837 -0.14651433769549585
0.24 0.11509573181208543 -0.12097928556029398 0.3828864991484615 -0.15804983132340422 0.3955011426509441 -0.15219675278431502 0.1373928017662322 -0.14528997376533442
0.241 0.1141783385252656 -0.12062284036684322 0.3812595370020369 -0.16112423279418828 0.3854292670009508 -0.15017541610639862 0.13818608540855587 -0.14674075527973504
0.242 0.1154091574462635 -0.12121509287836664 0.3807148337030677 -0.16189602967978736 0.36481126681965875 -0.16675147541044022 0.13707001606303193 -0.14522849502883614
0.243 0.11416507263168912 -0.1203576661400585 0.3851769065155154 -0.16089149860314692 0.36624465082941005 -0.15972230434805085 0.13629730666310116 -0.14493877417620316
0.244 0.11488732411430055 -0.12137857193937181 0.38260481123257845 -0.1637957862646679 0.3799204974141495 -0.16510428338250646 0.1343050126343062 -0.1459771316385935
0.245 0.11471164563272514 -0.12086158420047341 0.38296568584752483 -0.16369526941902585 0.3722258375602337 -0.18093638949580942 0.13692010726603826 -0.1443809484628076
0.246 0.11482386769234541 -0.12139727094606029 0.3790325999335302 -0.16327968031778922 0.38598065860514924 -0.17153918150331493 0.1364933657498408 -0.14586613615617172
0.247 0.1138553229411447 -0.12017428939596835 0.3788804561148757 -0.1680086591482451 0.36686694206066633 -0.16896790663069605 0.1339821330923319 -0.14613069327419256
0.248 0.11340076991193818 -0.12012366595578829 0.37918681318769587 -0.16933541569408206 0.3740326257842415 -0.16428620042331615 0.13357591078372735 -0.14608559262334167
