!Created with skrf (http://scikit-rf.org).
# GHz S RI R 50.0 
!freq ReS11 ImS11 ReS21 ImS21 ReS12 ImS12 ReS22 ImS22
0.13 0.18220829812091038 -0.15980646035259985 0.6151072398833936 -0.06429105939299502 0.5598588941756315 -0.08702210395315314 0.18395004089613867 -0.16947065948869544
0.131 0.1831118248747311 -0.15954155615737434 0.6153283052056714 -0.060196445231195786 0.6736404013142089 -0.08533658023808365 0.18632735140714288 -0.16577351958918954
0.132 0.1818969932513034 -0.15847093309737023 0.6147038455218977 -0.06382989571141223 0.6056458446317329 -0.00661205248819934 0.18247623400543164 -0.16736068477161656
0.133 0.18138220300783625 -0.15695365694239571 0.6167315116120394 -0.06558267772026523 0.657917905440345 -0.041707192540710196 0.18354826722166243 -0.16395588624769716
0.134 0.1809224206619988 -0.15697843739360526 0.6156169365302496 -0.06420885722546268 0.6200577219698695 -0.017067968853612097 0.18328687661047682 -0.1651162898020354
0.135 0.18058154972934834 -0.15640201945817483 0.6152053531838273 -0.07118098876427655 0.5846136540199303 -0.1372512445556958 0.18307841320527973 -0.16573231526992024
0.136 0.1804627615937673 -0.15854832475714506 0.6145412235688624 -0.07284428984227072 0.5815509406078003 -0.08699836342139389 0.1822681261086297 -0.16739209078368214
0.137 0.1802312168419941 -0.15498844831749206 0.6114790349068254 -0.07509388345973612 0.5803941717622599 -0.07906339931532332 0.18211880617343257 -0.16066521558976066
0.138 0.18020183798101905 -0.15563431216287432 0.6161588286377508 -0.07617947376212748 0.6270830946863145 -0.06947740822783162 0.18246523394251973 -0.16342526959816334
0.139 0.180493612284108 -0.15579396231990733 0.6137356620258408 -0.07675939943637733 0.6314679501707715 -0.11405244044776759 0.1840871483293494 -0.16718509010558577
0.14 0.17970502812611305 -0.1556624810248032 0.6152218623204898 -0.07783174118712717 0.6332779158562685 -0.09982779879145103 0.18158380094065074 -0.1677126416160501
0.141 0.17910206027448772 -0.15408970981964853 0.6155687604598798 -0.08159272067171487 0.6247577666480445 -0.07535073679640367 0.17878447875805537 -0.16055910663153827
0.142 0.177877207444639 -0.15575805123195507 0.6097691922873615 -0.08005485868383874 0.5708110263943974 -0.08412500301922242 0.17896281494909572 -0.16619311081813462
0.143 0.17761512208462069 -0.15412059427217817 0.6106529547083552 -0.0848737271340827 0.6029761889856011 -0.041574532727082655 0.1780393708587222 -0.16287320992460252
0.144 0.17842155590590755 -0.15339224507748767 0.6121441608230643 -0.08773408541860514 0.5960602446213474 -0.0827218347160465 0.17591047440408575 -0.16296691700064397
0.145 0.176898461204453 -0.15315690792986528 0.6124892344853666 -0.08719858132419742 0.5502821997558854 -0.10059159444995537 0.1757839274241231 -0.15914971843634187
0.146 0.1778905057305774 -0.15362190067972992 0.613137996700906 -0.08979179525917037 0.6065061168182205 -0.10040813993571135 0.1790648963056854 -0.16255216592289573
0.147 0.17879588747787184 -0.15251060967085198 0.6105062864012466 -0.09259187301418523 0.6032660529343153 -0.08102413604852306 0.18004956643115452 -0.1607764001623947
0.148 0.17700556657088504 -0.1509243787335706 0.6127562297099105 -0.09306398351208606 0.5922717321463111 -0.11099192132023965 0.18003548004635708 -0.16374422015763626
0.149 0.17653282264263997 -0.15132290290019978 0.6114200679159216 -0.09861242566520156 0.6314519662538115 -0.080158036662239 0.17550645802737624 -0.15785361811956017
0.15 0.1763997819046076 -0.15134354018254947 0.6105964763973146 -0.10009691560701225 0.6034699565546069 -0.07874399184343658 0.1767590889208353 -0.16291928696782912
0.151 0.17587465969759916 -0.1511342456485941 0.6117765163865232 -0.09947997833300384 0.5879625736343629 -0.09909240037915888 0.1756073401842179 -0.1624871869298671
0.152 0.17585031238074122 -0.1527232292975045 0.6075822571625198 -0.09945075236275337 0.6038674930388742 -0.1023031805907331 0.17693900292427533 -0.16131974431980614
0.153 0.17551538970572925 -0.150635673470284 0.6132918410726765 -0.10420998226195034 0.6353829068476874 -0.12731704582505396 0.17313361065184382 -0.15986512362781088
0.154 0.17604117721052728 -0.15098364313711976 0.6102013412243441 -0.10172203995354324 0.5982206087529837 -0.09521521680933816 0.17585036549252045 -0.1625431988750773
0.155 0.17427266950866224 -0.14984248843720085 0.6128699229820364 -0.10947567775600968 0.5576156987899477 -0.1462966514686699 0.17713713344862408 -0.16090878921037596
0.156 0.17483914848647322 -0.1503227165729838 0.6091246703007183 -0.10549745640538358 0.6056474879225959 -0.12073602467030733 0.17289167617542123 -0.1643105459829032
0.157 0.17510294148059247 -0.15115774183853284 0.6086237229433648 -0.10853401331140503 0.6512016570864482 -0.08773270874154239 0.174567877825802 -0.16492080479196358
0.158 0.17415728616976187 -0.14872099738785194 0.613558508184148 -0.11432667945224598 0.5846890102545195 -0.11730123129428364 0.1721618603635346 -0.16081137693080963
0.159 0.1742455483423217 -0.1519510460934703 0.6072232271693881 -0.11350574592034676 0.6101856784253443 -0.12438377063588789 0.17271839891514756 -0.1597132399448161
0.16 0.1745848957022443 -0.1491541566391415 0.6099339887177566 -0.1168811558185809 0.6178258033846405 -0.10279729090429614 0.17526170851143846 -0.16060620834681869
0.161 0.17367934686157807 -0.1480541955556062 0.6114493052785608 -0.11539068304633739 0.6325260471312525 -0.11139349682374212 0.17133050451881152 -0.16109753512482491
0.162 0.17179307270932442 -0.14923421473100174 0.6084307245528116 -0.11626885535948982 0.6480038286068368 -0.0904858321680551 0.17301101210803507 -0.1594188059816435
0.163 0.17451991513796633 -0.14910134223494106 0.6089351328848699 -0.11965487542686576 0.6331415327547655 -0.08297555863278021 0.17493843610169335 -0.16179749941095606
0.164 0.1719169386175857 -0.1483124153308842 0.6048019021293976 -0.12157492911388935 0.6422005478242513 -0.13451071468680043 0.17122695207042687 -0.160164574269076
0.165 0.1730994161727079 -0.14910398184839968 0.6075195438221205 -0.12349374264210974 0.6300430421896585 -0.1358672575748033 0.17090779030252423 -0.15948828809922744
0.166 0.17284433175321381 -0.14869432472657687 0.608277824763158 -0.1254891815356848 0.6302091931436024 -0.1386247453821267 0.17082075002943622 -0.15861817045314686
0.167 0.17176685756907295 -0.1481542245822521 0.607127947284835 -0.12427167874060026 0.6693084114476535 -0.135195119381646 0.17263410391696518 -0.1609699501969413
0.168 0.17236997330885165 -0.1486658308687896 0.6027694030391139 -0.13241378922890157 0.5900440079437049 -0.13706947926384655 0.1715910721622862 -0.16055147492440947
0.169 0.17223784412925525 -0.1482568328603034 0.6040128530314572 -0.12926461899728936 0.6134148873719806 -0.10180606187837572 0.17119746489367402 -0.16117238286186422
0.17 0.1726569093479863 -0.14882027686103555 0.605986356244123 -0.13078623566353154 0.5956276859670889 -0.150516116249069 0.17132848301481918 -0.15926101214769722
0.171 0.17049048397196087 -0.14805508549316884 0.6072207541155467 -0.13341049378245426 0.6299256144436537 -0.09849819101331585 0.16863752092578857 -0.15932466280161095
0.172 0.16970057106617473 -0.14703963242966972 0.6039065210899495 -0.13714619576354187 0.6079787449447959 -0.13936837407835326 0.1678565166986686 -0.15879515743341513
0.173 0.17202899113009265 -0.14875867135278 0.6081825663844653 -0.1354134726948225 0.6100496103609087 -0.14819227563795462 0.17066611565087977 -0.16014143441575218
0.174 0.16940769469562642 -0.1475374043122209 0.6055839039951688 -0.13965617549324996 0.5643193885307809 -0.11804529343013698 0.1678105762166355 -0.1594493233581137
0.175 0.16997634579567528 -0.1477197410669495 0.6013535737651814 -0.1398347464553227 0.5944632941145503 -0.15006323094838292 0.1683065651702863 -0.1586620426020125
0.176 0.16986162314627348 -0.14723933957948793 0.60585981697994 -0.14228128666062378 0.6153290317676643 -0.11163471605774855 0.1695696387529426 -0.16068024249569163
0.177 0.16978177693350666 -0.14842946244992286 0.6041196326263881 -0.13969132568226972 0.6091754886408981 -0.12636307512262998 0.16959893651560223 -0.161608550678981
0.178 0.17123162963798613 -0.14730742495992938 0.6025257316176351 -0.1455220869440645 0.6034642950834078 -0.17852230347606315 0.16297520891183262 -0.15853214558680956
0.179 0.16830020956099268 -0.1466682830350442 0.6020045577335031 -0.14990431870514045 0.615535765432265 -0.11935455266101333 0.16942930751878713 -0.1618942341051244
0.18 0.16894454801828507 -0.14737178862162503 0.6006803105849565 -0.14814160641853683 0.580551769549424 -0.17978239240093385 0.16780510464992365 -0.16017723554448654
0.181 0.16882017471075317 -0.1473649178477849 0.6017711046976164 -0.15233796502721172 0.5638145345201345 -0.1579244666243291 0.16589206985843397 -0.16121765968542143
0.182 0.1685375152221274 -0.1471413249235257 0.5982033173177457 -0.14977986557692435 0.6107095810920555 -0.16992092202658537 0.16793873958468408 -0.15858491467404634
0.183 0.16878802341041937 -0.1466503091037472 0.600506850473905 -0.1540459829413199 0.614518173908875 -0.1334038888940289 0.16527373979186047 -0.16093630960060062
0.184 0.16758254737102138 -0.1468916372042373 0.6000885846761225 -0.15360990779219272 0.6136482458698372 -0.13989925149380414 0.16391447028008763 -0.16092342509990787
0.185 0.16768655778827 -0.14705125512104417 0.5996105449758116 -0.1525285016835965 0.616235606655976 -0.15707394350479306 0.16722532509157131 -0.15996234991880526
0.186 0.16896429183234854 -0.14812139187655612 0.5983426443053467 -0.15623081732181707 0.6219300922671496 -0.1515616333955745 0.16650938552563505 -0.16401766498305143
0.187 0.16718775083471837 -0.14713993326805147 0.5966227914520634 -0.15812517960756772 0.6219599653029539 -0.1561873620783197 0.16312593905228354 -0.15902265463556808
0.188 0.16714233904430928 -0.14667883685125555 0.6009930285208106 -0.15938515574653336 0.6144479738027284 -0.15942028416149234 0.16632276592634224 -0.1601964349693802
0.189 0.1669827753529245 -0.14708110834932234 0.5986155271889411 -0.16206318971609485 0.6367889822286057 -0.1505006287006922 0.16529484922773746 -0.1589899034740899
0.19 0.16653295584309144 -0.1471929659918004 0.5947632107616558 -0.16562417337269375 0.6028697157954186 -0.1674363429542409 0.1647481936268517 -0.15721818984490224
0.191 0.16675516008557859 -0.1452935109405089 0.6000632211958693 -0.16544809364984497 0.5752743763617055 -0.15011340056484668 0.1626356025790524 -0.160437845727122
0.192 0.16528684856035264 -0.14707657097100826 0.5973460582891089 -0.16385476430380094 0.5753547508657466 -0.18135807496800185 0.16482348201328292 -0.16232207240121366
0.193 0.16565472335479928 -0.14663236221721562 0.5939623950040227 -0.17293312347544515 0.5997304617945557 -0.1573912337807331 0.1644867935690508 -0.15870129383804044
0.194 0.16582966017799614 -0.14573519716530264 0.5951752892080325 -0.16885921482731758 0.597786603400258 -0.1430884678341531 0.16355554550266774 -0.16134183411390127
0.195 0.16514585343622148 -0.14668789129773635 0.59523903954856 -0.16661312427786326 0.6018439602701846 -0.1469384386158632 0.16062507867028336 -0.15742074960842098
0.196 0.16553715917489953 -0.1447407880654809 0.5960484805874966 -0.17218199567708364 0.6201287697466024 -0.1478134534370487 0.16404326793996477 -0.15869588156086967
0.197 0.16481784096215352 -0.1460488688298657 0.5986438174041845 -0.17276805075047064 0.6054040912238815 -0.13846901776383924 0.16330626062514797 -0.15886673845208737
0.198 0.16517317506904086 -0.14551473615146254 0.596126364802936 -0.17410466897347782 0.6054872130359291 -0.18689161821940026 0.16234270217369606 -0.1599236179425346
0.199 0.16457616433294117 -0.14591593125522861 0.5929012669755912 -0.17872167304329456 0.5678570783543501 -0.16471705730244562 0.16191580885565657 -0.16124889100147902
0.2 0.1640524194216262 -0.1469525004392374 0.5929884322137269 -0.17948809799436874 0.6143774637115068 -0.18885766513716004 0.1635547509007086 -0.1595906669682123
0.201 0.16351600011267325 -0.1467857455541444 0.5931230052334973 -0.17751391670295968 0.5398370925783491 -0.17273677310717186 0.16225574928576766 -0.16010286704538
0.202 0.1641705669340897 -0.1467143913299195 0.5925887617074813 -0.17816067063368124 0.5729231207876355 -0.18483565327764243 0.16350796976782467 -0.15745013149276696
0.203 0.163191015699926 -0.1455955461267416 0.5955209268422359 -0.1838148469342919 0.6038514763012097 -0.18851983721558457 0.16233322083694043 -0.1600003363703024
0.204 0.1635728381712884 -0.14498571235857657 0.5915507736882549 -0.182908097947495 0.5820694141998489 -0.17061223176499773 0.16079343625424208 -0.15698334040355788
0.205 0.1631088667733359 -0.14538978858944496 0.5931697907453106 -0.1837237934429697 0.5610562076557278 -0.18637775181040797 0.15993230469629838 -0.160486422922381
0.206 0.1624948492185068 -0.14544541823724777 0.5945507191514369 -0.18841162719023524 0.5912701104107738 -0.20085124919428862 0.1592713799096432 -0.16162974508708397
0.207 0.162204612335183 -0.14579200194656128 0.5917427205562623 -0.18836181165192512 0.5760940843054603 -0.18090570069428685 0.15876473669752963 -0.15977938278218734
0.208 0.16241154311024059 -0.14544502635161888 0.5894391750031279 -0.1882700739220434 0.5610354344284115 -0.16769580858561642 0.15832216835219406 -0.15878812313804067
0.209 0.16253851969230512 -0.14616370554374458 0.5885531570015645 -0.18804807761335288 0.5896749610842187 -0.1976883232791276 0.16091975701356925 -0.15974764968852864
0.21 0.16196074277323178 -0.1440682206807369 0.5909183559227444 -0.19586387253396306 0.5928389306182618 -0.18298587782899606 0.16133153453123686 -0.16204643766771415
0.211 0.16116036759080674 -0.14709077930756514 0.5874271930128411 -0.1939337600488368 0.5811773141056799 -0.208349554718399 0.15909572766699812 -0.16106819325234525
0.212 0.1611731530574873 -0.1455742791216493 0.5883309266572011 -0.19559952184058094 0.6004606154408418 -0.20322020291840104 0.16075578354055153 -0.16094143675905193
0.213 0.16259298931481767 -0.14649971654382346 0.5877870849788172 -0.19588369987057777 0.5940298245947465 -0.18859752343506347 0.15873764891114403 -0.15860223734802006
0.214 0.15996403153184519 -0.14536612929433562 0.5897313657527613 -0.19502836958249256 0.6053188897694829 -0.2238857451797412 0.1610099112639961 -0.16017508958617188
0.215 0.16127585543674522 -0.1459244973152049 0.5873770464093747 -0.1965251588197845 0.5709600527158105 -0.1967958656382371 0.1583859270479758 -0.15865826333807592
0.216 0.15869107633995475 -0.14529008506930916 0.5855496842352548 -0.19936343091996722 0.5700095458087876 -0.193389601842912 0.1577154676363014 -0.1611451604836047
0.217 0.1609389368006074 -0.14757651758232948 0.5862368137038316 -0.206519449961197 0.5883085784900992 -0.17115593974696278 0.1593100636610764 -0.16017352167419288
0.218 0.15909442938977886 -0.14464429592608655 0.5880147433544944 -0.2025233012158792 0.5754388071275073 -0.1853497125062101 0.15980256621704314 -0.16160524432068332
0.219 0.1598771733147669 -0.14636195572054034 0.587972430113292 -0.20491334066392058 0.6042837305141151 -0.20294198027184 0.1590622065366829 -0.16027849507287784
0.22 0.16073007861226746 -0.14602685741175703 0.584219882942374 -0.20321418357722354 0.5846121396386221 -0.21674729605948748 0.15686183308644144 -0.15950439299848135
0.221 0.15976994630182176 -0.14649351688316875 0.5871493058148367 -0.2092884757346669 0.5999660922432047 -0.19504040168085243 0.1598774371091429 -0.16040745939618997
0.222 0.16051181936423561 -0.1456714066793122 0.5827501073323451 -0.2092482947235044 0.5941092590523841 -0.21199148980707122 0.1579484598474054 -0.15877883747952168
0.223 0.15954470700334758 -0.14625562256486158 0.582829725773194 -0.21246621467341822 0.5750565051906286 -0.2017979371659795 0.15574857865261477 -0.16004300281638442
0.224 0.15900249302820116 -0.14510124774204164 0.5838523489211349 -0.2108916052887064 0.5762639907852904 -0.21004674402920334 0.15584141612172642 -0.1613679168514297
0.225 0.15867016487168195 -0.1456747686004335 0.5843505679242709 -0.21661244731410098 0.58150625295848 -0.22716347286866082 0.15657158708743707 -0.16051996825559395
0.226 0.15960257238205164 -0.14464288046460685 0.580355397655814 -0.2121729925563531 0.5695282448375752 -0.20968791562403663 0.15566020779259607 -0.1590874247457338
0.227 0.15938281421570857 -0.14620587400164847 0.5801490792839356 -0.21511990940589285 0.5958275859608045 -0.21718850820158667 0.15616871779902405 -0.16120111985630875
0.228 0.15890376157938194 -0.14498351354584915 0.58176368494138 -0.2187912428517589 0.5805117720854174 -0.22161312990881488 0.15289648723486998 -0.16213342567269004
0.229 0.15844490204898848 -0.14627671691596011 0.577785383627987 -0.21522073368678002 0.5945606651101931 -0.2344222697093897 0.1533598132960111 -0.16256411245474628
0.23 0.15864688675237829 -0.14543503213891681 0.5778324710277695 -0.22070660407332984 0.5730412799882747 -0.2258857558551554 0.1539127007632777 -0.16113867577409363
0.231 0.15731138168248512 -0.1452399244431757 0.5799945889923751 -0.2189650429220241 0.5448565156759362 -0.2218838794644793 0.15596583061360345 -0.16131828821969862
0.232 0.15681799001711838 -0.14644741182058893 0.5810326024117164 -0.21956243072656229 0.5669509934369594 -0.22883553212238428 0.15750267623042685 -0.1610517576282475
0.233 0.15731808434268563 -0.14494146716853293 0.5735292497476785 -0.22507420592832192 0.5640207465296903 -0.23907265961560567 0.15452803000256649 -0.1614108742287519
0.234 0.15690501342504176 -0.14647690797462745 0.5757737994499772 -0.2249576402350842 0.5789593065943074 -0.21265011872836753 0.15449128768679352 -0.1614210540127907
0.235 0.15686861063255902 -0.14577655047163499 0.5796421411637581 -0.22607357321452384 0.5922490252308482 -0.23172167881255662 0.1554636013410852 -0.16400908581239218
0.236 0.15601104597336077 -0.14575989928661728 0.5744795495014197 -0.2287924245930581 0.5697953812523077 -0.22634766026161446 0.15146616295015058 -0.16066747804879922
0.237 0.15663907593425827 -0.14603332062814128 0.5731786918235566 -0.2279327096566501 0.5751567386717367 -0.22944203063439794 0.15495420056528564 -0.16233372714504535
0.238 0.15616663032136505 -0.14563719538815226 0.5769779056044501 -0.22962437443010186 0.5595021079572108 -0.25069467587226935 0.15594553524287977 -0.1600567402292473
0.239 0.15611199388689917 -0.14650211494734283 0.5746477245633366 -0.23030223006229605 0.5880151910985584 -0.23005616897703818 0.15434281053928678 -0.1614330640523438
0.24 0.15539350554712603 -0.1461425791431813 0.5694291760981562 -0.23368129900703585 0.5601649666314814 -0.21669201663315096 0.15359584078143482 -0.1615144502447426
0.241 0.15500741241413846 -0.1458359405331556 0.5693594363279841 -0.23417646463101352 0.5641064857836701 -0.23087444914748748 0.15355721389524185 -0.16356967000638192
0.242 0.1560485983591801 -0.14648004847945265 0.5702385088823055 -0.2397390018049499 0.5630950392471574 -0.24975379134520553 0.1519243193952364 -0.16170036955350078
0.243 0.15551665366709772 -0.1454960000774731 0.5742093401327485 -0.23395844174931527 0.5633189997343077 -0.2469707396401188 0.15094475849746358 -0.16015605118771647
0.244 0.15500864574158685 -0.1474176560617892 0.5738430153852567 -0.23797729270338905 0.5696619643038144 -0.23700872891564664 0.14944761524745018 -0.16452916870185869
0.245 0.1545136157615509 -0.14640978744245692 0.5741542814701263 -0.24125001212434827 0.5610975172020632 -0.255191156431211 0.15200824348188624 -0.15965730280936255
0.246 0.15529460791645786 -0.14729667048641126 0.5708907569692546 -0.24372763979498083 0.5929541204378987 -0.24142071864101783 0.15077266174008758 -0.16220327129357903
0.247 0.15407467666456642 -0.14631287133088766 0.5682585417870397 -0.2445489096610632 0.5719436796091921 -0.2635823612132673 0.15005503498506934 -0.16366827490525232
0.248 0.15337302703024233 -0.14687853259866268 0.5703246163735095 -0.24800920328814022 0.5715695858667589 -0.23610252672655793 0.15037310810195917 -0.16213707273602523
