!Created with skrf (http://scikit-rf.org).
# GHz S RI R 50.0 
!freq ReS11 ImS11 ReS21 ImS21 ReS12 ImS12 ReS22 ImS22
0.13 0.13417537134711882 -0.18145309911392443 0.7858029080079505 -0.06851378923777666 0.739389497552634 -0.027656744688620075 0.12598827319171876 -0.1877253757715386
0.131 0.13226455295146108 -0.1806673649486903 0.782158496503378 -0.06628782675351846 0.7482136690560991 -0.04708033766477754 0.12991575206314493 -0.18101355093564403
0.132 0.13104023687208421 -0.17961667566635647 0.781978007441811 -0.07146850189831419 0.7812254947844223 -0.06827724364569861 0.12495886625698112 -0.18849357267140388
0.133 0.13085886550323234 -0.17978266014787714 0.7849878593728613 -0.07741010385866687 0.8235856341057646 -0.11363356004401387 0.12497915051522858 -0.18508327376759526
0.134 0.1302983819188071 -0.18129213323667315 0.7866003661375788 -0.07386125028524322 0.8016376434330125 -0.11133692300358433 0.12679660780225774 -0.18444036880256828
0.135 0.12952513658074558 -0.17847223692489336 0.7850178278164297 -0.07677642356339777 0.7422838458069841 -0.08942381547045991 0.12310552361932642 -0.18462569564020265
0.136 0.12910662785334823 -0.17885648538179275 0.7846740241247553 -0.08097287153878997 0.7438600722471749 -0.06129660580287992 0.12423200290807879 -0.18277468174309733
0.137 0.12965541859495539 -0.17703936683142515 0.7803197679364232 -0.08506115048352667 0.8210786613550975 -0.1056612755117705 0.12432415572649604 -0.18129960511005355
0.138 0.12857448143898398 -0.17675754423430745 0.7811280049063976 -0.08978624942031245 0.7922729733769703 -0.08782377489758278 0.12122537527149785 -0.17687338245383366
0.139 0.12882830197589323 -0.17614865006694144 0.7837730744303434 -0.08947024341670126 0.8309330949356222 -0.11899210414071462 0.12671532730135285 -0.18173063520831065
0.14 0.12665389780627131 -0.17506411636060115 0.780045691261207 -0.09288494590674586 0.8309621953813885 -0.09091243282183369 0.12079960978782067 -0.1819133573137305
0.141 0.12543262016168108 -0.17405711877753613 0.78477062508714 -0.09159276166250366 0.7324070187422307 -0.09253241355188367 0.12001984065545523 -0.17794066896049054
0.142 0.1262373403023026 -0.17511930397482472 0.7793450728732162 -0.0962550366901203 0.7481797136733684 -0.0961164336014607 0.11990427136124189 -0.1773125751754545
0.143 0.12612781909165108 -0.17313248023119687 0.781438290894697 -0.09608960258214175 0.7802223250527726 -0.10672232666689987 0.11898658527117074 -0.17855149132770032
0.144 0.1265850814596 -0.1713446503676311 0.779975827800955 -0.10090588318773235 0.810636585312219 -0.08806722948878903 0.1179351511701044 -0.17630498796390134
0.145 0.12483039305718993 -0.17171215314297833 0.7825914260766346 -0.10256308419529658 0.7092824277475213 -0.11226525278738121 0.1177482104083309 -0.1751957664960793
0.146 0.12605917934118155 -0.17112759127747235 0.7823112755466213 -0.1062646932283291 0.8039072162346977 -0.055098339647375635 0.12309170633218507 -0.1783760904229173
0.147 0.1272003992587488 -0.171324675768123 0.7800924691663484 -0.10775701200542928 0.7693301599768987 -0.058768908050953424 0.12258007585020593 -0.17333929388677835
0.148 0.12512894460162244 -0.168864184463817 0.7809905142609658 -0.1093977975085568 0.795259757764457 -0.13125606876339865 0.12245864140783544 -0.178757833056345
0.149 0.12493268335089035 -0.1686081641097785 0.7797399542712363 -0.11521985732207048 0.8050735196616932 -0.07964149291629105 0.11716133723359268 -0.17119167590761633
0.15 0.12454254752239541 -0.16807005198717756 0.7800847576017239 -0.11983450413869765 0.7727021610106583 -0.11330971735081886 0.11809998877778737 -0.1753856832839312
0.151 0.1235584246717149 -0.16836741961972332 0.7807054170935055 -0.11701244688085989 0.7789841571268433 -0.09683267532005967 0.11597477904447012 -0.1730450748557495
0.152 0.12285179650846625 -0.16856203358251046 0.778659024881281 -0.11671133050297076 0.7500917880246585 -0.12071340239653318 0.11765697447700976 -0.17500654957027556
0.153 0.12359332870807675 -0.16673636883001486 0.7853782939803707 -0.12598353602084647 0.8006067019332912 -0.10900014239679796 0.11421649266466123 -0.1724866062119806
0.154 0.12355934696906522 -0.16627588749105612 0.7795910915328594 -0.12123799729202826 0.7565935380902511 -0.10792328516220627 0.11924499709758336 -0.17643734286601928
0.155 0.12258743887660908 -0.1652006031048973 0.7793616797590486 -0.13143543267589905 0.7650855171397857 -0.16622335792166135 0.11604947425901896 -0.17197722298124943
0.156 0.12239800767793227 -0.16557266506830912 0.7781103338092245 -0.12375312048723049 0.7859370150626197 -0.18213693023512956 0.11428468609842271 -0.17266679987131472
0.157 0.12243453518617872 -0.16552599901744727 0.7752492450004412 -0.12917232294859915 0.8331725383515091 -0.1341982910561891 0.11685780202748677 -0.17230672582030568
0.158 0.12140906007332591 -0.1641908675371103 0.7829046157390698 -0.13511713953101642 0.8189867245341707 -0.16167429659058302 0.11437240082850747 -0.16753148874780224
0.159 0.12166454059137882 -0.16513676973043337 0.77632916413469 -0.13596343038536196 0.7881770044770292 -0.16533391071979794 0.11374037951549777 -0.1681751613823683
0.16 0.12097456373397013 -0.1650818054555695 0.782159508867793 -0.13846788340597563 0.7705671905694123 -0.08807472273908745 0.11579058505123038 -0.16914201586801741
0.161 0.12192363532515643 -0.1636055274799702 0.7805059330355244 -0.13799998512309422 0.7477413543148103 -0.1165960783566197 0.11313454631816837 -0.17118609246877206
0.162 0.12018000811249496 -0.16214251327562598 0.776704926449061 -0.14418756815794953 0.7593561110579313 -0.08509968269345049 0.11570833703087427 -0.16811994144928852
0.163 0.12109699320791166 -0.16312865646686653 0.7766368062439181 -0.13989756876628684 0.7981378034165981 -0.14546026205917764 0.11276419696593441 -0.16949568136362284
0.164 0.11903284530063556 -0.1617418452424999 0.7709533502330319 -0.1444671437188204 0.811765204964235 -0.21057630910908617 0.11281188692274934 -0.16787044477964766
0.165 0.12092160741631583 -0.16228184213868402 0.7784378611230552 -0.1474698793926402 0.8006704319542169 -0.1756767492376808 0.11063527553508624 -0.16927193090894185
0.166 0.1190404616047905 -0.1609425018225075 0.7723576930567488 -0.15717701381538463 0.7823288293057082 -0.1251810175850034 0.11229610299918183 -0.16714917953687417
0.167 0.1199180225986805 -0.16141530806133494 0.7805290892011514 -0.15060558450313077 0.788355226290718 -0.1847428412107653 0.11370395725394972 -0.1677643069051598
0.168 0.1193188739032709 -0.16191736246298635 0.7716304229344951 -0.15796688848966445 0.8039350961919216 -0.17318588991945696 0.11467022693437522 -0.16740572607680734
0.169 0.11840715065846984 -0.16030306687724427 0.7736262544393069 -0.15671428152497652 0.7877302315608496 -0.1014794388448722 0.11119019714724435 -0.16870656766528996
0.17 0.11944992678084196 -0.16092026964913053 0.7759718423869769 -0.16346973500386247 0.8016272699870053 -0.16450958121898712 0.11229313520820772 -0.1673078977222393
0.171 0.11779361908221637 -0.16069996666965697 0.7763392721735294 -0.1588041745668983 0.7962645280365354 -0.1736481562246497 0.10774145396271669 -0.16770879923996473
0.172 0.11688569232830866 -0.15954426290406473 0.7692285266459109 -0.16414062769669313 0.7873239549708 -0.19191179212094292 0.11167444252570277 -0.16318915008684132
0.173 0.11878190393790626 -0.16022713134467476 0.7733013543190075 -0.1648811429514951 0.7774252908345234 -0.18194402471795795 0.1151447135841296 -0.1662126705964474
0.174 0.11658215367366574 -0.15847258558223096 0.7697235399699965 -0.16952236103923207 0.7423238730298503 -0.2170016837827057 0.10638066303228343 -0.16528991297530626
0.175 0.11800420392876107 -0.15963892240177133 0.7724337292810524 -0.17428284401533473 0.7769195033457114 -0.19087748376231597 0.10998397650759159 -0.16130303042169494
0.176 0.11522946461402786 -0.15919606521947743 0.773048652921281 -0.17273503586234182 0.7986385185507059 -0.18414024039588223 0.11026844372549924 -0.16692348169795843
0.177 0.11663605120677263 -0.15854354741477092 0.7716399628562183 -0.17452771420782273 0.7653361009517894 -0.16366035559078157 0.10952601974010535 -0.165608831527008
0.178 0.1197877059941541 -0.1586361894929666 0.7734817270589864 -0.1731704127793745 0.7712833447158518 -0.20231988887858018 0.10646907298870106 -0.1652308949218758
0.179 0.11544326602356965 -0.15838417198489366 0.7710686132734118 -0.1833361279079024 0.7634256062570689 -0.15292864818697666 0.11283223899125353 -0.16678045156813717
0.18 0.1158741010854762 -0.1574423797771679 0.7662466486461625 -0.18331080956325363 0.7547166282233392 -0.2193969002529282 0.10858562576933467 -0.16295686137438475
0.181 0.11436043502503897 -0.15734693349043438 0.7693735303427993 -0.18507782184530858 0.7778705623598333 -0.1946790417884077 0.10591157886608914 -0.16380112823268828
0.182 0.11631817188706493 -0.15721242350878525 0.7655046966578806 -0.18527755462344653 0.7938651380659784 -0.19512796708686483 0.10866136172818529 -0.16484088581634557
0.183 0.11478651928704472 -0.1558449752160199 0.7680199976627144 -0.18832319588411103 0.7839135366739922 -0.18961865469269065 0.1074102158938901 -0.16459473329200616
0.184 0.11480934156446025 -0.15702513709452823 0.7655570480032006 -0.18796319610636286 0.7428030590870152 -0.2002254567073545 0.10427756674490647 -0.1624336742010087
0.185 0.1122183436434269 -0.15626161835250418 0.7656159606620772 -0.19119195617326237 0.7435617420393142 -0.18313720564691885 0.10597116330153616 -0.1628480812336346
0.186 0.11424850002369834 -0.1559788229950952 0.7654747940709912 -0.192248610200963 0.7918036259234299 -0.2096497119397856 0.10734914784529097 -0.16376682528099185
0.187 0.11323874142520934 -0.15554620049480852 0.7649359738683171 -0.19236906087810224 0.7702054701097604 -0.21669220461691 0.10451515453974912 -0.16347577665924112
0.188 0.1128346166224514 -0.1559898358976561 0.7667153338505178 -0.1954070072291881 0.7793417514461274 -0.17500586214733846 0.10461686124087181 -0.162325588676666
0.189 0.11358379163015829 -0.15477141034397507 0.7689171206190774 -0.19917127932001885 0.7999729302068572 -0.16773999375123025 0.10546281960044962 -0.16322656058258503
0.19 0.11372545968392336 -0.15478605646889607 0.7641555911870005 -0.2051535723257702 0.7417436877110984 -0.18903459639882228 0.10526831662021861 -0.16124786054780696
0.191 0.11286654544673176 -0.1543063546999917 0.769956553272348 -0.20108640842811906 0.7540640493824515 -0.21783339913047617 0.10493424190790902 -0.1623646604573906
0.192 0.11142655879150803 -0.1539890757072801 0.7659339370496697 -0.20358535911504666 0.7540811635306494 -0.1936557362760918 0.1061619374900057 -0.1620808306454502
0.193 0.11181655980023213 -0.15400538775640316 0.7623188465044127 -0.21041148909341098 0.7894086851221492 -0.20711715683260062 0.1055764184390527 -0.15713146390135876
0.194 0.11137796680813533 -0.15343323562466987 0.7579691781235102 -0.20764716451109738 0.7504998800671916 -0.21563659821184172 0.10492809468157771 -0.1634055188758316
0.195 0.11192283825899128 -0.15425134470618812 0.7581566108953849 -0.2071785966116641 0.8007985855925788 -0.18627974112582724 0.10352572473873506 -0.1591650185182869
0.196 0.11107819494878651 -0.15156486093833926 0.7608625581110646 -0.21122795645289247 0.7792315173234713 -0.2028271902771784 0.10538243047881765 -0.158979768641981
0.197 0.11078834547104188 -0.1534227648899282 0.7589363681617636 -0.21510484058883728 0.7629121334724328 -0.22714195121723477 0.10309837393391902 -0.16193322478340336
0.198 0.11163550153601344 -0.1520236004703444 0.7627450453142229 -0.21707725523282817 0.7671053560301386 -0.21611348283583456 0.10158143485917216 -0.15918353109254646
0.199 0.11125556683556677 -0.15245445689733653 0.7563721647705937 -0.21736270098210653 0.7735281309887543 -0.20757616249445507 0.10319075370032862 -0.15959116839863136
0.2 0.11025078074010494 -0.15274631764671903 0.7587743535764324 -0.22088866584621308 0.77356011579155 -0.22813966381578488 0.10575222708110524 -0.15961663403661056
0.201 0.1104297119588084 -0.15262105286159264 0.7552433717642658 -0.2244348370848208 0.7358184374930182 -0.23573055414682464 0.10304559766296548 -0.1604118245978159
0.202 0.10893183909598815 -0.1523790670089337 0.7585477426081985 -0.22190096695359993 0.7375279637048792 -0.20599756508114447 0.10274685975318938 -0.15852517941096175
0.203 0.10988091216725952 -0.15098440746003727 0.75687362219711 -0.2266636908250705 0.7901124682610273 -0.22077306286914317 0.1026218619741323 -0.15776632799935328
0.204 0.10900156527274907 -0.15051968260087575 0.7544871153644794 -0.22584273223563836 0.7689053064727976 -0.21826249600621692 0.10108457040356614 -0.15699841373926973
0.205 0.10912187096738851 -0.15052734302705062 0.7515179537109244 -0.22871957821705485 0.7394556877346056 -0.207271544684026 0.10102599053127148 -0.15927292787486017
0.206 0.10786465854847056 -0.15017845676160188 0.7558377814075263 -0.2328115186689893 0.7218826948219462 -0.23292334558677089 0.10067208126454824 -0.15921797333956275
0.207 0.10826293844246915 -0.15111138822044334 0.7573211276570055 -0.23476709466412177 0.7618783280641491 -0.23969832723885595 0.09864494702400411 -0.1567419774497854
0.208 0.10826070823258324 -0.1494701357221827 0.7555150654950268 -0.23413823989720486 0.7257186315313815 -0.22071852635420175 0.10019985804024222 -0.15839869984906801
0.209 0.10816065143632488 -0.15015447320101413 0.7541685310937742 -0.23266620871374538 0.7485127756305041 -0.23513570744677684 0.10086606902451602 -0.15721701671590518
0.21 0.10908726536765251 -0.14951619234802305 0.7565987150824808 -0.23990716154147626 0.7563617393666199 -0.21962835128048286 0.09914707536516663 -0.15781660663774916
0.211 0.10747274007341186 -0.15144942797495614 0.7516671525486783 -0.24746122204877402 0.7495627148047034 -0.2512709610957668 0.09966502285305177 -0.15807542027462285
0.212 0.106488063072002 -0.14890868942940913 0.7550686883079958 -0.24168131200172974 0.7526169146279074 -0.2290527481084652 0.10160966606544784 -0.15989665029344233
0.213 0.1074983873664715 -0.15044559712848737 0.7537305507455382 -0.2437430083815486 0.7568200286050403 -0.2627964562021848 0.09865232497311689 -0.15551539531062158
0.214 0.10583949636294143 -0.14994459147542105 0.7533726626973851 -0.24295934092188667 0.786518906685772 -0.26973353145863294 0.10075075192522275 -0.1593840218519205
0.215 0.1066251794779123 -0.15012575132319605 0.7509932448203939 -0.2444399532709041 0.7364983910449943 -0.24524156516971685 0.10045192623968477 -0.15577338638323973
0.216 0.1062665247483496 -0.1479466505135509 0.7494822808469767 -0.24934247384909905 0.7393166065890333 -0.24431287583670935 0.10031466108084236 -0.15463836294539568
0.217 0.10520553251174738 -0.14837961856952225 0.7503667009838662 -0.2561303353097138 0.7417144432339445 -0.21672599448300792 0.09882441946895078 -0.1566722940448253
0.218 0.10665843493142192 -0.1478800377352652 0.7507792058195006 -0.2511189119749038 0.7404432894414461 -0.24985977021459882 0.10038177302482369 -0.15763810350790153
0.219 0.10649786183285005 -0.14826960353542543 0.7514895849524174 -0.2553747388168464 0.7622799404972476 -0.2530987645924458 0.09939263496405491 -0.15500699289755093
0.22 0.10489231528600206 -0.14898151213114472 0.7482046108913044 -0.25246982531470574 0.7722610009152497 -0.2831717456107607 0.09813165775647893 -0.15642541103673913
0.221 0.10448427900879452 -0.14840989720301817 0.7519276833350389 -0.2611884447279606 0.7550370191671378 -0.3009734884812714 0.09852784328396416 -0.15574754001827598
0.222 0.10375136500320774 -0.14781787582204173 0.7452418663463862 -0.2585458617359443 0.7650516100697162 -0.26177244992486803 0.09709382265916174 -0.15528331906535311
0.223 0.10481128604208836 -0.14838584573736305 0.7466571089669252 -0.26582568951737146 0.736321633825839 -0.2525087281918249 0.09497490790539326 -0.1554390226323145
0.224 0.10448493439980755 -0.1462456392966239 0.7490809111381687 -0.2655690779570033 0.7319396850615055 -0.2775323154757736 0.0976552408777829 -0.15393670876938553
0.225 0.10412303954485005 -0.14575916469764746 0.7489377132325074 -0.27192732250395696 0.7445281243114072 -0.27266481097309764 0.09787213460722224 -0.1534997088994753
0.226 0.10630227166892933 -0.1462431981753888 0.7449772987308285 -0.2629427355857478 0.7305476451670958 -0.2522754074128595 0.0978098009512687 -0.1550349587298817
0.227 0.10341304557550664 -0.14817664369229147 0.7470380615330613 -0.2707978505431967 0.7496429742372799 -0.2676699969229519 0.09826438664265702 -0.1566228555492569
0.228 0.10397924933279891 -0.14687503602558596 0.7443384199532338 -0.27335116799150194 0.7443405806728169 -0.2671815377481706 0.09412847154838287 -0.15548282340679925
0.229 0.10378614807749362 -0.14759303554558054 0.745878207555624 -0.27257608882810525 0.7565137310342512 -0.26249153889160004 0.09645056155290538 -0.15629600425280082
0.23 0.10378161369464146 -0.14599463652328332 0.7413311399223286 -0.2758621497064893 0.7348344000923281 -0.27971172001418704 0.09663552795667486 -0.1533337843965837
0.231 0.10248279165882729 -0.14513867562704375 0.7401967574293302 -0.2706894629914959 0.7205335461174897 -0.26159971644031554 0.09535804736020621 -0.15674566177219093
0.232 0.10274551237818433 -0.1460108086766223 0.74019934837042 -0.274527697617628 0.7445731834556586 -0.28466866252938977 0.09903952086392406 -0.15559765602621017
0.233 0.10278877020780774 -0.14455388415988762 0.7374327738405207 -0.28003952042238633 0.7573812793332567 -0.29948032470631336 0.09622517792943129 -0.15429114132245703
0.234 0.10263303977455594 -0.14574486093783606 0.7404497803600868 -0.2808291348526263 0.7319418661204781 -0.2733701227429522 0.09515093736073157 -0.153696005745559
0.235 0.10274206347170428 -0.14617865467326305 0.7373204959185012 -0.28410812085191 0.7812096271270315 -0.2776049741251347 0.09695312980675443 -0.15561447306402218
0.236 0.10265137342766155 -0.14547266583542431 0.7384916365869512 -0.2897330894201674 0.7192405555439536 -0.28730480399510505 0.09354831680797536 -0.1523519034667882
0.237 0.10176664892197011 -0.14518612636548175 0.7382537778271804 -0.28581085184350397 0.7425007907723866 -0.2949077494224173 0.09593676739828653 -0.15412480576536272
0.238 0.10266818613883141 -0.14476187552951608 0.7402867902414014 -0.2847053703304165 0.7170866313107079 -0.29494707088822103 0.09669765711917841 -0.15157914892583127
0.239 0.10178964559234567 -0.14574836237568894 0.7348427942107453 -0.2926214033186112 0.7376493282075528 -0.29567770989465914 0.09593065212760622 -0.15267954009600262
0.24 0.10081416194883397 -0.14449915928510418 0.735933687175443 -0.28938845079322206 0.7402034047002464 -0.30420815084308533 0.0946998507573566 -0.15415265187852722
0.241 0.10049080637391011 -0.14375521490688237 0.7355493789506651 -0.29336282244418893 0.7349022350763577 -0.31006664513605436 0.09615405144773444 -0.15609381893002292
0.242 0.10178186689712423 -0.1445186666304193 0.7337279974998159 -0.2956333242342263 0.7344771013528111 -0.30611844531046545 0.09264470587055307 -0.1547026066499792
0.243 0.1013142982863237 -0.14317621212523943 0.7327927602869551 -0.29733838512388444 0.7302564657298001 -0.3126913450806613 0.0926834233826553 -0.1513647407606496
0.244 0.10082077196870294 -0.14501719681758318 0.7333088537244429 -0.2998876426965623 0.7181459633469671 -0.29205656337585034 0.09249780840077287 -0.15469229258481512
0.245 0.1002692126221509 -0.14402455475706363 0.7359200389601583 -0.30280893802638004 0.727165098094618 -0.31846512935492244 0.09418071163229767 -0.1493387480798255
0.246 0.10119283821411267 -0.1450736814821343 0.7261634826647001 -0.3041772396569913 0.7409302515262963 -0.3250170585807284 0.09260305442524805 -0.15179940036084436
0.247 0.099965635731797 -0.14402144279670853 0.7259397050520986 -0.3086668477564344 0.7389268865371601 -0.31956979741861485 0.09061755404625807 -0.15340336609453725
0.248 0.10008194136082102 -0.14400529815334587 0.7310282347111674 -0.31132537223228857 0.7061221587893848 -0.30297409196620806 0.09275350402308534 -0.15230426511074582
