!Created with skrf (http://scikit-rf.org).
# GHz S RI R 50.0 
!freq ReS11 ImS11 ReS21 ImS21 ReS12 ImS12 ReS22 ImS22
0.13 0.09231415366741612 -0.1877205273108845 0.8261468729920766 -0.06515916450801433 0.8196578800032842 -0.032711417519959374 0.08802043653202599 -0.19318944357743972
0.131 0.09195712387700296 -0.1869629482141661 0.8249311194597446 -0.06143512037519563 0.8431353809762363 -0.04515133023284664 0.08895200409210884 -0.18722367250748329
0.132 0.08941599018794884 -0.18427656598544193 0.8284445326391802 -0.06652079368923869 0.8156486598499536 -0.035539407707832184 0.08716997600112988 -0.18803559626275276
0.133 0.08938035236046094 -0.18387730782410414 0.8266212854285986 -0.0717422210459086 0.8225413550273353 -0.010958296391031724 0.08419693710476507 -0.18628070227070623
0.134 0.08865047313314482 -0.18375219710165408 0.8237668351908781 -0.06991782625393013 0.8317503457154772 -0.05781189288410327 0.08730574579025381 -0.18718641041789208
0.135 0.08986746631729682 -0.1817400205711654 0.8303336522709818 -0.0804917525366572 0.8270162736007434 -0.061572151238406585 0.084856468212562 -0.18781898930811677
0.136 0.08820567677525086 -0.18357037156424566 0.8238160435328039 -0.08058403213701266 0.8267115218260074 -0.09579594018336997 0.09109023208468066 -0.18674768941811565
0.137 0.08744878995432886 -0.18100761505728427 0.8231699885679953 -0.08548740445015528 0.8528724089058018 -0.1251766691382347 0.08715504752523737 -0.1822977834081494
0.138 0.08657975134675144 -0.18011548763148463 0.8289608255660091 -0.08622941542261284 0.7578181128863803 -0.09311662198981652 0.08044092580217065 -0.18302140988414733
0.139 0.08768127206816609 -0.17884834404424335 0.8250772897807952 -0.08652563799080777 0.8612607390673098 -0.06831515329370078 0.08731394230392196 -0.18273302038453051
0.14 0.0860953903134096 -0.1774307202578501 0.8244166931682787 -0.08925674175958587 0.7817447823660834 -0.08497783873809538 0.08538951033575817 -0.18589717318100069
0.141 0.08586056799395143 -0.17629585111880203 0.8248265604714135 -0.09258129897407837 0.7580374514505674 -0.07858160036270061 0.08192640286958161 -0.17573075828592805
0.142 0.08558602056645558 -0.17720182565666254 0.8213935673428148 -0.09188212749107241 0.7941824254687306 -0.05126022724384458 0.08265103699066624 -0.17772302248903799
0.143 0.0850043627493234 -0.17530211904024148 0.8228024134913422 -0.0957522618787421 0.8506079408302247 -0.046555221480954756 0.08356324553473611 -0.1793080848350362
0.144 0.08544790513976507 -0.17441908674240886 0.822420671688809 -0.10280589220358825 0.796664534472657 -0.1212734131616975 0.07948643615416284 -0.17817060516857386
0.145 0.08352256639335026 -0.1737976769760807 0.8250147906086966 -0.09866565809247932 0.7799937373538783 -0.16221386806769905 0.07866718889944886 -0.17347901309110694
0.146 0.0849973966731501 -0.1736611505263241 0.8250259846321255 -0.10682399113723706 0.7934001504850166 -0.09134967442404346 0.08568660505000397 -0.1779416446327345
0.147 0.08584629140192661 -0.17331932861079263 0.8231064058210411 -0.10657069824509777 0.843353369935338 -0.0661676738005383 0.0820215800747058 -0.1748297509620883
0.148 0.08382138172465685 -0.17089032269041834 0.8228784441733572 -0.10813821553956778 0.8334415503883826 -0.11768093899424818 0.08471329827584897 -0.17773249756774862
0.149 0.08377789696181673 -0.17088353164651496 0.8202115302894444 -0.11643211605802416 0.8134502049119682 -0.11082438455505787 0.07853981100237807 -0.17266997904928766
0.15 0.08251446303476033 -0.17016874242398547 0.8195612926193863 -0.11941542610077147 0.848400782287941 -0.1335072408101756 0.07948636277185607 -0.17590897501565753
0.151 0.08356328671367899 -0.16907846692244496 0.8229673449912197 -0.11816155329963351 0.7475854132717905 -0.07241006659865631 0.07862908494846778 -0.17238796625716155
0.152 0.08258493785694758 -0.17002081388124943 0.8227676999593124 -0.119273735214245 0.8004407411224638 -0.09745864919393024 0.07855288587886085 -0.17366896962011352
0.153 0.08335848806419333 -0.16878909708338133 0.8296475384630893 -0.12316358031974975 0.8197008588399198 -0.1183861112807736 0.07524635199322453 -0.17153138447409053
0.154 0.0829071143494725 -0.16804583354138622 0.8190752197347799 -0.12080206862706207 0.8291086688943736 -0.12498156965018105 0.07629398078022152 -0.1766571186000797
0.155 0.0811488665023281 -0.16612926306168868 0.8240485039359559 -0.13269184578958462 0.7667690391569932 -0.11161692409705463 0.07809202768560043 -0.1703952147587114
0.156 0.08094583926723693 -0.16627356111693323 0.8223325615773853 -0.12213706533444947 0.8027775474819934 -0.15647215288472477 0.07494320192424513 -0.17162657341232215
0.157 0.08263079751440122 -0.16693544766481164 0.8175517912955003 -0.13000817391758604 0.8235086611068642 -0.11355860194246555 0.07705145000949186 -0.17266857536552777
0.158 0.08004166512260905 -0.16505036470771994 0.8255907492645544 -0.13984459594115375 0.8008006921555616 -0.14427075612697418 0.07761691773518543 -0.16930304321620995
0.159 0.07976176824411363 -0.1657703320665027 0.8194918441296253 -0.1385343169364928 0.8202375860328749 -0.1638741551909537 0.07435672221968939 -0.16777774241443208
0.16 0.0813262807596407 -0.16472689374540314 0.8239637498311648 -0.1381193894852632 0.7961411014381854 -0.1527553085700981 0.07652293631963354 -0.16745798141817791
0.161 0.08026040881744179 -0.16280793076159616 0.8213273870925701 -0.14071005748331578 0.8113242491619111 -0.1433655047991389 0.07363135711610526 -0.16934576491712297
0.162 0.07811891804033208 -0.16121983319842878 0.8201863616031518 -0.14330936389763393 0.8389414823543996 -0.13999482842268324 0.07703712121000168 -0.16755561892617438
0.163 0.07937177214711151 -0.16325819101055863 0.8216968215718731 -0.14889150186591366 0.825579720120619 -0.11497108949528524 0.07597445026726295 -0.16742154405184628
0.164 0.07799496390893243 -0.16094485395290034 0.8174827885943473 -0.1491824760214134 0.8526065504297458 -0.16468060528640616 0.07434622077629657 -0.16730764380796997
0.165 0.0790078407581877 -0.16269777975184663 0.8181620022218874 -0.15219770645762984 0.8185228050777786 -0.13955131333117923 0.07275186895898411 -0.16648917705760866
0.166 0.07949148490495611 -0.1596798558889346 0.8159692821822659 -0.1598601796824269 0.8318064972966942 -0.1730831909708861 0.071701920791959 -0.1640218262792985
0.167 0.07824676370534141 -0.1602703099433108 0.820242536279581 -0.15188616498766364 0.8016501757823581 -0.12684656196714064 0.0749272060998617 -0.16363381427872387
0.168 0.07911747972190063 -0.16197954372158269 0.8143054555547824 -0.16204835180220178 0.7890263659553045 -0.17792266848324256 0.07404724400599315 -0.16444655523211354
0.169 0.07830262225564773 -0.1586842856765009 0.8143553967721165 -0.1594976423459646 0.8333526133288801 -0.10736352996540989 0.07408883135223744 -0.16485786778725162
0.17 0.07667943989096743 -0.1603370457316842 0.8219146817528581 -0.16242636204629593 0.8419269562857734 -0.1490695817263058 0.07280103602871203 -0.16581959454276884
0.171 0.07682100183046293 -0.1592274893427282 0.8143351179092628 -0.16170806919350675 0.8568331046980622 -0.14762734175887826 0.07041350230337312 -0.16449352988808558
0.172 0.07614347577023292 -0.15883710272575471 0.8160400113599695 -0.16428011759302266 0.8287249377132282 -0.1750748888979826 0.0719911013014047 -0.1614516950433279
0.173 0.07808015083653312 -0.15754424560440666 0.816452804849524 -0.1670684867284588 0.8336017709495689 -0.19066254235307756 0.07503967479956831 -0.16362439537237614
0.174 0.07608001027606229 -0.1562262358222931 0.8092694560293369 -0.1768172303827905 0.7959236723839231 -0.220546857640147 0.07222311527475068 -0.15999253050122594
0.175 0.07618803482957144 -0.156726575518789 0.8138383014227657 -0.17479442705531992 0.8060010972622942 -0.1881700037863281 0.07036676322449746 -0.1580809772203569
0.176 0.07494635032576785 -0.15620888642346942 0.8120734819040661 -0.1776065282309422 0.8307118732251015 -0.16884033844833995 0.06998459949453426 -0.16264763740571508
0.177 0.07451784144464223 -0.1564084403240464 0.8108520213293249 -0.17517587796879236 0.8158409358905362 -0.16878426401049468 0.07177136171660459 -0.16194377750074723
0.178 0.07795118947586037 -0.1561033200126455 0.8150138085190675 -0.1812972245444736 0.7888868183105485 -0.21713699370040013 0.0667175654040036 -0.16060072625830057
0.179 0.07453797927133429 -0.15507368421179052 0.8112303891817925 -0.18770982485494278 0.8512512782471119 -0.17598018372806962 0.07398022447939052 -0.16388687735535362
0.18 0.07568389216798939 -0.15401747243195424 0.8108609610815618 -0.18614506669458952 0.8713690119224015 -0.19212826028075858 0.06761194906437543 -0.15805405818150078
0.181 0.07305500910318805 -0.15453094622322366 0.8093207229955625 -0.19264289057184852 0.8005029929690101 -0.15825387099815377 0.06673779066040819 -0.16201476207461088
0.182 0.0749013274491582 -0.15481565285672513 0.8072131467687981 -0.1902511431590516 0.8006942342688401 -0.2070261511318496 0.06868026768468494 -0.15852144881553878
0.183 0.07416450080274559 -0.15254602773906106 0.8092031626133168 -0.19424287194324338 0.8298762362382398 -0.17120812301411 0.06952817784081906 -0.15936873697869508
0.184 0.07267943453877458 -0.15319967071614723 0.8067710155509922 -0.1941396804898876 0.8146483637206419 -0.16935499345917973 0.0660712223572572 -0.1579137880644616
0.185 0.07218012305390975 -0.1526114287455178 0.8080310784465565 -0.19579630486546695 0.7930420419523635 -0.21447395826321905 0.070068329712969 -0.15761696640531306
0.186 0.07343654979110087 -0.15266660525481293 0.8063153856179223 -0.19761108843147346 0.8400847558317326 -0.1995057870102676 0.06908792500470852 -0.16055864979666934
0.187 0.07210948851673717 -0.15161806587391263 0.8055177132902333 -0.19994287003754177 0.811636590958861 -0.20475257772073796 0.0651921560850208 -0.15707850782149413
0.188 0.07255114014115627 -0.15192139398767956 0.8111295226934137 -0.202341337528784 0.8357217096718664 -0.17437832728828395 0.06686901620569613 -0.15376165955083945
0.189 0.07178826624121201 -0.1504044264504395 0.8102177885805738 -0.20421645592994722 0.8528174299830266 -0.1469054707120555 0.06783173125496594 -0.1570254112331984
0.19 0.07217105036174769 -0.15131741724006859 0.803250477159052 -0.21014061571330506 0.7909882825364419 -0.2088097564000428 0.06669927176271831 -0.15327480684714279
0.191 0.07186987047921682 -0.1499674915951028 0.8121472191667998 -0.20676357380454444 0.8122423163340713 -0.21282031806832533 0.06496773051504236 -0.15371316302229296
0.192 0.07048150861992536 -0.1497862909109889 0.8063251363443259 -0.20687813089731016 0.8041936914115886 -0.18726061781603534 0.06707699495300659 -0.1552540766001163
0.193 0.07054502331251868 -0.14953863146569835 0.8047608956091444 -0.21627845413824873 0.8418154479084121 -0.19913997039732217 0.06680888807218119 -0.15253910439826138
0.194 0.07048196202865033 -0.14869317863151313 0.8062703267387091 -0.21104256570231716 0.8085987911162084 -0.22544608536049204 0.06431108664840905 -0.1556415465166628
0.195 0.07004407893729411 -0.14964280749969475 0.8056015401802945 -0.21158806629997837 0.834084112752089 -0.17702498113110113 0.06371589540528388 -0.15107247728379153
0.196 0.07029268302046567 -0.14750142248668985 0.7997312791253315 -0.22297378432827225 0.8183855128607926 -0.21443409197864255 0.06716000652194945 -0.1549578447920634
0.197 0.06941122476625697 -0.1493655828027274 0.8003849366511023 -0.22546415190816652 0.8119958238797841 -0.2444868575018459 0.06554882006662999 -0.1514496129231213
0.198 0.07009561609905718 -0.14760620101648197 0.8045468510485858 -0.2223850210099679 0.7803386120063097 -0.24994924499889154 0.06179656629806284 -0.15285599290535345
0.199 0.06980827880286711 -0.14739666273540428 0.7992113822865288 -0.2233261953683537 0.8074424878111275 -0.2152072589129814 0.06524725835882439 -0.15313857093372096
0.2 0.06865416812582528 -0.1473865125514124 0.8004631178200886 -0.22524381735814528 0.7938662794833966 -0.2475286412250266 0.06579226668774102 -0.15332769688495254
0.201 0.06946700919295923 -0.14697911743472242 0.8009059483881013 -0.23178792651147193 0.7664646634922023 -0.20467588862918576 0.06619742261803224 -0.15218021603511803
0.202 0.06799610441957578 -0.1468467248903029 0.7999009326932476 -0.23003985366265098 0.8158729620630241 -0.21732606715138383 0.06564775481633478 -0.15008959194151528
0.203 0.06856843122580336 -0.14548913243435252 0.80097206548314 -0.2333006162764876 0.8089850406418405 -0.23066127207542694 0.06412645906522635 -0.15223485507614182
0.204 0.06766102213038953 -0.14443455257267018 0.7963992781406993 -0.23428264267163318 0.7955155836806829 -0.23506576794080372 0.06206075138169285 -0.14927704400003716
0.205 0.0669114787295284 -0.1446633870583652 0.7987699570376021 -0.2405125641229046 0.7880356452397035 -0.22620176223377425 0.0629166406458275 -0.1506639725733242
0.206 0.06783428667092424 -0.1449853551209725 0.7988099207418203 -0.2373073833466403 0.7890960222848524 -0.23820081242809246 0.06217930580226141 -0.15088285425172834
0.207 0.06784981656862728 -0.144121545287863 0.7971008542578785 -0.24428553075207332 0.79118856960407 -0.225727949263174 0.05923656130258899 -0.14828572396958398
0.208 0.06695715235001684 -0.14372041460027227 0.7929313163606491 -0.24107827154972958 0.7598825028103072 -0.22860543375696146 0.060576978283864394 -0.15017337248130327
0.209 0.06734060942959796 -0.1448165990738389 0.7960764935909043 -0.2436608646073572 0.8138232576008656 -0.2747522656424701 0.06242097288571064 -0.1496304872101982
0.21 0.06741965637440735 -0.1415119495357357 0.7943675347686034 -0.24849121941900618 0.8070063083040355 -0.2414680629838457 0.06103918295230025 -0.15058804889067165
0.211 0.06623140488748235 -0.1448804922086323 0.7942436793071527 -0.25361600134212475 0.8086597189855468 -0.24244469977424826 0.06281802326163198 -0.14959213946239489
0.212 0.06669914229558904 -0.14268920977949232 0.7983868034044587 -0.24853639863470206 0.8128294217279224 -0.2439368158755059 0.06345754645548644 -0.14931378582680746
0.213 0.06629268500464751 -0.14276202405133512 0.7952121543162175 -0.25121619175159177 0.7948043226753537 -0.24538623807594598 0.0598810731564162 -0.14610050088969476
0.214 0.06535740974024158 -0.14265472843275617 0.7968999421594064 -0.25127186878180213 0.8092867959777773 -0.29396225885192184 0.06332959755988538 -0.15017897486630916
0.215 0.06598493218565273 -0.1436875715204429 0.7932745679232595 -0.2525162417604336 0.8011978387322974 -0.27619148284267764 0.06261818193403539 -0.14720280526392154
0.216 0.06515132127914276 -0.14176876425499454 0.7915107593508607 -0.258879271365247 0.7954085326355252 -0.24377938538503052 0.06253583394167599 -0.14677509296767777
0.217 0.06569167746351663 -0.14091578873188054 0.7898374089473197 -0.2669720271181185 0.7978807535796583 -0.22999238317582998 0.061294676866066815 -0.14791353011394737
0.218 0.06489806432774678 -0.14022992547676114 0.7928641879393745 -0.2615950293625278 0.7970208427210781 -0.24514990126918917 0.06322377722234798 -0.1477781373446439
0.219 0.06478407292918735 -0.14214042631316204 0.7928714260673466 -0.2645040903343672 0.8026524781382318 -0.2719014448858377 0.06152870847977441 -0.14738095224155426
0.22 0.06474983330668839 -0.14152030788873998 0.7898099557878395 -0.26194720896134044 0.8158037807370438 -0.2647802332647121 0.06080068456791825 -0.1476823193294912
0.221 0.0641529966328125 -0.1396263536233425 0.7933281608438882 -0.2697716417817534 0.8103698659862197 -0.2913809125702489 0.06100889256614062 -0.14654493449672276
0.222 0.0651319762792236 -0.14039162193073598 0.7857416434062378 -0.2690105889562251 0.7986024622835354 -0.29125772277594997 0.059873205537464516 -0.14513838031202705
0.223 0.06527188789622863 -0.1407320882590496 0.7888983088841097 -0.27392136875120393 0.7617409003837661 -0.261876046861981 0.05875849671321782 -0.14608685157987947
0.224 0.06351552588713745 -0.13836244172725004 0.7891504624589661 -0.274601844965335 0.7966000996913382 -0.2745185800959423 0.0593415233683615 -0.14481053661279972
0.225 0.06456183292117122 -0.13853337939383678 0.7901510224375267 -0.28245396703997006 0.7781184437564086 -0.29362378955728413 0.060145776068485673 -0.14441427986357375
0.226 0.06487179805870832 -0.1384874326214233 0.7854978075457073 -0.2746764768629996 0.7742397945426815 -0.2723547084005445 0.06068335014822344 -0.14438815467077773
0.227 0.06325991645059356 -0.13907468087485522 0.7870166872754091 -0.28169632400265515 0.7915952522249627 -0.28770362354837026 0.06124639104552155 -0.1453712243896968
0.228 0.06320088306876473 -0.13860239630641386 0.7874110997711603 -0.2825538417875844 0.8046511180020077 -0.26701661238007934 0.057725524760290164 -0.14713135935516544
0.229 0.06295860564887025 -0.13828218711733192 0.7788278396790198 -0.28488575931677895 0.7922300015912039 -0.2890452463360545 0.058580448834065116 -0.14505931988092202
0.23 0.06305421986167822 -0.13799021150776775 0.7824434010626793 -0.28935487965401785 0.7823024311653568 -0.2978658599249037 0.058500136889239225 -0.1420583174947348
0.231 0.062357125812234925 -0.13599654965164862 0.7796152318950917 -0.28120696268912365 0.7795673779342097 -0.28145718182771895 0.05692752786992357 -0.14430173668536406
0.232 0.061848559547890244 -0.13697532162733816 0.7840745585719622 -0.28740655205454707 0.7804080106399879 -0.29381571810817536 0.06202747187480789 -0.1449450317693701
0.233 0.06197279151206263 -0.1351674621643769 0.7806061016382807 -0.293036083327213 0.7905680207191775 -0.3047134592378836 0.05918222117054694 -0.14553810027700528
0.234 0.061994395869086526 -0.13719158689361236 0.7824021377943454 -0.28896415179860485 0.7869859506150316 -0.30751132138844456 0.05693562057428173 -0.14332361010938585
0.235 0.062186791722783866 -0.13642668622864235 0.7806152285538766 -0.29051561526789504 0.8006761776171928 -0.2952162624382482 0.05976048881689299 -0.14335409608308725
0.236 0.061843724533080596 -0.13552221858289915 0.7764741201164602 -0.29683714933577965 0.7839866558106239 -0.3053270910569385 0.055820962527776706 -0.14132995420701266
0.237 0.06142379811282002 -0.135568846965226 0.7748185756760617 -0.30000333169634524 0.7845580858286556 -0.3120521149863639 0.0576791510075759 -0.14239508790577565
0.238 0.061845899674951556 -0.13542586198547232 0.7800685356858211 -0.29869002147660023 0.7508448856441722 -0.2966134336010441 0.05963887335958994 -0.14145906637027011
0.239 0.06111298913390812 -0.1361411189155188 0.7782015058481597 -0.3033580268244175 0.7626964359398933 -0.30214240037315926 0.058794551060231764 -0.1412529857845596
0.24 0.060203652217084555 -0.13554153030949895 0.774767617421892 -0.29956863129675426 0.7773284831175133 -0.30215627712368887 0.05798318000258569 -0.14153819937826798
0.241 0.06031986634341298 -0.13476405676851394 0.7690705202166088 -0.30279846816998085 0.7829959413006843 -0.2921891274265791 0.05899506530679465 -0.14206328824202344
0.242 0.06143879112073017 -0.13480244759411122 0.7723994605310232 -0.3039700176050756 0.774147878984841 -0.3306061725582434 0.05707353019122625 -0.14214456026906938
0.243 0.060836147523653364 -0.13389013447439302 0.7728230566889606 -0.30745438427041544 0.7723745987394184 -0.31375544567475977 0.05524580397786391 -0.13943721272107998
0.244 0.061006599574599085 -0.1353860096787966 0.773509587262255 -0.31296766299848944 0.7633557767586531 -0.3119161987284453 0.055059356307606715 -0.1422265341100798
0.245 0.06015158144353887 -0.13370711229542315 0.774654365059167 -0.3189611408491377 0.7708322177294967 -0.3283324487687448 0.05650210659607266 -0.13863990553487684
0.246 0.0616717138580416 -0.13473341716026632 0.7688266687712421 -0.31418120573571157 0.786676943355157 -0.32223326135011215 0.055975241246349915 -0.14040689281094249
0.247 0.060278654340887486 -0.1342207247434886 0.7680166010710126 -0.32043906607993056 0.7706084276645297 -0.3108680687393854 0.05390372745091929 -0.14188462319549255
0.248 0.05992737543316911 -0.13252190299524816 0.7716943671345675 -0.32477274793255967 0.7742999433203811 -0.32845264174462746 0.05394372169837767 -0.13830731884691946
