!Created with skrf (http://scikit-rf.org).
# GHz S RI R 50.0 
!freq ReS11 ImS11 ReS21 ImS21 ReS12 ImS12 ReS22 ImS22
0.13 0.07586817792762188 -0.18723800784599487 0.8486400765285722 -0.0627445030162255 0.8656658374223754 -0.042194281435297895 0.07352076520652794 -0.19225444573261247
0.131 0.07628934900157353 -0.1890450044678483 0.8437965019633925 -0.06364575573257662 0.8615759257663316 -0.1064475858331673 0.07882728953076089 -0.1909035578400439
0.132 0.07558977651788458 -0.186594109266487 0.8476776182971935 -0.06257249160397799 0.9098124989372197 -0.08107465379983046 0.07246737764718982 -0.1872725458280874
0.133 0.07355011553414297 -0.18553234791272843 0.8396826916713374 -0.07225098150732107 0.8316203824669763 -0.0610191044830277 0.0711024876984589 -0.18709702998036062
0.134 0.07377357232187737 -0.18573129112188128 0.8410863263701178 -0.07032353604539092 0.84286910888827 -0.058032016836809745 0.06993224886646357 -0.18857639797096962
0.135 0.07390337898128335 -0.1831299064479068 0.8430841912721042 -0.07695781693443432 0.8308276183834138 -0.09360432971419941 0.0701590290654265 -0.18711552016839963
0.136 0.07192975525776923 -0.18441315022629606 0.8373662201301744 -0.07565207677162436 0.8370194529580725 -0.0655446255749686 0.07167970422189987 -0.18769228918928105
0.137 0.07271613476269581 -0.18209099894183817 0.8357257530855439 -0.08301295787204124 0.8415800551953195 -0.08435773947629954 0.07138256218405054 -0.18073792630621074
0.138 0.07199977020069799 -0.18134010899380912 0.840043105172853 -0.0857552403833472 0.8884052923753328 -0.10517408263056477 0.06860443275845564 -0.18349139869109218
0.139 0.0717172605446971 -0.1813444827043148 0.8415908684767993 -0.08763283121668324 0.887746133172943 -0.1356147038771255 0.07213750185001072 -0.18649894084024515
0.14 0.07017466888357095 -0.17856535011064692 0.8406995302867705 -0.08820661025114913 0.7658093940483494 -0.04573209298334072 0.06830951296630404 -0.1855846542403175
0.141 0.07009199778137892 -0.1773320558240355 0.8429357840209524 -0.09025188971394055 0.7910448646663403 -0.07692314658979414 0.0674638741660619 -0.1783985460282261
0.142 0.0699444093803425 -0.17915007148518716 0.834617270408145 -0.0930408446464416 0.8389283477636348 -0.10136958789062396 0.0665187362431102 -0.18020361144086838
0.143 0.06872051681418978 -0.17641777826075422 0.8404357149510963 -0.09561213897696376 0.8523410354983658 -0.10584592068557137 0.06494890800724372 -0.17688702541404325
0.144 0.07008696822780468 -0.17578928700155808 0.8379913670683363 -0.10288018142335398 0.8271147206078002 -0.06780272886519287 0.06406671111469743 -0.17830880288094209
0.145 0.06760237425331024 -0.1748764696075827 0.839493866384959 -0.10007064268996667 0.7727441246698952 -0.14241500857387324 0.06214003332089128 -0.17498992282681106
0.146 0.06984241808667445 -0.17424243640852 0.8404236350416013 -0.10484084531897138 0.8126319268809247 -0.10378950498122819 0.0685802586026623 -0.17657471374146896
0.147 0.06945278787459627 -0.17371921544717325 0.8384157858831526 -0.10431906091238258 0.8143711204057033 -0.10639572657165818 0.0671151122355694 -0.17550522520288098
0.148 0.06821357586725711 -0.17184857490243438 0.8402866435628218 -0.10693457311659704 0.8330249143261989 -0.11553663795196031 0.06872716647523984 -0.1763313606090727
0.149 0.06741345193976729 -0.17134135247181348 0.837251352765353 -0.11523194811074204 0.8652309900093048 -0.08203910169425273 0.06199511495659969 -0.17023715108428597
0.15 0.0671226012314509 -0.1704804821082321 0.8373493519856819 -0.11854123640968751 0.8561798447572554 -0.11227105656325755 0.06449883731026793 -0.1746129185960755
0.151 0.06681929355886063 -0.1698449927056959 0.837892982220604 -0.11659087390155118 0.8600740752766969 -0.07886845727662792 0.06501880700257244 -0.1726679269123989
0.152 0.06686474272880558 -0.17013044913509207 0.8393097984520447 -0.11751399385224395 0.8565860632935269 -0.1191246351222135 0.06177110367662329 -0.1767120596381334
0.153 0.06608856420366921 -0.1689181117452711 0.8424609392192801 -0.12312473975496177 0.8533781691782414 -0.15835505410202316 0.059447292005050244 -0.16856178738493807
0.154 0.06682185165014604 -0.16792776554478886 0.8353262265313631 -0.12136029096299641 0.8116231547991768 -0.11661778614995769 0.061265841817540696 -0.17653945342260643
0.155 0.06553782497891998 -0.16624925481586553 0.8391220620064401 -0.13400905134971838 0.7801652602635311 -0.11937680376624399 0.06326097360086408 -0.17215359327526789
0.156 0.06541388142127605 -0.16600042103251633 0.8324631786953937 -0.1265976686345874 0.8098734581259861 -0.13500619704535644 0.059723168235795814 -0.17240882899124835
0.157 0.06472352454602939 -0.1679139996178724 0.8308445546385005 -0.13032231328030183 0.8847643457901154 -0.11981879007297243 0.05970528118943326 -0.17292816105693845
0.158 0.06475535391154683 -0.16430791587809446 0.8425038808917128 -0.1347574663513821 0.8355713129705173 -0.17564010911160577 0.05961590270979532 -0.16851028676422067
0.159 0.06391091071901116 -0.16699453877813097 0.8346281950994437 -0.13504807659814172 0.8244486781995093 -0.1711700149714946 0.058920617170739924 -0.16680765813029885
0.16 0.06523314092714275 -0.16569235457369808 0.8338244018557963 -0.14046208128778662 0.8542831505758065 -0.12422648875123399 0.06331904803700951 -0.16688625973423046
0.161 0.06476778697180012 -0.1633791750398901 0.836447258101752 -0.14217623819651995 0.8302076488688603 -0.1383506861222654 0.05959417527564305 -0.16733112250830143
0.162 0.061482533723212815 -0.162200136476696 0.8336831742669198 -0.1456903342033514 0.860755126653856 -0.16189485422819294 0.06094385864169553 -0.16647183933263388
0.163 0.0632118102043584 -0.16377689475502621 0.8370054409782407 -0.14499868617470899 0.8556759617395684 -0.14546291836818384 0.057860446417825326 -0.16795808819207045
0.164 0.061804765486433245 -0.1620801683014155 0.8293575098790847 -0.14750570066019236 0.854821555207312 -0.16030876020091503 0.05793872157266448 -0.16664514004022152
0.165 0.06282999542747221 -0.16159993553319965 0.8356270668305839 -0.14675343109537484 0.8411855032300671 -0.1408664386465473 0.05785080135600826 -0.16661199461674245
0.166 0.06262930385278734 -0.16145702200921833 0.8312741422350406 -0.16078789662000847 0.8446310376954894 -0.15393969484609185 0.05652176492774272 -0.16337113802184916
0.167 0.062113710584566474 -0.15881665515617283 0.8327905954253714 -0.15170552033225054 0.8344382916734648 -0.16894647486199688 0.05916110800258662 -0.16298941689488788
0.168 0.062062163523441245 -0.161473264556033 0.832663813816969 -0.15916689531973163 0.8412693357909077 -0.1691973409581045 0.05716188874827184 -0.16302150473977317
0.169 0.06242448966956108 -0.15798763487809603 0.8295867385863406 -0.1649873179394334 0.8460549278089925 -0.11534727916705818 0.057941327330672934 -0.16553910092310858
0.17 0.06097548590036087 -0.15880317503969998 0.8348614373799673 -0.1622028275008612 0.8920866593061388 -0.15256282471336569 0.057180183765236765 -0.16603169071093507
0.171 0.06079038538816614 -0.15608991540186629 0.8324917513426707 -0.16627427251537719 0.8856235022369358 -0.15126452793072334 0.05388356967302767 -0.16019065543018823
0.172 0.059873535318993455 -0.15774861374414434 0.8294502096053953 -0.16605089217024416 0.8723355607017685 -0.1873411736872014 0.0564482968181487 -0.15979925279864052
0.173 0.06097648647359359 -0.15812862018145193 0.8314657770014058 -0.1711252299054039 0.802075047236014 -0.21128940996688414 0.05931920594268211 -0.16325548668688528
0.174 0.060377787959965776 -0.15599802397257823 0.8282752798875077 -0.17489105727118986 0.8237151936822759 -0.18114681772437394 0.05547841740907693 -0.16178014899968612
0.175 0.06053553630995126 -0.15668164770379922 0.8273174243085147 -0.17908989619983615 0.8438496955717416 -0.1991443437212352 0.05499554652418736 -0.15923801852399871
0.176 0.060093162568892466 -0.15624888378779872 0.8269105769180943 -0.1783992829870403 0.8668547623242048 -0.17019433720424362 0.05547847639229799 -0.1606930613456039
0.177 0.05872960257330726 -0.1558407704269234 0.8222683330344079 -0.17910010712031374 0.8472286587722015 -0.1667680986392879 0.05575576025927913 -0.16024860703175006
0.178 0.061002359442122116 -0.15457366777581358 0.8308050894212907 -0.18335604327725918 0.831156877458401 -0.2077844055946991 0.05084047150656328 -0.15916204879506562
0.179 0.058191978113852245 -0.1537217150509929 0.8258516841493737 -0.18864320091191666 0.8492031529003491 -0.15215602890666496 0.0574959697565458 -0.16116434504324892
0.18 0.0595724129145936 -0.1534133609859398 0.8255991039066953 -0.1889594026616087 0.8509954003164955 -0.21009952539762763 0.05338823151481738 -0.15635862235460238
0.181 0.05814816063537045 -0.15333900630638103 0.8259173043317409 -0.19101521707333388 0.8049682707044118 -0.19100747464995257 0.05261155186216319 -0.1584347760260629
0.182 0.05906478955565694 -0.15378163249069823 0.8230819056261602 -0.19082178014670684 0.8217870022803985 -0.21514114958942343 0.05437077613582671 -0.15603940864098872
0.183 0.05778571919851978 -0.1508656841735925 0.8248485858732492 -0.19621325447097435 0.8406059100446419 -0.19591386297492797 0.055433753303005456 -0.15741042309409922
0.184 0.05724781659760419 -0.15250772690711237 0.8230504954998537 -0.1945050307950626 0.8282758217631765 -0.17964518396039106 0.05061747196374039 -0.15324334806317352
0.185 0.05639479179435889 -0.15122216476671138 0.8203912869100051 -0.1950068606727059 0.8437378887808665 -0.1887351595805997 0.05437372960362192 -0.15372207630304496
0.186 0.05686621242955202 -0.1512778882407041 0.821702928407419 -0.1996686403656996 0.8587788441371932 -0.20993250741911917 0.05412940452480424 -0.1572793143967283
0.187 0.055996254272635534 -0.15018889072490574 0.8219971977532037 -0.19872154902829062 0.8257099445530696 -0.1985871833564108 0.050528801829722636 -0.15383180431570675
0.188 0.05642179037692801 -0.15098125277812496 0.8269844645715578 -0.20307694948946378 0.8323953394888165 -0.19855291590767848 0.053694456401020274 -0.15384440246651299
0.189 0.056025401860520074 -0.14901619288136597 0.8239075914562332 -0.20738022744356055 0.8553185963082752 -0.15557827190230625 0.05145341587394103 -0.15484365306320513
0.19 0.056625116074557606 -0.14971736810013564 0.8197428803741098 -0.21134020202029516 0.8247888625023708 -0.21481095231891714 0.05073912251513718 -0.15113467193848593
0.191 0.05546945594514801 -0.14769173558395193 0.8233665273999797 -0.2118877688720326 0.8180598531492647 -0.19688567582188016 0.04913785090386929 -0.15242659688748147
0.192 0.053860465523879485 -0.1480793174444359 0.8268326515654274 -0.20862042773778422 0.8074816248023226 -0.18716216592226517 0.05226254020090188 -0.15437685767344075
0.193 0.05444911726404767 -0.14810855903552042 0.8171514269397354 -0.21886900532581724 0.8426023028248254 -0.18236213348780866 0.051815555320113255 -0.14962041648510332
0.194 0.05474895879329639 -0.14682969184864525 0.82214256521096 -0.2157428061537986 0.8378142451389432 -0.2160815636647491 0.050254042340012205 -0.15463910977355072
0.195 0.05377262923186502 -0.14756390816565793 0.818336007733428 -0.2181194082198901 0.8533416408333087 -0.18392644886159543 0.04925909923462545 -0.14837056325371065
0.196 0.053307645362774776 -0.14578086329614104 0.820703290180135 -0.21975590747226642 0.8099707401992029 -0.200556661079981 0.052758642798298366 -0.15089501024658195
0.197 0.053293503998833515 -0.14629091626024265 0.8178296435703212 -0.22098775698316878 0.8225510967001808 -0.2235865963518734 0.0501965779615684 -0.15103573990716784
0.198 0.05345617105605115 -0.14543982684526574 0.8172618642201845 -0.22293052654025777 0.8080459829800609 -0.2054126998246252 0.047344580172200154 -0.14967185500768546
0.199 0.05421530614032504 -0.1454777256538106 0.8132897961171672 -0.23036054063531541 0.8194326593045949 -0.22067326389777714 0.049987180098594264 -0.15049965445704194
0.2 0.05255773432565201 -0.14510354962130595 0.8176134267027446 -0.22938513288012077 0.803057691585191 -0.23294229978478762 0.04832537443784359 -0.14970402087463358
0.201 0.053169818627898574 -0.1451301657573977 0.8178347182444387 -0.23254400103298012 0.7848847189630839 -0.2277550891363838 0.04989044920540293 -0.1494941868209191
0.202 0.05199795492500833 -0.14420960957608017 0.816364638598368 -0.2299521205924048 0.8303846927289108 -0.20979176873789798 0.04984394347881545 -0.14704350953101555
0.203 0.05201519282229536 -0.1428575965334875 0.8123684952415777 -0.23147149644104154 0.8152587596211955 -0.21892773728365672 0.04865369376537997 -0.1481645468032844
0.204 0.05286040940701253 -0.14262331914671897 0.8151193569597007 -0.23670255590513384 0.8422900012395182 -0.2116098224156082 0.04840769761568573 -0.14537123643675967
0.205 0.051039365655316894 -0.1429546921488648 0.8157779943264941 -0.2375537596751534 0.8042990489705842 -0.2194179123325703 0.04856255781502712 -0.14815021648285753
0.206 0.05166834172424171 -0.14174968609510466 0.8134686610118097 -0.24627900252901247 0.7909789674691413 -0.23581744187552597 0.04698186102260912 -0.1472612937843707
0.207 0.0504959177220295 -0.1423245378859998 0.8138036509518727 -0.24469370779128347 0.783810515058184 -0.24773457877656826 0.04659417700055692 -0.14393993512482922
0.208 0.05130206782116489 -0.14173243854173048 0.8109212083778503 -0.24790070939156972 0.7771621428200621 -0.2295507895068273 0.04756399507789189 -0.14571255818541165
0.209 0.051280836139491526 -0.1418571837515461 0.8129692123626928 -0.24331875108169437 0.8159577055197904 -0.27276463201088397 0.047478974356187365 -0.14680279539955812
0.21 0.05161736802195281 -0.14028733417389044 0.8093068587820889 -0.2557177925410473 0.7879267341974389 -0.232545186747995 0.0473001566762853 -0.14672566882912808
0.211 0.04995695907774485 -0.142211306913095 0.8084527416064808 -0.25373313005617854 0.818909551619439 -0.25925370307330675 0.046668221176773106 -0.14583053449652486
0.212 0.04997711757710346 -0.14083117477212723 0.8126636112779214 -0.2505110813313145 0.82517075088494 -0.24103009723754368 0.04564530161079776 -0.14643516428148823
0.213 0.050268090917707536 -0.14049590316021976 0.8088113282541445 -0.255232035572625 0.8056284511122334 -0.2722562482891261 0.045793066718689254 -0.14256700073563602
0.214 0.04937908091350766 -0.13975137894202128 0.8100727328166603 -0.2557835353726214 0.8311507428885156 -0.29848839462832766 0.048748433089193736 -0.14635458238227111
0.215 0.05013805882601559 -0.13996215863070285 0.8068928213617739 -0.2584226109817521 0.8054047261114271 -0.25873374829222323 0.04703850127620754 -0.14563269594851005
0.216 0.05003553656005073 -0.13869508180970755 0.8058858705815469 -0.2598964602417635 0.794591967294094 -0.2594125043995515 0.04765200544028661 -0.14233763918327094
0.217 0.04891080683791008 -0.1379904606247663 0.8056035591547512 -0.2696825946735498 0.8103035110970533 -0.2362727952242693 0.046878055591793484 -0.14442219931383135
0.218 0.049125791972650205 -0.137859910872174 0.8068888448389242 -0.26663900541362834 0.8134736981839535 -0.26164692327300093 0.04895118927623181 -0.14376598100162163
0.219 0.04951203511422112 -0.1391921902979497 0.8094423653083831 -0.26844237405408605 0.7814030249169791 -0.25637313254935334 0.04794995815428505 -0.14089628650056785
0.22 0.047720845713878475 -0.1392912362340718 0.804290718814405 -0.2649763923230373 0.8142112885118882 -0.31068440438485606 0.04451294488016048 -0.14410882229815775
0.221 0.04846353483654986 -0.13695037917785527 0.8102317525794426 -0.27364802779077696 0.797139729869563 -0.28987956959923294 0.047148846492431895 -0.1426525883328531
0.222 0.048553071293412166 -0.13737552558655075 0.8015299305628881 -0.273713775079806 0.81568821737648 -0.2850949877526496 0.046294060270418 -0.14110251459614154
0.223 0.04854236129825507 -0.13724195756361734 0.8028926244697573 -0.2763620296786461 0.7791106680426554 -0.27893842159316046 0.042911186693500164 -0.14203817399996702
0.224 0.048007875523745976 -0.13575553764084006 0.8051560713870884 -0.27663763910022304 0.8022271416436401 -0.2565200252677492 0.0448112941093953 -0.14186680028154952
0.225 0.0478674376173648 -0.13476586945505312 0.8055798064373467 -0.28558832230215636 0.7948921053200365 -0.2784952034649834 0.04667024732023294 -0.14061769662875595
0.226 0.0490976852455901 -0.13476658489813068 0.8013737018821852 -0.27659184603195347 0.7823616567068737 -0.28193045032381403 0.04483333125788458 -0.14215308075201896
0.227 0.047768950165720435 -0.13635780574199247 0.801078084532552 -0.28351992008400106 0.7888851800384267 -0.2775457294827614 0.0454010450990023 -0.14099602613813797
0.228 0.047794640650085755 -0.13497826620689196 0.7965743698520253 -0.28536893938408125 0.801897990335876 -0.26510976417818355 0.04302456470102637 -0.1421156557921908
0.229 0.046611567589491594 -0.13481819315229657 0.7984275572583965 -0.2839554269196577 0.8262548759112852 -0.27546103870352584 0.043701794937638004 -0.1415140663959065
0.23 0.04737887481175567 -0.13414963362912483 0.7999252351167503 -0.29265674579466844 0.7928357733922564 -0.30289158146897144 0.042960097660309254 -0.13797490195366766
0.231 0.046009534182899416 -0.13232578536011558 0.8019303747499619 -0.2851610615867234 0.7765104596888187 -0.2899097909543944 0.044746185454423444 -0.1396521007408328
0.232 0.04641205976224599 -0.13359368479604022 0.7968359283765156 -0.2888053079775746 0.7887953395304046 -0.2917534129354057 0.04537153424786325 -0.1403205944437777
0.233 0.04675022039437785 -0.13190238133599838 0.7946008939743086 -0.2961771747021952 0.8018051781310209 -0.30357678925518 0.04492537383863494 -0.13941898031368766
0.234 0.04660198776430254 -0.13314275637441153 0.7951925270269591 -0.2945329075133258 0.7926963688517876 -0.29634483831530695 0.04318205275211784 -0.13916990624066536
0.235 0.04686595808156679 -0.13303086266354927 0.7952842350525575 -0.30024894570490196 0.8129527921351918 -0.2989510474667002 0.043729700773249926 -0.13951644947650893
0.236 0.04603278175364291 -0.13234605386907444 0.794776497033309 -0.30162666814977934 0.8002262434346582 -0.2923266761634142 0.04234878370013457 -0.13757703962235457
0.237 0.0452276540256552 -0.1316763469652323 0.7909973972169866 -0.29874446626473583 0.812558050523496 -0.3145015953774276 0.04320113182373564 -0.1376448459016402
0.238 0.04549770441813989 -0.13194001329610533 0.793719414772955 -0.30129400859512767 0.7842315374917116 -0.3050558729109974 0.045119215243201 -0.13710007859588796
0.239 0.04516052591536165 -0.13240470751070588 0.7944198327005908 -0.307082999493032 0.7788543618542397 -0.29442597786729124 0.0436895786896294 -0.13784905950362364
0.24 0.04481949390869953 -0.13146885887255574 0.7885401691759071 -0.3045256196567141 0.8130437489049358 -0.29871536503387713 0.04186155613929561 -0.1363664202294378
0.241 0.0446564780926322 -0.1304215918543269 0.7873522269858199 -0.3101157846901696 0.771647869280731 -0.31320663003058774 0.044363505629791224 -0.13881374593203935
0.242 0.04545859709780288 -0.13083749931932886 0.7860791006358123 -0.3116081828776165 0.7870693354343914 -0.29822474163040025 0.04189303894143437 -0.1371767574900839
0.243 0.04501336782370436 -0.12958237440367715 0.7923686923958397 -0.31284173160414014 0.7860422049014505 -0.3215917881295314 0.03995332384715439 -0.13516259289013513
0.244 0.04515943317311413 -0.13156844995776493 0.7904992532793418 -0.3168097666852341 0.7645730681113704 -0.3003823781452599 0.04115649523172263 -0.1377126641324884
0.245 0.04480909805880594 -0.12865783556693744 0.7894454724941384 -0.3183855760099045 0.7693165045172525 -0.349671839749067 0.04186817826854735 -0.1336062064836267
0.246 0.04459300323278696 -0.130910777271317 0.7832597107940843 -0.3209400288016534 0.7753733507240426 -0.3363179957848693 0.04109900476510588 -0.13631632259392035
0.247 0.044230671492155114 -0.1297948772601548 0.7815357472620084 -0.32629137692158805 0.8004231032523673 -0.32954338458795407 0.039927433823856474 -0.1373339843779292
0.248 0.044540174590214275 -0.12851980624104264 0.7853417737776812 -0.3266766231252612 0.77755102409005 -0.3324205153532294 0.039510494407708846 -0.13348684484444043
