!Created with skrf (http://scikit-rf.org).
# GHz S RI R 50.0 
!freq ReS11 ImS11 ReS21 ImS21 ReS12 ImS12 ReS22 ImS22
0.13 0.0693066038794322 -0.19030372305913673 0.8482397664996529 -0.06116737257187224 0.8210600945974303 -0.0325863756400249 0.06928278824429109 -0.19301834570672743
0.131 0.06940464867859597 -0.18860826735639274 0.8510134145198346 -0.059915261795054665 0.8486584469083371 -0.09369696694298399 0.07202094784255884 -0.18815952425454285
0.132 0.0685349222838857 -0.18709112636616412 0.8512427254022527 -0.06117282887269652 0.8708121903629792 -0.02202705811064777 0.06554351982052481 -0.18714762010178984
0.133 0.0679422150097515 -0.18670001916587442 0.8502468188447853 -0.07037936008870158 0.8772452822619269 -0.04994393289016517 0.06448602115547142 -0.18904222321714345
0.134 0.06651971410479847 -0.18658923884470036 0.8464191628383269 -0.06776746928074878 0.8181867223426149 -0.07254657921133106 0.06467943659665576 -0.1864371956087954
0.135 0.06738318635872943 -0.1837649230977856 0.8499490466242846 -0.07335693533509187 0.8639592459742584 -0.07452183420780659 0.06406840477514218 -0.18670962540787528
0.136 0.06474780530798582 -0.18514372772971777 0.8415726133616325 -0.07664961583790392 0.8180242306975024 -0.011020730981537594 0.06390988068035881 -0.18779523352434963
0.137 0.0665355285784683 -0.18283632490030932 0.8432302767213307 -0.07869184414651217 0.9217997380152733 -0.12029510100124137 0.064566342041375 -0.18206215895854552
0.138 0.06423736886853297 -0.18158635224598793 0.8434478668912009 -0.08691445447043959 0.8331950055908287 -0.07679090750761566 0.062289544850392446 -0.18480959164967609
0.139 0.06542504140720026 -0.1813161623738605 0.8465323094590336 -0.08910167554595715 0.9339762548386932 -0.12763925789019673 0.06875916267486379 -0.1890528825485743
0.14 0.06403904665018528 -0.17979436341917773 0.8466663754601775 -0.08831249125708643 0.8632619942855909 -0.07241624253221461 0.06351966703434654 -0.1849478184068
0.141 0.06274671447292166 -0.1782119285365163 0.8471876296712518 -0.08758934302373289 0.7717289010794948 -0.06392254670962151 0.061780851431459845 -0.17840166510368258
0.142 0.06320307806268165 -0.17871085611533208 0.8444457876052728 -0.0920064781354519 0.8502554202277213 -0.051220169556350045 0.061976364515870665 -0.17901197556176177
0.143 0.06216690140747528 -0.1768914042668248 0.8429504759550138 -0.09569766513294424 0.8578100448891522 -0.07501676006768168 0.06020906891287052 -0.1799352766079287
0.144 0.0628060851013908 -0.17592595999651534 0.8449911025610322 -0.10226107065929836 0.8426352231510201 -0.11070751058719981 0.0585062163163257 -0.17469062926698448
0.145 0.061123219807249385 -0.17465812870685773 0.845844970644822 -0.10331145832338216 0.8068831906744752 -0.10201996396633879 0.0565549763022847 -0.17476588721684985
0.146 0.06235773771981797 -0.1747061483179148 0.8462777809759529 -0.10590850356092045 0.840812972505911 -0.08756495477769502 0.06049649789708811 -0.17892400362817293
0.147 0.06278680966749911 -0.1741397723980842 0.8459362008706033 -0.10655404651108578 0.8356831664545977 -0.041547368814053416 0.06372203778172872 -0.17382499937392848
0.148 0.062213615796196456 -0.17094051230500712 0.8457690794729219 -0.10721817494743503 0.8594385251020409 -0.08581316979844737 0.06343586874680378 -0.17816853881827596
0.149 0.06121794495700729 -0.17149619837884272 0.8449611626695449 -0.11475317981716314 0.8768813209131577 -0.07492767607221604 0.05568466261407569 -0.1685492060110729
0.15 0.06045933339805589 -0.1709191678196737 0.8455372475235647 -0.11781388844990126 0.8941704743165967 -0.09083652822983795 0.057448103110904855 -0.176403686647725
0.151 0.060234679055822485 -0.17040394071666512 0.8431865407021188 -0.11612902139514414 0.8675452991634769 -0.11985848151976784 0.058100297977364546 -0.1735875322893655
0.152 0.05984402021569688 -0.17052115284879735 0.844336329298036 -0.11743985063277636 0.8635963506723695 -0.0877222621591669 0.05803234764843349 -0.17548874537971473
0.153 0.05953535497645119 -0.1693380844858969 0.8477543099180698 -0.12448675002455725 0.8380347287568497 -0.12573741652869422 0.054905835536747175 -0.17174153951347806
0.154 0.059653277796878665 -0.16736399769988433 0.8444495882755052 -0.12167986099893892 0.8323079720561694 -0.12454440782339021 0.05615421906551113 -0.17447578195083052
0.155 0.0587714476367544 -0.1668179581742772 0.8421367886242962 -0.13154244883543595 0.7825762505892847 -0.16021114324737287 0.055655859426114215 -0.17355328779245474
0.156 0.057278533650292736 -0.1653846443908028 0.8415119561451733 -0.1253805611898327 0.8433238996242194 -0.14946053773784707 0.05387168044011469 -0.17069740066469483
0.157 0.058499597123260874 -0.16743629617954647 0.8443678541822408 -0.12759209661424176 0.8668484792738407 -0.14345699166671635 0.05563350507575103 -0.172123283442873
0.158 0.058662877808188636 -0.16397477493128199 0.8499476338381317 -0.1362986264997372 0.8348045685204266 -0.17841235650769266 0.0542947839763745 -0.16788659918075163
0.159 0.05619641249577672 -0.1655470541767113 0.8429732780612034 -0.13753186476652152 0.8278724964302581 -0.1317068461122964 0.051827447119410903 -0.16595959285058257
0.16 0.057810917658463266 -0.16530896983031293 0.8432201162529053 -0.14055633848748741 0.8449477601111168 -0.12019348899563603 0.05536965548177255 -0.16659052997219817
0.161 0.05667290345035191 -0.16347304767749113 0.8443558725520117 -0.1399218208195262 0.8465574421879831 -0.14948733686109444 0.05212349565390178 -0.16842057042687125
0.162 0.05563156318122428 -0.1626809139620876 0.8441839359722203 -0.14156723005408453 0.8248614848481659 -0.11110909318972852 0.05681389676926561 -0.1683856314145253
0.163 0.05713028179932198 -0.16325141857408523 0.8401996286942662 -0.14583072907374164 0.8608105458903014 -0.0900793504272905 0.05417056458443712 -0.167348241610248
0.164 0.05560658108987382 -0.16090199599297267 0.8442579539493426 -0.14986020129361763 0.8624522514549416 -0.18025678370025294 0.05210904400044992 -0.16371245672910464
0.165 0.05507226455482886 -0.16212715166199987 0.8414417040177021 -0.1537890652348511 0.8604814846708139 -0.12890786404407015 0.05107933525564833 -0.16558289674412344
0.166 0.05698964473081942 -0.16122621034805343 0.8383819934734079 -0.15903396962010938 0.8378509279893798 -0.13506493767426342 0.05196034426373633 -0.16178457029970886
0.167 0.05451777195153249 -0.1595244804225665 0.835953877218722 -0.15130695986536813 0.860851890995577 -0.15123235751029257 0.053049905351968935 -0.1625518122396438
0.168 0.05639509916917635 -0.15928729509370546 0.8383943866747521 -0.15677717070457972 0.8720409945616997 -0.15256882467190208 0.05183951871960001 -0.1617211558960936
0.169 0.054927458652434896 -0.15791624152452569 0.8352209800868947 -0.16334641051196727 0.849323701159833 -0.11238279291353855 0.05200705088827413 -0.16499453087697438
0.17 0.054347693440721836 -0.15820087050562584 0.8397845264510317 -0.16408754405457598 0.8595336239356789 -0.18503637976439574 0.05375019124932442 -0.16287006218941508
0.171 0.05449719172172539 -0.15714147048907237 0.8393600817260969 -0.1626096408197825 0.8870214417689373 -0.1625936518620172 0.047899569292366065 -0.16170266197271507
0.172 0.05311466571847527 -0.15651209802905394 0.8357752290624797 -0.1672007219363487 0.8459455087904867 -0.16887336018379684 0.048957684798410256 -0.15788674481697748
0.173 0.05476883235561983 -0.1571122444676353 0.8374355550038802 -0.17019410477618982 0.8375313791151713 -0.1840404163637226 0.05355010182659486 -0.1623094544970539
0.174 0.052217214096679135 -0.15498083141364974 0.8330444635221069 -0.17866519255931343 0.8484147994142783 -0.19504088877759207 0.04929292446347737 -0.1609536050407661
0.175 0.0538983311413815 -0.1560487027202259 0.830891931084512 -0.17807982260281885 0.8725128635096592 -0.19168995731963262 0.04855254841351879 -0.15546345864778788
0.176 0.053179799211256 -0.15598430625442258 0.8353383145676844 -0.18010378019092574 0.8805261732779432 -0.15940173503985125 0.04707954334647124 -0.1607657216023808
0.177 0.05175395812992778 -0.1555394280374891 0.8335049758403205 -0.1783237530734806 0.8285512216688112 -0.17337381821139164 0.05058688421194103 -0.16107470780274755
0.178 0.0552227679831803 -0.15475956033804578 0.838386396258881 -0.1802480351106459 0.8567812267979065 -0.21178838306141215 0.043967248038242535 -0.15818008353451005
0.179 0.05245422519100317 -0.15396365653607877 0.8337129159006657 -0.1884000297332495 0.8431699429584318 -0.1636664566361692 0.05075642857334634 -0.15958434762646542
0.18 0.052412747542594465 -0.15327131763329485 0.8316585558858902 -0.18928058510389867 0.8516574906955252 -0.17839947367273792 0.04558300385702298 -0.15553330751042735
0.181 0.05074907651941567 -0.15220677726970006 0.8327640141810893 -0.19019372431084225 0.845238549044785 -0.1844385485744204 0.04697853827358792 -0.15690434525841399
0.182 0.0512974384741515 -0.15215052420021705 0.8297141883670829 -0.19140619226573907 0.850334029790872 -0.1756526234717624 0.04713661577044893 -0.15561756178300293
0.183 0.05148701199807327 -0.15098046929297 0.8316592183243664 -0.1956760342286421 0.8436781193917791 -0.17839241821325524 0.0480367481733637 -0.15687301156636835
0.184 0.05051491817027007 -0.15226893492225657 0.8296312123733139 -0.19510016694595067 0.8191146718686385 -0.1926198880212349 0.04318915301853538 -0.15527130109867354
0.185 0.04925600567883297 -0.1505838400668816 0.8298256317879132 -0.1968683615403478 0.8547464116744129 -0.19993015309986076 0.0485714164805027 -0.15393078828072124
0.186 0.050977711377238645 -0.15045514965292325 0.8279625849500752 -0.1976742141202194 0.8591738962500716 -0.20591629871949724 0.048350636260921044 -0.15680829903283666
0.187 0.04989564847220689 -0.15020958319624864 0.8301476757167318 -0.20316408599115698 0.833076231432476 -0.2420906139210859 0.044075792951767716 -0.15328699627642842
0.188 0.04933671364242103 -0.1504679763851229 0.8317857156326665 -0.20348763616705462 0.8347712860819364 -0.20397011906004384 0.045471631374480403 -0.1525451758979961
0.189 0.04938114964992602 -0.14899184577227018 0.8349268370404981 -0.20657223097270097 0.8366193511841554 -0.18362336642727595 0.04592050023103481 -0.15370430290051182
0.19 0.04952005091416612 -0.14900568637010006 0.8270718381815086 -0.21159002206171354 0.815115425778916 -0.2152816880015198 0.04433249056323989 -0.15074479562231866
0.191 0.04876736683508952 -0.1475519736969315 0.8335402519057493 -0.2112846605300951 0.8255848460256519 -0.21834715397765053 0.044008892167604306 -0.1527077317879119
0.192 0.0478928745304002 -0.14705861740084514 0.8270613798522037 -0.212162572851675 0.8272969501583858 -0.19648202565880066 0.04867891831224548 -0.1528506009691514
0.193 0.04769177151525903 -0.14747663212674683 0.8279850521362553 -0.22203552701991916 0.8389387314672312 -0.18974811642743059 0.045688572657810615 -0.149851264946221
0.194 0.04779833277064601 -0.1455658540411195 0.8314079477150408 -0.2156599695383535 0.8548137790538901 -0.21099916646443595 0.044595299771866374 -0.1510246072447087
0.195 0.047720521029822695 -0.14743265520361437 0.8264363516666831 -0.21473009921817549 0.8633269464516621 -0.19346629364219967 0.04310708552598517 -0.1471803759754058
0.196 0.04698849458030432 -0.14481984317051685 0.8265827356598884 -0.22102980448392143 0.8213346175328653 -0.22283487890891962 0.0443128303049392 -0.15005493267654382
0.197 0.04560943605651008 -0.14506258528881366 0.8238873326082744 -0.22418878055430527 0.8248993687145963 -0.20761931981636328 0.0422657015500967 -0.15139030767612238
0.198 0.04648261972415483 -0.1437693146922278 0.8242174954912888 -0.22359020617536213 0.8299371223565308 -0.2305636811841744 0.0410941593939364 -0.15006798665529003
0.199 0.04734893157705964 -0.14468762162039633 0.818927305543144 -0.22882204820721405 0.819388581158792 -0.1993940105107376 0.04382038287887867 -0.14886313180227365
0.2 0.04595586154460984 -0.14409524282991526 0.8209679613804114 -0.23093091935435886 0.8032305443825392 -0.24315715432451476 0.04393539035763115 -0.14881636369828025
0.201 0.045410649285404225 -0.14426686438865474 0.8249788342215686 -0.23029916256935248 0.7798073370153101 -0.2218251677173727 0.04393832889924491 -0.1485704618992502
0.202 0.04573092958500272 -0.1437717569642685 0.8217754500044476 -0.2306759794189926 0.8123721340574483 -0.24597840812393923 0.04265525821962193 -0.14704956507195543
0.203 0.045620892628109276 -0.1415888953831907 0.8259740310063542 -0.2429948260340996 0.8568871034005666 -0.20052937901887882 0.04321109937639296 -0.14598860739782274
0.204 0.04477375067914134 -0.14153425107669823 0.8201728942930573 -0.23783142362899218 0.824947088775738 -0.2240946133374084 0.04205875061463564 -0.14491372755274967
0.205 0.045268322897 -0.14126906692531463 0.8183595334312991 -0.24040888148892745 0.8069223034544482 -0.21920980919471464 0.04113354500695953 -0.14687929957088577
0.206 0.044459191946323355 -0.14054863775428225 0.8219156745186025 -0.24413563785053904 0.8013261186590217 -0.2484050407760392 0.040635511246370604 -0.1463785882812276
0.207 0.04489210038122502 -0.14006818701740562 0.8168147778119506 -0.24469518545886632 0.8205201301763584 -0.2439405801775555 0.03985108873967284 -0.14378710284536156
0.208 0.04464622971234186 -0.1403465602492255 0.8175339639127929 -0.24654456744890885 0.7946701663785687 -0.23778127378325203 0.040539601693011476 -0.1459708679510238
0.209 0.043797557228949145 -0.14109847088049526 0.816213670291411 -0.24568630974213324 0.8243555139878763 -0.2685369475893862 0.042170414659669496 -0.14601405610253695
0.21 0.04532568521229412 -0.1385459534313029 0.8177136359300666 -0.2531096483577106 0.7901044385153342 -0.2440820498375344 0.040342458688269925 -0.14511778032685407
0.211 0.042981784703432446 -0.1403450855512586 0.8162121254900677 -0.25500688134173144 0.7928899687474407 -0.26758607231384557 0.03950912362606129 -0.1469423252738709
0.212 0.04386395766556969 -0.13881403603098771 0.8181355177835595 -0.2532155608619056 0.8365879243717946 -0.2413824743335287 0.04227211682466792 -0.14490416382630134
0.213 0.044033957744213904 -0.13860670455294122 0.813653494208399 -0.25831869132384244 0.8370638626246683 -0.2439688042312857 0.039496814702650776 -0.1425179693316001
0.214 0.04267472806586127 -0.13942027667963422 0.8150072947016033 -0.25517038769803413 0.8064990917525994 -0.27815627618414246 0.043300399648283125 -0.14492243997251905
0.215 0.04320478314221326 -0.13946106194847616 0.8146523367956858 -0.25816266442334834 0.8073569586977037 -0.25703973672065866 0.04090662723364809 -0.1419536050908019
0.216 0.044186553073834546 -0.1380665611549062 0.8123187820961904 -0.2615861988276752 0.8272690021304918 -0.24589761619332495 0.04089561403187352 -0.142777079188256
0.217 0.04117660061905744 -0.1381018797397486 0.8131194198097971 -0.2725801650651653 0.8105766715767478 -0.2686504110701655 0.038073978674236744 -0.14305508606488235
0.218 0.0422688852173936 -0.13630819653861767 0.8137711830510679 -0.2668045627494116 0.8097778503185494 -0.261432988241323 0.041933223171028926 -0.14405243408978147
0.219 0.04182675453275779 -0.13746654898720903 0.8150606033559864 -0.2680693790887265 0.8013480578428595 -0.28762865920617464 0.040455976224443725 -0.13984137245435996
0.22 0.041945664975643025 -0.13796136115853863 0.8109923929646875 -0.2681809290176856 0.8315980599011517 -0.2753145799280016 0.039479054162868135 -0.1416780465760168
0.221 0.04194254830364498 -0.13690613051043177 0.8149203352576334 -0.2749005903015561 0.8070417499090426 -0.25649702157776066 0.0414233610297393 -0.14185425541571636
0.222 0.04148724634915322 -0.13526326765190558 0.8087472144380949 -0.2747556828700605 0.810962655999584 -0.2782380132342388 0.03898171875556302 -0.13934088080646373
0.223 0.04152366101363024 -0.13552974900092815 0.8084530168691871 -0.27734980454339964 0.783754831085402 -0.2724883228630121 0.03750356481739207 -0.13993231976792436
0.224 0.0415512747630984 -0.13339828965761558 0.8110781301272129 -0.27925948419321855 0.7979041848560697 -0.27533856479839447 0.03811747537941218 -0.1411005811870887
0.225 0.0418304216695487 -0.13348524978777754 0.8155688030785495 -0.2855053530630184 0.8162187353490538 -0.2775820315485222 0.0400502092613033 -0.13798496280970582
0.226 0.04225646649500137 -0.13328101809609844 0.8087855502779174 -0.28035139754182986 0.7952561158388851 -0.2690013683190142 0.0380518458267202 -0.14027981382548016
0.227 0.040336694048825686 -0.13428505273445984 0.8105097227406433 -0.28666120394118144 0.8096166224222788 -0.2846543462601762 0.04042997068629907 -0.1405642758936548
0.228 0.040710972452106906 -0.13383848808502932 0.8070327634891306 -0.2856832021801043 0.8299286994105805 -0.28381995514407704 0.037132016334684236 -0.14175726679426123
0.229 0.03990548844648911 -0.13352285711464548 0.8078629021211283 -0.28402153310955824 0.8204658167979589 -0.28160183395989097 0.038009311244754325 -0.13915692894873977
0.23 0.0403584079564152 -0.13227115226069217 0.8050337928123329 -0.2930392576850599 0.7852737125678263 -0.3023904675657803 0.03720743389905412 -0.13689394857568213
0.231 0.04008615861687946 -0.13133333889807075 0.8030977916743605 -0.2898300884470119 0.7820210347758786 -0.293015043670169 0.03819769341032675 -0.13826001757290682
0.232 0.039676483333841904 -0.1319416289132949 0.8023485054604222 -0.2890846615966454 0.7918205040792095 -0.31151515299436966 0.04063602150651044 -0.1387044106574181
0.233 0.03965841087240223 -0.13026118263595987 0.8003277893374114 -0.29008071018955567 0.8135359908910429 -0.3332013335000514 0.038788744308113784 -0.13871571094186008
0.234 0.039190444270066786 -0.1321956944749247 0.8031968125676441 -0.29476706795089835 0.8197135359187536 -0.3046081732827565 0.037788347476565155 -0.13717528454616654
0.235 0.03987728088807704 -0.1312252507197497 0.7976836432839566 -0.2928109587175597 0.8144291049300726 -0.3034251953157504 0.037609675169490694 -0.13723514822020497
0.236 0.03915025974896176 -0.13044049883820177 0.8028609267199484 -0.29983263939286847 0.8035903449508806 -0.30514997761813484 0.03676923379459692 -0.13578463684548567
0.237 0.03884004812357715 -0.13039437445489674 0.7966005098337045 -0.3009797249812971 0.8210741396087297 -0.3204535278940217 0.03745795493227547 -0.13716583619635728
0.238 0.03933548065039336 -0.1300153481988528 0.7985874896227795 -0.3074138466451427 0.7966747016745919 -0.3053743664519702 0.03959154798039845 -0.1339414746951119
0.239 0.038499251129407316 -0.13104001620730585 0.7994430010862107 -0.3075589810749967 0.7884183304699967 -0.3044308714338166 0.03859419290839163 -0.1346291393771347
0.24 0.03808724011353658 -0.12963844365013014 0.7976468399260987 -0.30791960201835683 0.8020749210580462 -0.3041771658729602 0.03603976577716958 -0.13432605368327707
0.241 0.037820425840351 -0.12911028310448955 0.7976612706948513 -0.3091628278388648 0.7941981248745518 -0.302747847473041 0.03796123940695038 -0.13743043063457885
0.242 0.039308127805821706 -0.12859417031817658 0.7987279869126149 -0.30669949017601134 0.7888010847428045 -0.31582087288119 0.03378480552941263 -0.13636874456248546
0.243 0.038898918090683646 -0.12847612592894436 0.7955832379604241 -0.31461654940352396 0.8032191313215681 -0.3001150736945619 0.03484177213119598 -0.1330326253258593
0.244 0.03816622642832493 -0.12982617599946825 0.7992975446632894 -0.31705787597082996 0.7773239721083679 -0.3177060541428557 0.0354555479256806 -0.13427381451813836
0.245 0.03799211488801687 -0.1272025835434388 0.7968181379691834 -0.31847073327181036 0.7960725925630167 -0.33963834188575437 0.03533736198214384 -0.13060455562349665
0.246 0.03845645611828028 -0.12856938494898063 0.7922360183589516 -0.3208405415080193 0.7928648360939574 -0.3400242864454888 0.03565896020471575 -0.13359416989024983
0.247 0.03773015506042865 -0.12849526089541552 0.7878828304401242 -0.3271779850450798 0.7824489950401791 -0.3412833497164539 0.03382802101599081 -0.13414290051500216
0.248 0.03737401002289157 -0.1269365539773364 0.7906848905807886 -0.32835332305532106 0.7855292458813341 -0.32504268469534003 0.03449776929093293 -0.1317556600635958
