!Created with skrf (http://scikit-rf.org).
# GHz S RI R 50.0 
!freq ReS11 ImS11 ReS21 ImS21 ReS12 ImS12 ReS22 ImS22
0.13 -0.028487375737179323 -0.15671019031674915 0.015644955274330928 -0.011539761909379095 -0.03119134840779022 -0.027341539309210926 -0.039279533369294115 -0.15848148869692646
0.131 -0.02834277600520913 -0.15586652274178125 0.015665968519336985 -0.011537459307930743 0.010149751272559583 0.009091304401939745 -0.036279491285219345 -0.1557331264346982
0.132 -0.028613007122944723 -0.1542225143658071 0.015728560777894873 -0.01144141282492562 0.017022410494017298 -0.012757168072537604 -0.040220594360507046 -0.15725049055912388
0.133 -0.02941831765536112 -0.15259639912259704 0.015673880116641874 -0.01144503138579204 0.004432289358699742 -0.006145156089052229 -0.04110962533353478 -0.15426380781580132
0.134 -0.02996750230134468 -0.15264565253841958 0.01563984912742555 -0.011401504179881299 0.011554219240318683 -0.011186947942762537 -0.03820455995737658 -0.1514052968470906
0.135 -0.030362196272683738 -0.14994136970404243 0.015640859431544023 -0.01137564484812747 0.036012944125875655 0.009206887552576237 -0.040774164313687605 -0.1504179717802345
0.136 -0.03180447567140428 -0.1510508057821945 0.015521556941172828 -0.011285581177115638 -0.04005651204938357 0.06585715002444617 -0.039085007916536706 -0.14963985348652645
0.137 -0.03168634618632997 -0.14790035369419507 0.015493129488845429 -0.011304474139773459 0.02668700443523581 -0.03361631247202534 -0.041018567986071314 -0.14657772913912331
0.138 -0.030989805347184273 -0.14753938599157324 0.01553332248907272 -0.01134538354848147 0.02642926594503474 -0.04017529192225916 -0.03933171394704296 -0.14599277805940802
0.139 -0.03190601805064994 -0.1458894730692573 0.0155383995577642 -0.011281773060653614 0.006529435083729174 -0.027158638884898775 -0.038766046509372966 -0.14590468358472677
0.14 -0.03266155187670163 -0.14532351001115776 0.015531123829983848 -0.011250484059507947 -0.04717318396093284 0.008859225486356669 -0.039608582937311856 -0.14301975280244214
0.141 -0.0328658665916272 -0.14292370120725897 0.015552319473548388 -0.011216542890014941 0.019574847509415863 0.01905401512886238 -0.04107758424274498 -0.140866528359371
0.142 -0.03316752837822373 -0.14308287302283548 0.01543689852344973 -0.011093205746652322 0.017461735361077743 -0.03719254722639719 -0.0426993820152518 -0.14152812056210348
0.143 -0.03334349312305762 -0.141515212086479 0.015435155253081355 -0.0110689696373827 0.037424140772099615 -0.03467758673635144 -0.04342430341393042 -0.14086110361198556
0.144 -0.03338696086322891 -0.1397604376706196 0.015401404336648975 -0.011141228982186233 0.03588488688263694 -0.00963017812581035 -0.0454455618283856 -0.13793180116372375
0.145 -0.03441600971211334 -0.1387817437251062 0.015429250501317996 -0.011094866827691683 0.016521016812213254 -0.07062093796858282 -0.04550444218065208 -0.1379925287587757
0.146 -0.03515568919090752 -0.13845544556143455 0.015447880950804823 -0.011055649681718273 -0.012856540463425154 -0.04931470222256704 -0.04046976323070907 -0.13967910321757152
0.147 -0.03379502631450493 -0.13783914364808297 0.015423638498184162 -0.010965678713621363 0.019556461302669824 -0.02670734843201894 -0.040431584827369554 -0.13708939684855478
0.148 -0.03553267054842162 -0.13551701427507887 0.01541286277378509 -0.010981375729044346 -0.019107184131493635 -0.02496173775952517 -0.04254287401101829 -0.13626466935916928
0.149 -0.03507184050414825 -0.13480620912461894 0.015297898306886973 -0.011107757983847204 0.03416229001100372 0.0049950082178949005 -0.045205322619611035 -0.1324263131385578
0.15 -0.03499223278823189 -0.13352480441121503 0.015234446612941264 -0.01095947171653838 -0.009532511264147711 -0.020639528003972184 -0.04451943399965935 -0.13327745404755978
0.151 -0.034986617827957533 -0.13287603018416771 0.015329332060786148 -0.01092757302844667 0.0427589963707744 -0.014110683804163741 -0.04531127589898089 -0.13414482635004002
0.152 -0.0367198850628731 -0.13270764167991383 0.015273551816539978 -0.0108405829305766 -0.012621347374810667 -0.045010563866005555 -0.04562050718716351 -0.13348579992799917
0.153 -0.03565846628499017 -0.13139967243653708 0.015422027525046723 -0.010910486360697363 0.021606369410377954 0.005742082003824915 -0.04879648027888224 -0.1294877560597723
0.154 -0.03613773197206434 -0.1304749121169583 0.015247423544482277 -0.010821700791103084 0.011853933973731625 -0.015633152305885214 -0.04589772029211293 -0.1317172720199073
0.155 -0.037074060698581386 -0.1287928956219277 0.015160059305207507 -0.010994938553345346 0.02408565887192156 -0.006238268981972404 -0.04705982644689175 -0.12772627954759574
0.156 -0.03648879624517938 -0.12749179170618996 0.015274718854007064 -0.010863658454172925 0.010168270175024165 -0.03193886023034798 -0.04558955279168858 -0.13121055254198466
0.157 -0.03715517198747266 -0.12786715370017235 0.015273576134926086 -0.010832854125456925 0.04477024404336878 -0.00317124893211841 -0.04636968120975171 -0.12949419810620896
0.158 -0.03751768642870726 -0.12463085062171556 0.015377311502633597 -0.010963185451781042 0.0296234036942294 -0.0037051531677926982 -0.04787665007816883 -0.1257575114842528
0.159 -0.03864572423614058 -0.12620919352644597 0.015230612767855813 -0.010703839141786983 -0.0011464348665049598 0.008374228458139078 -0.04875404466030651 -0.124423411438574
0.16 -0.03759993262145597 -0.12480116562762471 0.015199315982644587 -0.010778443291129794 0.04098382097333023 -0.0011543539604491812 -0.048042642512853256 -0.12142853997982979
0.161 -0.03833296003355522 -0.1233262335245392 0.015259941536208466 -0.010722445326568054 0.02199060537877152 -0.013682459886821938 -0.04951736312339141 -0.12408019682797555
0.162 -0.03965042392344074 -0.12231973851029077 0.015113139983722296 -0.010718094492625238 0.018088925420110792 -0.028453521198169955 -0.04671092447959134 -0.122394861610715
0.163 -0.03786013595891658 -0.12171545251422818 0.015182051563160532 -0.010747015556633953 0.065464258032859 -0.04030994308209701 -0.04712163241645383 -0.12425101151697256
0.164 -0.0389135435561021 -0.12187341430225533 0.015084944415403222 -0.010722141874921908 0.020114713150095692 0.0036738757924860313 -0.048772228634499384 -0.12136621513758152
0.165 -0.039348543881598044 -0.1206343857033367 0.015110283127222974 -0.010654682844264322 0.037672760522065314 -0.009280317411418602 -0.05049145768872002 -0.12254989583868865
0.166 -0.04044131933098419 -0.11875285662585036 0.01503628512284828 -0.010763489325975982 0.023476674769259985 -0.00126881414061323 -0.048247235947344924 -0.11944395565004882
0.167 -0.039879157900316035 -0.11748534973947114 0.015054890118970389 -0.010590051059415257 0.014957201482685418 -0.005452783892284305 -0.04887114665396062 -0.11649380815601824
0.168 -0.04012959716987201 -0.11757296451417955 0.015047182394384621 -0.010547573301017332 -0.03107231061665655 -0.026322479520671148 -0.04959838619311013 -0.11581065946321502
0.169 -0.03884649646759943 -0.11635868529551527 0.015021833607245105 -0.010623097079863811 0.02473548946042225 -0.011430011970400882 -0.047936528307213046 -0.11854501442834148
0.17 -0.040110770046694395 -0.115101497425554 0.015043977485773926 -0.010675102549052707 0.004044556002196777 -0.038879980801879876 -0.04938453604179212 -0.11764822106669601
0.171 -0.04064260044007187 -0.1137956114525499 0.015019082388229387 -0.010605540739050909 0.030770810916808045 -0.00931663825967703 -0.050391082397328785 -0.11603280766916743
0.172 -0.04144969461795648 -0.11469271206273045 0.015026877759938016 -0.010641748959416882 0.013942888174406306 -0.009216729728169547 -0.0489300831788349 -0.11261278487670731
0.173 -0.041614361861887515 -0.11353963707414311 0.015077922071178359 -0.010569167340707978 0.01672379479245182 -0.01619296260392921 -0.04648183058794154 -0.11363133608038947
0.174 -0.041893021388170096 -0.11157981744600952 0.014923465623366654 -0.010701313118068035 -0.01781975826373132 0.0026878825503613125 -0.051250688539560996 -0.1127852405231469
0.175 -0.040638929492704555 -0.1118142137849516 0.014906934704698702 -0.01061529344597712 0.012908851436643663 -0.00970285885936252 -0.0504757482477202 -0.11148983304057314
0.176 -0.04089609364481487 -0.1109260954655182 0.014960245621562963 -0.010621233010378376 0.03176466420640277 -0.024411539839903955 -0.04953020656429698 -0.11119384083879129
0.177 -0.0416770196289849 -0.10991176364044855 0.01494586519983863 -0.010499980432904843 0.0359661307669544 0.002615262816330778 -0.04959572416916051 -0.11193259294962565
0.178 -0.04071542206917804 -0.10974706360845757 0.015000865028213453 -0.010562927897952169 0.002180619625102823 0.00901789083617849 -0.05259575876563167 -0.10992960379858815
0.179 -0.04184745227480247 -0.1086565116812852 0.014894824962493766 -0.010636361881365639 0.007383317888685567 -0.013810490049513385 -0.05032282029881707 -0.11252729518592207
0.18 -0.04131016586793452 -0.10764641457907262 0.014895590200695053 -0.010568775390501073 0.03278094815276289 -0.004034668449409765 -0.05171620168321229 -0.10831916416433442
0.181 -0.04232243363973343 -0.10725554481254372 0.01480221746407458 -0.010625919412800352 0.036124332142300306 -0.0013283618292293617 -0.05090824992705482 -0.10678564573460644
0.182 -0.04188436559461563 -0.10678689678331078 0.01477194491545451 -0.010534554147567024 0.03664385910550607 -0.0029232561121702266 -0.05135730061556203 -0.10736254440533574
0.183 -0.04242005063342178 -0.10548522577266624 0.014796806499666831 -0.01062367148867404 0.02750177506569428 -0.0028517902001136174 -0.050772368560152 -0.10828370285530171
0.184 -0.042017189358067364 -0.10510289734294256 0.01483536598124485 -0.010459410351064867 0.02327279737422685 0.003148941836715729 -0.0542325205042314 -0.10709341275104062
0.185 -0.0432762795429155 -0.10391061632232358 0.014855342114735657 -0.010488473522686705 0.0008410341184305643 0.01261632501120762 -0.05118831988754417 -0.10506122180540846
0.186 -0.04217100208531259 -0.10425849276365706 0.01479318102350751 -0.010462273731757418 0.026417194066370327 -0.02215522686709729 -0.05055053941997237 -0.10491526386030213
0.187 -0.04245152961230527 -0.10234527874510642 0.01479204930922929 -0.010519075210853724 0.0036306171710984406 0.0033569000251266793 -0.052225630756959844 -0.10459482498329542
0.188 -0.04235194191722751 -0.10279809467370836 0.014847252340233636 -0.010552559428137535 0.01749345573351395 0.00355573637156861 -0.051931237808002684 -0.10508153304956944
0.189 -0.04276774678767455 -0.101736860466599 0.014858152468073416 -0.010477356253402854 0.01595984486430498 -0.005547683097622187 -0.05282996010846141 -0.10446373091638252
0.19 -0.04229978656120823 -0.10085911080847963 0.014668174678256945 -0.010587569182622047 -0.013061007822019409 -0.02421296244677058 -0.05266667325102535 -0.1006156057079534
0.191 -0.04304856939195199 -0.10007254360483274 0.014810506377519352 -0.010591787641538612 0.02721003713682155 -0.013457354175850188 -0.05294730994720183 -0.09937580019928537
0.192 -0.043178044156880785 -0.0994255343855724 0.014878939864122111 -0.010365541326397802 -0.00608616062108857 0.013318164802202489 -0.052332791073906766 -0.1007909699300787
0.193 -0.04351325464803314 -0.09931445083221982 0.014695901942886428 -0.010464865569016204 0.02308242464144303 0.001295463953060113 -0.0530976862102729 -0.09831023177950313
0.194 -0.043431484435265254 -0.09778303827972772 0.014741438626920053 -0.010504496324322673 0.008824893299247313 -0.006645451239531304 -0.05172633783583567 -0.1003986143116427
0.195 -0.04377311691847292 -0.09776089260064441 0.01472997947489383 -0.010476621458826801 0.0038994172910453173 -0.01353613992408769 -0.05332802389546263 -0.09952171442173234
0.196 -0.04354743840313959 -0.09693940327899699 0.014691346870252569 -0.01049511215649365 -0.013378093328402833 -0.006315009793437459 -0.05272633531998477 -0.09982122266930861
0.197 -0.04375199728260536 -0.09631604999337795 0.014741372907360582 -0.01054851129141476 0.02024149328014208 -0.0011721077179640612 -0.052614674567305425 -0.09786015160836664
0.198 -0.04383889497992641 -0.09552432847010413 0.01472378554351665 -0.010464101767731687 0.012269004632949708 -0.005280338371800133 -0.053663554260734894 -0.09546348000411453
0.199 -0.04384532873127196 -0.09520991126712952 0.014611698389755784 -0.010499695116441077 0.018459636321477464 0.002400400392194893 -0.051653054418595266 -0.09465225550362344
0.2 -0.04355229151571742 -0.09396026661434406 0.014649249376066164 -0.010344117220186149 0.012597566988622964 -0.018114100705896048 -0.05213347446051741 -0.09571269191248799
0.201 -0.043899349978082876 -0.09396685869246087 0.014595168585658326 -0.01040368799038568 0.011462689698093699 -0.0008884312576098233 -0.05308024314336896 -0.09469953699600452
0.202 -0.044893416343699206 -0.09374185063561224 0.014715266732437506 -0.010443129854731222 -0.00829826271663496 -0.0360360152748291 -0.05273313864474136 -0.0932183879972771
0.203 -0.04434565730291559 -0.09154903368780086 0.014641112100580679 -0.01049940460015777 -0.0031610896106486126 -0.013769235272742928 -0.051856262452678235 -0.09154492482125365
0.204 -0.044690616809585346 -0.09222629459812061 0.014601133388992245 -0.010457326315133348 0.021146165010355576 0.01713357761962953 -0.053267887091515795 -0.09227037535907043
0.205 -0.044301489155766004 -0.09166878828367182 0.014543760374380914 -0.010456489000060222 0.003283180326192879 -0.03261163782730146 -0.05292704669122472 -0.09306254022123911
0.206 -0.044285582908372284 -0.09072784484194141 0.01459646990008275 -0.01052325264853583 0.024255101533339443 -0.016745193818705397 -0.05379612438641249 -0.09167617374698353
0.207 -0.04455129015562792 -0.0902296319581926 0.014555787883685086 -0.010527873389259958 0.013039893936033987 -0.025711086626350965 -0.053943898330039194 -0.09037940143766385
0.208 -0.04501244510502074 -0.08990694434068346 0.014490309288124894 -0.010492577237160619 0.014122351506832451 -0.003876853755338898 -0.053979268918349525 -0.08907512479682753
0.209 -0.04534172183449396 -0.08918205151081739 0.01454728517127176 -0.010444437646382804 0.014208667521882962 -0.017747496973975763 -0.0521165958808737 -0.09020061171852206
0.21 -0.04367721911221274 -0.08805978045946053 0.014535852373163181 -0.01055834958817599 0.022388298406492667 0.004502171969622161 -0.051894290454339395 -0.08947048731974805
0.211 -0.04583547287324843 -0.08796766120648916 0.014486747229269752 -0.010540010325637823 0.021237117125043583 -0.0062224443375508195 -0.055513030939035875 -0.08840154773543683
0.212 -0.045494883960613 -0.08755855215297428 0.014577777617904153 -0.010488674548110751 0.003547377219231652 -0.004160995204777623 -0.05327548395066531 -0.09010257162975875
0.213 -0.04542951396538391 -0.08715755955898041 0.014520418844401261 -0.010436796232785303 0.006069271751653201 -0.00822880369551045 -0.053974583103419196 -0.08602243886325185
0.214 -0.04513992252557277 -0.08550195781300024 0.014604255018708632 -0.010467745848564265 -0.00033214175667028984 -0.016702695409581227 -0.05117597910439713 -0.08748911064339647
0.215 -0.044807273022950525 -0.08542610152796645 0.014494979881847269 -0.01042766290357874 -0.008799599954525804 -0.007376980692052575 -0.05296829237969325 -0.08639149592658865
0.216 -0.044863618228060884 -0.08497350396373698 0.01448108530858869 -0.010432704333382448 0.0004016777540635403 -0.012102107717686644 -0.05380289655947674 -0.08562647509752974
0.217 -0.04509421035961915 -0.0845955144347726 0.014399586142954814 -0.01060672755900721 -0.0010429939438956586 -0.009559190230107192 -0.0543099890448297 -0.08675090372000896
0.218 -0.04499376175384142 -0.08358628713981357 0.014484288829051771 -0.010498955353309308 0.0003135530074409755 -0.010135979052376986 -0.05373744952695623 -0.08394105726058522
0.219 -0.0456047884640749 -0.08363487596865189 0.014511356562461148 -0.01049489413753923 0.028951272169511166 0.0011832833561229807 -0.053123294813957146 -0.08344115271707775
0.22 -0.04538681161184194 -0.08322005017545267 0.014437867719693962 -0.010418773580642677 0.005608991570909361 -0.009936831097674527 -0.05395736909770488 -0.08486328060213037
0.221 -0.0453663768881182 -0.08212014910899496 0.014482623949777269 -0.010594542353929355 0.005637828817734913 -0.012024827175828583 -0.052282943939850585 -0.0829671129566771
0.222 -0.045172997014156044 -0.08199792266001828 0.014368433963999247 -0.010496672204962084 -0.00309045829613888 -0.03132756930929647 -0.052410674391744155 -0.08166633821161577
0.223 -0.04499015346022793 -0.08103040147219852 0.01437144368282151 -0.01045803497806114 0.018895826644745907 -0.01473012637330907 -0.055269809145676634 -0.08091262704264425
0.224 -0.045515887460938015 -0.08014148185313959 0.014390722729809487 -0.01052467273447865 0.004840156605790018 -0.03444986082407779 -0.05217912639533208 -0.08114106414751011
0.225 -0.0455819306389584 -0.08012982172383742 0.014389205736854186 -0.010608953269958206 -0.008842429878923625 -0.019495387432872213 -0.05467424614995425 -0.07982466942981277
0.226 -0.044872937419628646 -0.07935750488623275 0.014380820304748724 -0.010314725159872282 0.008082144912765928 -0.020368663680509626 -0.05230376095274834 -0.0808836591604734
0.227 -0.04555069479208075 -0.0786302050402731 0.014346149764857707 -0.01041888970303076 0.036902700252305416 -0.012017111233645997 -0.052877808151188144 -0.08049950052401879
0.228 -0.04548743029232421 -0.07868737710763182 0.014271720938089597 -0.010648654977945359 0.016406673005561267 0.004826896737159094 -0.05411016904161813 -0.07918970618189722
0.229 -0.04560237708707308 -0.0779085900809535 0.014330791269604605 -0.010440726399154306 0.021252975625237685 0.004387203799646693 -0.05525071086378933 -0.07843750977561208
0.23 -0.04529952514713167 -0.07733019865241078 0.014279663385608994 -0.010553747883693683 0.014055475427152476 -0.014123086632043756 -0.0538067847312151 -0.07717475161919995
0.231 -0.04591390091626904 -0.07624937287500594 0.014281350906190822 -0.010447621535426535 0.02307534267646958 -0.0016815096063854307 -0.053348116379304374 -0.07766917627497905
0.232 -0.04589557294463197 -0.07608713154737325 0.014328207537290851 -0.010433449354466268 0.005279656031288567 -0.02839388899502679 -0.052412773581412345 -0.0772833436819076
0.233 -0.04644617056164993 -0.07544207007903485 0.014238690335392847 -0.010522449330455722 -0.009077565231732088 -0.007941905021708977 -0.05331303084947173 -0.07607562876039262
0.234 -0.04561516320343314 -0.0758522601331999 0.014354259560485423 -0.010479089949567472 0.01636111054535229 -0.026867675581466206 -0.054621713030549766 -0.07646354412934583
0.235 -0.04528068486767922 -0.07551643085281089 0.014219875195095912 -0.010458117051374886 0.0009379244929211882 -0.003187415358139809 -0.053286739953582005 -0.07591212901587803
0.236 -0.04582314682601727 -0.07470047400654872 0.014196670313998494 -0.010545061479699367 0.008186853262256011 -0.006860382946186571 -0.053858206860287465 -0.07441452874945079
0.237 -0.04580110351306504 -0.07349829019719831 0.014016770221741874 -0.010515178881639171 0.01551429895224487 -0.0014724324809925885 -0.05428934608323775 -0.07450012416328164
0.238 -0.0458883736013012 -0.07362697418923375 0.014251610607814151 -0.01055115542645703 0.008382527859057878 0.0015424717663721566 -0.05282553515125445 -0.0746881384475444
0.239 -0.04646088172220002 -0.07317577406703814 0.014161211886772553 -0.010592436649602603 0.01700421805789485 -0.018808522492536565 -0.053561539587533714 -0.07432363786080134
0.24 -0.045636253464845115 -0.07238423426912353 0.014085168919284335 -0.01053311299242458 0.01996575322636136 -0.01990516058771533 -0.053467188231491644 -0.07351752056965927
0.241 -0.04704151429331561 -0.07138700681907892 0.014111102413408417 -0.01059471148783163 0.00838061132162378 -0.014984795591832117 -0.05417878545099638 -0.07211225542840642
0.242 -0.04672609161279705 -0.07162517599500902 0.014008163235434495 -0.010594802600395338 0.0007230996585937807 -0.009735593453039306 -0.055147670775632686 -0.07263719005874947
