!Created with skrf (http://scikit-rf.org).
# GHz S RI R 50.0 
!freq ReS11 ImS11 ReS21 ImS21 ReS12 ImS12 ReS22 ImS22
0.13 0.5310514196865187 -0.584643701780809 -0.09791240019772988 -0.4394440449951643 0.0711045826960816 -0.012425298861949131 -0.8675356289841931 -0.4514508173887536
0.131 0.5261536907117503 -0.5887023159771031 -0.10049587632049653 -0.44402158243530665 -0.026273681343588443 -0.04019921678474655 -0.8681281097333381 -0.4451946206086647
0.132 0.5282092433324211 -0.5904905884573568 -0.10285420281072409 -0.45202860013554297 -0.03392864044032873 -0.03119705715736076 -0.8791725994935127 -0.44560061212955276
0.133 0.5213240414315751 -0.5900921395617266 -0.10906098501870189 -0.45327574657893355 0.040810945881028154 0.04303445824327024 -0.8787245830605654 -0.42674509999034055
0.134 0.5161523670103537 -0.5947846923352144 -0.11393476290219032 -0.45883222420662856 -0.0033325955314087957 0.03188441902817742 -0.884045211109615 -0.42216314265318267
0.135 0.5108533226867975 -0.593334725471747 -0.12030721830343426 -0.46361517122857504 -0.030708437593968754 -0.012714219214353647 -0.8869721847542237 -0.41844941057267454
0.136 0.5017898460931176 -0.5942997614507579 -0.1225759754385928 -0.46604972690959906 0.021739765366685034 -0.06088693632534004 -0.8878476771948731 -0.4063264754353244
0.137 0.5032417005147041 -0.5935801656202285 -0.12689415553462027 -0.46887293647213657 -0.026380578825498338 -0.0316719290689207 -0.8884458375098322 -0.39273381176103955
0.138 0.4968295574093155 -0.5945202764591556 -0.13350611867392428 -0.4735911923387737 -0.018790458122737136 -0.0026022873519294092 -0.8951993249192937 -0.38533320368885426
0.139 0.49607357195450774 -0.5986681235754452 -0.13930321800102047 -0.4779441832207289 -0.07448140840232059 0.024704649886450332 -0.8920369478791625 -0.38536491177669724
0.14 0.4873427374933801 -0.601041360911821 -0.1413650623143018 -0.4824201377673965 0.0362533603291983 -0.03502954048188669 -0.8985737761721143 -0.37831798285189916
0.141 0.4846368866489623 -0.6028506659667207 -0.1480289696984705 -0.4891886522945652 -0.010976990694652845 0.03873421208577076 -0.8945244383129122 -0.3659261427986091
0.142 0.47945771496478423 -0.6031743319627407 -0.14963923208147817 -0.48891716553236325 -0.012067186606957086 -0.0347034390668141 -0.9097969699716264 -0.3583389932055759
0.143 0.47571511030765506 -0.6022247712651481 -0.15702033271508542 -0.49472625829708555 -0.029244399460599663 -0.03479529601634922 -0.9100678107961518 -0.3487345720980533
0.144 0.4699930601224935 -0.6055539330367572 -0.16329512684424582 -0.49719805195752426 0.013874367283949904 -0.03723503428724629 -0.9073505746071192 -0.3459986076320866
0.145 0.4675258465257436 -0.6080821081966773 -0.1696244616763228 -0.5024102613929922 -0.01464068080578397 0.005105412695377856 -0.9144294132548274 -0.33282510661337855
0.146 0.46285456217913307 -0.6061045296773817 -0.17318999857706394 -0.5109675073668748 0.018196196753902865 -0.05834289517189129 -0.9108561992677202 -0.32979236372393594
0.147 0.4588885702525974 -0.6074736386422601 -0.17858345559169753 -0.5076867117958234 0.060102046337995096 -0.02098671907607411 -0.9127499046947324 -0.325770340792454
0.148 0.4538831857402107 -0.6087161863914388 -0.1814150614718981 -0.5177921085373832 0.003105549986042095 -0.029469392496127175 -0.9144855222711994 -0.31175143365198227
0.149 0.448111801160053 -0.608953351867621 -0.19232523348528185 -0.5194237819215685 0.0387096745871369 -0.02485931754982368 -0.9212345640800806 -0.30376450667145455
0.15 0.44616505551346103 -0.6116407685681013 -0.19460328728739412 -0.522944808411329 -0.02383358474155716 -0.03189424754174252 -0.9224755306403207 -0.2980790096944273
0.151 0.4418355957010572 -0.6105787888894448 -0.2004998896250023 -0.5315360687006723 0.04032511766668778 -0.024171291894493283 -0.924806756401172 -0.29880930474408474
0.152 0.43602551190226857 -0.6136290176656463 -0.20484380176710273 -0.5334842925505658 0.025990267858968758 -0.007856675334029123 -0.9234126894366168 -0.2823102947525049
0.153 0.4352000917582272 -0.6146305786529422 -0.214287344128178 -0.5392896983444888 -0.04839364834883575 -0.0020306722744160522 -0.9370083236142774 -0.27793744382413393
0.154 0.4265135990901693 -0.6168243037261911 -0.21612500997631562 -0.5419229084570513 0.014528605872826353 -0.004523417221397511 -0.9309849336954523 -0.269059040582971
0.155 0.42269527413106983 -0.6138266728656279 -0.22972633072949156 -0.5461258278379991 0.034327796315036616 -0.04018175836232558 -0.9305338854873416 -0.2585349845247667
0.156 0.41884917542497063 -0.617789206598971 -0.2299139878148766 -0.5484909372797491 -0.0014782557617446636 -0.01510711931790993 -0.9360195748045206 -0.2542543740190825
0.157 0.41620732975950986 -0.614742671714562 -0.23714024443122267 -0.5527644608257638 -0.015211100243227684 -0.006592076766376991 -0.9363278162052585 -0.24681907887628923
0.158 0.4112700769654211 -0.6152874808182701 -0.24885979494219315 -0.5628300446429955 0.009620751735246109 0.007065914409164843 -0.9419062545935375 -0.23968081489173654
0.159 0.40805853026505023 -0.6201175437938513 -0.25193475331185267 -0.5643759558343954 0.015873058196798958 -0.015414661254922966 -0.939185130766275 -0.2307854076754625
0.16 0.40517757866162313 -0.6167672789583702 -0.26140894022036953 -0.5685924880133759 0.0336730087246186 -0.017320370511255817 -0.9423988831047425 -0.2171879247642547
0.161 0.40405819598998965 -0.6231788228644889 -0.2716968432805361 -0.5759925675296814 -0.0030274401208565224 0.00517868806115332 -0.9461250397248776 -0.21322877590246953
0.162 0.39675824393317954 -0.6200743674622334 -0.27519440515632826 -0.5776657226690669 0.017146642849997545 0.013258652142009313 -0.9421568647007267 -0.20740584599617207
0.163 0.39494230769307137 -0.6222901724216927 -0.2835404325438783 -0.5830564023767569 0.02878125926228008 0.009733730006928228 -0.9390733914445891 -0.21063354443855722
0.164 0.38801117449012695 -0.6189153779469693 -0.29146699653154917 -0.584218340578487 -0.031930280104368186 0.01758956116339782 -0.941057367556112 -0.19694857245933997
0.165 0.3911602025451974 -0.6238520388758971 -0.3021066173897057 -0.5921877217333803 -0.013100147152038456 0.0009276342962637149 -0.9417680036674585 -0.1876282859712986
0.166 0.3776937832927588 -0.6238526185219204 -0.3155672415693109 -0.592551631721018 -0.016475979299316386 0.022087177696760305 -0.9413054289858735 -0.18294300932981322
0.167 0.3772253436722972 -0.6239831704508362 -0.32067430931605073 -0.5969246153040179 0.005455059289941173 0.0010973440866981995 -0.942127599087899 -0.17364235845651424
0.168 0.3739247512549605 -0.6262877562201937 -0.33599735154581056 -0.5987510321831485 0.043858902628131455 0.02204929045228034 -0.9390605251498121 -0.1613598572964668
0.169 0.36782406304642395 -0.6186600846030897 -0.34684922430648785 -0.5986755163860542 -0.002160924729246812 -0.014760626070318313 -0.9367892710415313 -0.15689957510188066
0.17 0.35919829615731236 -0.6213566637073679 -0.36272456123779245 -0.6035844126935306 0.021792866878641452 0.016368763817624303 -0.941215729847411 -0.15000254691470616
0.171 0.3586982617154414 -0.6263904730395504 -0.3723673182366138 -0.6019032418123066 0.014932575728876372 -0.008074508292837934 -0.938268447315812 -0.1489452365382163
0.172 0.36057846095011137 -0.6289870933146398 -0.3856038237200238 -0.5987451935645586 -0.004901363510656271 0.0038282813376091405 -0.9324153856376657 -0.13218299762061533
0.173 0.3527705548171696 -0.625150918409799 -0.39919815779636375 -0.5960830540789493 -0.024404496848551435 -0.01724595016420986 -0.9281140492600316 -0.13446639945963054
0.174 0.34596206786931727 -0.6310356548289645 -0.41746970720155785 -0.5862670150683587 -0.00795862859593354 0.025557324264463194 -0.9305592901591888 -0.12238229718860653
0.175 0.34125101350570985 -0.6280684901003668 -0.42229164835943067 -0.5764581105646267 0.0011630343948252292 -0.008178037143120842 -0.924335272826731 -0.12192417761374676
0.176 0.33892710072007176 -0.6286101647055566 -0.4302455338629338 -0.567457537726432 0.013096634241520216 -0.014497241625444877 -0.9310685813597234 -0.11551271246406258
0.177 0.3377357898651976 -0.6264019511066702 -0.4269446084662301 -0.5533871508275364 -0.012038646877747897 -0.014788659918111166 -0.924606695042391 -0.11989814475888692
0.178 0.33594306418625847 -0.6245135001763403 -0.42417925954767477 -0.5527121814261364 -0.00946460466692305 0.012932476467230293 -0.924202862876928 -0.11480817175424142
0.179 0.32861400251838063 -0.6248231610440762 -0.4247630004468915 -0.5452070598633644 0.01632569160659401 0.004205784169189445 -0.9305878694717307 -0.1084588202940532
0.18 0.3241414475684335 -0.6262768762900663 -0.4129418162466388 -0.5408422885111024 -0.008780154822265672 0.002183405060536047 -0.9319981617411033 -0.1033881482009857
0.181 0.3193917274029583 -0.6268292026639432 -0.41382712266968896 -0.55235386379792 0.02379790745112501 -0.006497794376170147 -0.9348364102571752 -0.09768996152348952
0.182 0.31874399812302695 -0.6259537421371019 -0.4086224941880533 -0.5582397722789371 0.005498890986510053 0.012795616182225017 -0.9382776668773148 -0.09473256384911707
0.183 0.31462890248750036 -0.6278801874223897 -0.41413921875146564 -0.5652684396581021 0.010065676052624387 0.0173646876852833 -0.9304516949377896 -0.08902168051492232
0.184 0.3088005278333972 -0.6252712965612529 -0.4152655732022339 -0.5737544497147643 0.01833768147123538 0.022248143046892342 -0.9465244542852514 -0.07277146489846646
0.185 0.30440346764865783 -0.6262289298470999 -0.4195168336224696 -0.5836263062927306 0.008692301419751504 0.010764272826133056 -0.9393377535378352 -0.06600589924663346
0.186 0.3037307472290256 -0.6271957504478554 -0.4291389549371939 -0.5883597512415618 -0.006150045922942391 0.010482644537985959 -0.9446247106781768 -0.06942695728456597
0.187 0.2990987248937777 -0.6258318729591263 -0.4365297849357481 -0.5966435365010854 -0.013421065062703052 0.02776656706911451 -0.9413190711385157 -0.052725841743536665
0.188 0.29379331186512475 -0.6265322413312857 -0.44905202347016626 -0.6086227411692372 -0.004502671251902923 0.027300074927851456 -0.9393556826253469 -0.04986798559457227
0.189 0.2926487616434634 -0.6254889149015658 -0.46274257903063565 -0.6151888251483844 -0.011121703364328824 0.024257133275114178 -0.9382356348527989 -0.03645425467291153
0.19 0.2874170828009661 -0.6260838721822441 -0.47345626599614166 -0.6118306169078603 -0.0005844430801603212 -0.007745446660480073 -0.9383537045493091 -0.02935443453363635
0.191 0.28494642598403475 -0.6257872802547476 -0.48695888778346025 -0.6229236420730511 -0.012858001669349013 -0.010549573771706441 -0.9422844211520913 -0.017989512482618427
0.192 0.28081740483170686 -0.6262643014160458 -0.4973610062502476 -0.6287704611369909 -0.01049597536426756 -0.0069164281299904365 -0.938194695552625 -0.014459413223201207
0.193 0.27779612898962586 -0.6265803467812631 -0.5192542614739089 -0.6249448577145315 -0.02210886308882689 0.04107610786813457 -0.9359889296533785 -0.003363317292977008
0.194 0.27502646156439975 -0.6233076684614436 -0.5269921263052183 -0.628889421346755 -0.014454005676562498 -0.007067286443439516 -0.9320184388269356 -0.004526477270734161
0.195 0.2699768443125667 -0.6271821383667615 -0.5417169534460367 -0.6302228943501789 0.0028011623793372637 0.0027112991475202997 -0.9288339664157192 0.008122935851767765
0.196 0.26965407013373816 -0.6233014237264984 -0.5646418142769994 -0.6273712183220402 -0.006579139546062721 0.02236226688618616 -0.9261121724656282 0.015998301766115854
0.197 0.26171836823423483 -0.6270834859940708 -0.5799843126976502 -0.6223595598320125 -0.020747167360217793 -0.011892606206533205 -0.922789218791529 0.018009636357928446
0.198 0.26300255278530715 -0.6225793930247879 -0.5989941539527082 -0.6194457430976755 -0.006867005135598493 -0.02192534753646587 -0.9142364488493183 0.02319835830807496
0.199 0.2557708129617058 -0.6223512156640859 -0.6156367510621782 -0.606413606992625 -0.009845104511663616 0.004159329467354742 -0.9111064004951412 0.03400765104597059
0.2 0.2551442528839763 -0.6227963089345439 -0.6321524291720273 -0.5999551549921572 -0.019395246190089026 0.015266489871676841 -0.9050616061100224 0.039821038022056957
0.201 0.25085542840398745 -0.6220379572953687 -0.6519149703904576 -0.5832208759940604 -0.013066407418315447 -0.012152803006053196 -0.8993963190753265 0.03904407538122618
0.202 0.24837575999390632 -0.6238267186330619 -0.6673508399541626 -0.5686386588958279 -0.005511860093539407 0.022083892768566322 -0.8911098795948953 0.04569740142349146
0.203 0.2423683808630806 -0.6231432357913622 -0.6774670438702007 -0.545623140758048 0.019650913095479654 0.02673187357978575 -0.8788877695371226 0.0474525707919202
0.204 0.23971640764608054 -0.6222022244537414 -0.688006590926865 -0.518800070593978 -0.010519838006167742 0.027288782229489453 -0.8782366496961949 0.04459315027045802
0.205 0.23910130475144808 -0.6217675322324848 -0.6930092222274374 -0.49534539395348 0.003729587851553587 0.012962369239470514 -0.8769252035788323 0.04110912633539948
0.206 0.23427934273708562 -0.6194764912730646 -0.6831248720849384 -0.47063659114803996 0.02173059116133173 -0.01961462986682815 -0.8713117337855583 0.03952722988486216
0.207 0.23064492014430998 -0.620169444305951 -0.6774010229502307 -0.4479214373101269 -0.0024909927397360476 0.014324968017732462 -0.8700692675082694 0.03674266123270747
0.208 0.22952257038937665 -0.6224584384559224 -0.6648981651820605 -0.43132336764419343 -0.011094765563470246 0.008566391493880974 -0.8731650159120672 0.031436171766581485
0.209 0.22577491474840747 -0.6214541390475288 -0.6389137485561013 -0.43019292008350923 -0.03980172285081388 0.005957046940830288 -0.8759827282824383 0.02782264138228474
0.21 0.22227368972801217 -0.6197866228718601 -0.625355885519416 -0.41186116588878946 0.007550481177503248 -0.006921166546297978 -0.8790509514871874 0.028882268385821395
0.211 0.2182698047757346 -0.6228904988973932 -0.6114701761799988 -0.41587289485671697 -0.0027323397436606303 -0.007713997217432363 -0.8892672981555343 0.03478868011692562
0.212 0.21441994395837877 -0.6200113700027415 -0.5909048345378075 -0.42677972730699054 -0.004662796102220038 -0.0025939087993018728 -0.8924075284898451 0.034393193879754244
0.213 0.21180490284114603 -0.6227320864801078 -0.5786295676148339 -0.42893302186508203 -0.006659627792629752 -0.006229137267259382 -0.8990466037633361 0.03657002740407535
0.214 0.20662584152017893 -0.6141670513465496 -0.5636097400162263 -0.4429295823678324 0.00014052253774816066 0.0053390642953587706 -0.8982371665077835 0.039558879554636175
0.215 0.20788911765546017 -0.6162424027820308 -0.5552489772121141 -0.46017011071953395 -0.004761381762106409 0.007180539875932845 -0.9030939149516962 0.048772491814909356
0.216 0.20186482221414914 -0.6136560359228506 -0.5549156424069519 -0.46198002633216906 -0.006709694331937485 0.004665697249641346 -0.9093235634155643 0.054547314186823834
0.217 0.19716441448703417 -0.6150292464267222 -0.5583069802775228 -0.47658340667911603 0.0022052041916761113 -0.02598459940262415 -0.9103846548388553 0.06205681981409456
0.218 0.19734839464542256 -0.6160349541945402 -0.5568816508625424 -0.49144770764831003 -0.017384450924827877 0.004672213713083037 -0.9167433460245403 0.07153148498466641
0.219 0.1904376221502847 -0.6159330557236933 -0.5583075865683731 -0.5040724251463842 -0.013461477231171729 -0.004854000620883883 -0.9136008728696863 0.08303971831058825
0.22 0.1894006035312507 -0.6130280309366517 -0.5576042238920812 -0.5107900542827017 -0.008815016224926898 -0.019238215522368072 -0.9228324616000377 0.07934777634040359
0.221 0.1881730008153821 -0.6135987666412892 -0.5657903009476009 -0.5251379243643803 -0.02551651738023855 0.0001878597578497384 -0.913865666636023 0.09174212637461547
0.222 0.184114974318416 -0.6108074572914031 -0.5696920803043952 -0.53226110989782 -0.0026353965688954355 -0.0018842879544499226 -0.9172831090096784 0.09683911759960852
0.223 0.1797187635099756 -0.6142279365599981 -0.579612184187971 -0.542455064837495 -0.0025428410471664514 0.007574214298204377 -0.9203819767061675 0.10642836119510649
0.224 0.17868188623784848 -0.6086512479500572 -0.5876925229890014 -0.5561032977906927 -0.008065703625190889 0.0031318741914761242 -0.9246044802739379 0.11007529244987056
0.225 0.17626323111966904 -0.6108684997319539 -0.6004885372793881 -0.5578216954776106 -0.026171018442913238 0.015092294417202395 -0.9207845738175963 0.12655573974526046
0.226 0.17304046636653445 -0.6075158638279057 -0.6003421148949657 -0.5676667473691935 -0.014761026655146864 0.0015947013598381803 -0.9191944980397397 0.12532494141714526
0.227 0.16812814235001666 -0.6122537489493104 -0.6103009246550242 -0.5721209883551548 -0.02153187278461326 -0.015426340745347758 -0.9199492862096721 0.1333345122275503
0.228 0.1661124568857076 -0.6084259577891777 -0.6211622117768356 -0.5779858674416389 -0.012309677205197125 0.005726451288540063 -0.9175831671884334 0.1396384335831148
0.229 0.16287104308422987 -0.6074904418759294 -0.6265056083848526 -0.5868107997224499 0.013579240713796849 -0.00022993828516776354 -0.9142283100921201 0.15221512601167586
0.23 0.1598066391890261 -0.6076688888463492 -0.6401332341606527 -0.5894653714782101 0.0018546740686607413 -0.011223904956379363 -0.9130490552956405 0.16298416087380288
0.231 0.15751957265369682 -0.605232351262235 -0.6467179013348793 -0.5980072056574312 0.009633052623413343 -0.003474281916544665 -0.9153995880876197 0.16466094016049576
0.232 0.1523955346549121 -0.6065055597695226 -0.6567751423248103 -0.6059212669240202 0.005833601497444863 0.0026279112564232825 -0.9121805094551804 0.1737248390798165
0.233 0.15210727226536833 -0.6043348399938057 -0.6707692323092016 -0.6034863741714943 -0.019117764334273365 0.01117158739115587 -0.9109683882173678 0.17226101166119936
0.234 0.14771729650917917 -0.6034685131994352 -0.679002833196654 -0.6111600724763929 0.008000430671635488 0.014125370834099038 -0.9073661591674211 0.18512955232874986
0.235 0.14514400718958725 -0.6027045327214808 -0.6881963509284617 -0.6156461733047275 -0.0029408342455459445 0.03215325867834068 -0.9074744327477909 0.19263735382797878
0.236 0.14224713679155898 -0.6013124321109111 -0.7006231198501939 -0.6184822662135064 -0.0013224594764399307 -0.010799633120170687 -0.9047150723303617 0.19888235924605085
0.237 0.1394638114723291 -0.6004396876228754 -0.7108192370072309 -0.6230555906231701 -0.016664493047478062 -0.004658568604110816 -0.9041268764926295 0.19804102688007655
0.238 0.13650360898508096 -0.6009338634032777 -0.7248212406569158 -0.6272837343345359 0.003358436831845446 0.001884287126367158 -0.9005920950006567 0.21096426602052892
0.239 0.13610818675667766 -0.6010342823490564 -0.7372328623477867 -0.6322653959745549 0.0063946007638516315 -0.0038673163749297704 -0.8924443458037723 0.21910165608058044
0.24 0.1318192126996047 -0.5967902591316508 -0.7469667142243599 -0.6315233484291549 -0.0028424429883425226 0.0050010039943239395 -0.8960589526057692 0.22859621758270773
0.241 0.12760811897481544 -0.5973788104738166 -0.7603046003198458 -0.6330675835338795 -0.001807343206695293 -0.006836447533508393 -0.8899151215060905 0.22590044564197306
0.242 0.12530308777352947 -0.5974656099010583 -0.7754892442165874 -0.6323671304061536 -0.0017761919684423908 -0.009372146266032782 -0.8886159795706813 0.2418272727638913
0.243 0.12134460476838943 -0.5944315267610364 -0.7880696956480631 -0.6407993607975218 0.011421052109496552 -0.006975121244174214 -0.887937035795607 0.24398421942036416
0.244 0.1201985185743925 -0.5955469407370761 -0.8067867990065711 -0.6430241481274651 0.000521242333829294 -0.004261339409582109 -0.8853570826385523 0.25268308965872277
0.245 0.11888714901007745 -0.5943236859354366 -0.8154990097891865 -0.6468001524976302 -0.002530643420820432 0.0019735051074356315 -0.8805948554867572 0.26248032187836257
0.246 0.1150370346337922 -0.5932675403757854 -0.8250443797934738 -0.6387350982954642 -0.000712924382322622 0.005365221251997047 -0.8666873368784043 0.2654532213857641
