!Created with skrf (http://scikit-rf.org).
# GHz S RI R 50.0 
!freq ReS11 ImS11 ReS21 ImS21 ReS12 ImS12 ReS22 ImS22
0.13 0.5296212421132765 -0.589059251635177 -0.04366944342426752 -0.18045528657103052 0.04335893377674997 0.0024884080614855056 -0.8669929678318014 -0.45076564911438405
0.131 0.518792591117107 -0.5913090527222672 -0.04491227611979651 -0.18160033577014334 0.013366023078918564 -0.0026096798583652024 -0.871169646538998 -0.4456210247705259
0.132 0.5176482263183516 -0.5914669433479581 -0.04625261202027858 -0.1839437517801109 0.007240903499530933 0.0241663237007776 -0.8761478690396142 -0.44575691612439966
0.133 0.5107324159503203 -0.5956722063592793 -0.0487969064485316 -0.18462932441720223 -0.027681291119136725 -0.0014727692145963687 -0.8753560371155674 -0.42741129629054914
0.134 0.5099313930382334 -0.6019543926387115 -0.0498749777895237 -0.1863237248475372 -0.043094985356076955 0.031236432415693065 -0.876357246481783 -0.4201235504441964
0.135 0.5033871006654446 -0.5969627000608437 -0.052784548838526374 -0.18709587023764332 -0.015102937835618137 -0.024659278726280036 -0.8836874714472475 -0.41480690263864406
0.136 0.4985052285552508 -0.6025819657488009 -0.053274411876592126 -0.18747219487712316 0.012753557532900566 0.01874299762045593 -0.8894583858444062 -0.4064768946120646
0.137 0.49417225317924063 -0.6027058113620194 -0.05602323373946426 -0.18822375738391567 0.038774091386350226 0.04622973500590088 -0.8846701403871747 -0.3935154594084586
0.138 0.4912583456067546 -0.6012367857986552 -0.057902279483661896 -0.1892671919790504 -0.024898245915254354 -0.031880400017340306 -0.8932960841759755 -0.3854289132022344
0.139 0.4870108154639148 -0.6020227130706728 -0.05938392585207344 -0.19141474616065118 0.017472207933021743 0.008604283037685638 -0.8883597739995964 -0.3838229559623384
0.14 0.48124269997836105 -0.6056818097302172 -0.06146036186844869 -0.19214593548409886 -0.01548679275559886 -0.002353275542855905 -0.8964482718726374 -0.3773091594338444
0.141 0.4752125833073395 -0.6071474759628152 -0.06369605978279519 -0.19440850301668983 0.009967787232906542 -0.02595350412552529 -0.8915706614668985 -0.36784505467164025
0.142 0.4733972228633797 -0.6105049167229477 -0.06488008319621483 -0.19403257467435384 0.01182830016490332 0.0044849022777295544 -0.9056501862038914 -0.3604098376267029
0.143 0.4676943940205864 -0.6074559834924741 -0.06703233014658176 -0.1960434415053159 -0.03073445627837865 -0.02263709471412809 -0.9070793547528225 -0.35162896791113213
0.144 0.4654490843401771 -0.6093691900334147 -0.06957177766473045 -0.19614818616020133 0.006647080625705581 -0.05706772126195548 -0.9072386408202809 -0.349768102476648
0.145 0.4601128238085319 -0.6123274683952936 -0.07202339945915277 -0.19778476368218317 0.0040258779286633075 -0.09266733614559486 -0.9129843872439533 -0.33076589946440266
0.146 0.4558216818418384 -0.6104884492700587 -0.07328127850303139 -0.19896481571791022 0.030597503112705104 -5.372309998225308e-05 -0.9143320910427208 -0.3310075311295456
0.147 0.45212716210841336 -0.6127101353530482 -0.07479086649343365 -0.2004574376394416 0.025516203847399565 -0.0379626587211321 -0.9102352900086742 -0.329385672379177
0.148 0.4468122115777249 -0.6135476077072668 -0.07690775557434137 -0.20098699562865277 0.0048600645417521725 0.032387123474057665 -0.9135533062286151 -0.3139519133494632
0.149 0.44229342228673735 -0.6138833400820481 -0.08015357251756622 -0.20160000600746347 -0.001973390834606687 -0.04772896763702287 -0.9194603185208711 -0.30107066066672145
0.15 0.43904396666991063 -0.6143074281869819 -0.08303551295463255 -0.2012804465706239 0.01758266860175967 -0.0681273177331573 -0.9214282489475416 -0.3005499767961389
0.151 0.4351962179443532 -0.6140951587408386 -0.08322798789010286 -0.20458445913206766 0.012407675514904262 -0.02785183945882531 -0.9186729473563399 -0.3021719142920543
0.152 0.42877038019685143 -0.6183652658405411 -0.0850175087304861 -0.20506298685498509 0.006739519699066341 -0.01795911826400618 -0.9222219151486931 -0.2843531362348865
0.153 0.427440247533821 -0.6171716703952784 -0.08838828580024327 -0.20791679924816422 0.016882412076474916 0.0351550501219115 -0.9329723047548025 -0.27623185080472273
0.154 0.42046615395126635 -0.6192595718282945 -0.0893112114823371 -0.20679003277196478 -0.0039298034286204125 0.005800116212252898 -0.9282330482714962 -0.27312042514071727
0.155 0.41579655933326026 -0.6155325060433622 -0.09274980145573478 -0.20815360617130468 0.024199902267338015 0.04239685207705378 -0.9273812090445755 -0.2629592163520599
0.156 0.4093515306735355 -0.6228193635588165 -0.09344194906250507 -0.2093076424702269 -0.021945102029477945 -0.0031542218866714615 -0.9276700646632573 -0.2566418016012509
0.157 0.40657777823935715 -0.6193638599446604 -0.09606241873162552 -0.20889166253676808 -0.0011021527372335326 0.03728591984334041 -0.9302684376967442 -0.25213850614501143
0.158 0.40372509294909753 -0.6217178201288603 -0.10033221063955562 -0.21183159895572665 0.015207421087232364 -0.0019941313423909235 -0.9396148889817968 -0.23976304200516158
0.159 0.399443472520584 -0.6245520175362413 -0.1011631964724028 -0.2120748494963701 0.020361013326952178 -0.019531427028014855 -0.934989652381432 -0.23501954189897648
0.16 0.39786107416932315 -0.621789034213622 -0.10447781612796028 -0.2132854377979955 -0.02083874532346333 -0.0047605296448887625 -0.9333675916359038 -0.2233133872017971
0.161 0.39209726524460436 -0.6262674052026604 -0.10787816843130657 -0.21480898648954247 0.03488155217725744 0.002324286750716655 -0.9371896496636628 -0.21550752994829436
0.162 0.38739327180816724 -0.6256379868371323 -0.10868103751240855 -0.21499308862974223 0.004979480212084515 -0.014502035875111959 -0.941491168963933 -0.2108871735550464
0.163 0.3855624246709287 -0.6249300109258001 -0.1120224550309429 -0.2155334431522408 -0.005182708046291683 -0.026234434540541442 -0.9364857412108764 -0.20698001561097423
0.164 0.38235804686182173 -0.6257044218689471 -0.11442239702792188 -0.2151256102248478 0.0049393118538457155 -0.016081323497801406 -0.9347854642015533 -0.19383748320900265
0.165 0.3774831867168203 -0.627201391561073 -0.1188248879550357 -0.21771115052790038 0.00099364059826891 -0.0024476532195271683 -0.9379089931039944 -0.18862541036225677
0.166 0.3757641643807861 -0.6273387664646229 -0.12357178872956995 -0.21632640614045917 0.025642647091994104 -0.024145009430148648 -0.936653441998024 -0.17847264771810806
0.167 0.36402937949097636 -0.6217044005888877 -0.12494026697612814 -0.21769621621445986 -0.00887088357028319 0.024639522088730582 -0.9384982101814928 -0.17790552032535828
0.168 0.3621726288209887 -0.6293642147355474 -0.13016118001186192 -0.2172769411948343 -0.02182124858033643 0.007864600600680633 -0.9367315406757012 -0.1633372350442503
0.169 0.35693968477253885 -0.6242187186073866 -0.13410030424252106 -0.21541530533175168 0.007349072310102347 -0.015899049419535235 -0.9374385285132683 -0.15894335643979257
0.17 0.3473666149093007 -0.6243122954926215 -0.13887794465305503 -0.2158491889026605 0.02417629447195573 0.03599909336988406 -0.9389787900877976 -0.15064322420462148
0.171 0.346402268853854 -0.6337072311044548 -0.14374431074969932 -0.2152133116874925 0.005961087860460131 0.009089427860759842 -0.9346375588609903 -0.14873435693180728
0.172 0.34525656964789075 -0.6273623441979495 -0.1465659637872035 -0.2124388241649577 -0.0038700063028873155 -0.012644920217148786 -0.9330473408619562 -0.1324573248564511
0.173 0.3437927711240214 -0.6312089051148887 -0.15159681868279895 -0.21180360163612474 0.0034417341111446192 0.008698861051416509 -0.9248550853301661 -0.1369205951783171
0.174 0.33584352492103164 -0.62987020340864 -0.15702909164470566 -0.20509637772930564 -0.008412996849361747 0.0015772797095133391 -0.9272650853296925 -0.12211823803849743
0.175 0.33049617960373034 -0.6299852462980029 -0.15881745323980676 -0.20169028054714816 -0.02292143183745989 0.0020437167681479768 -0.9229042794527299 -0.12513742503645733
0.176 0.32682835319539005 -0.6302493174965421 -0.15935049805963408 -0.19732109734231493 -0.01892089093530891 -0.011251005498521835 -0.9275116256415843 -0.11773064635300728
0.177 0.32181078620662656 -0.6319433655030969 -0.15967092044909784 -0.1936025423199885 0.00461953905401578 0.015416728264801534 -0.9232156691318814 -0.12706924519587112
0.178 0.32640860972053043 -0.6304872629448935 -0.15698241288768033 -0.19019496590727197 0.03476646855007178 0.04495088796352478 -0.9225884280594367 -0.11456678816408676
0.179 0.320584428525747 -0.6283488497968064 -0.15613740897318365 -0.18899768098479836 0.02392599831109926 -0.00539302915281286 -0.9259484074291405 -0.11142119929420347
0.18 0.3167037776474503 -0.6303841260253271 -0.15355601576408712 -0.18935927491962182 0.01434183749991158 -0.016865172334448623 -0.9304636954500503 -0.1042184739788081
0.181 0.31191607190330894 -0.6322933140453709 -0.15185184986641484 -0.19042705504425037 0.0003192548620866386 0.00030127011477700633 -0.933667168288159 -0.09889020674073377
0.182 0.308847357877754 -0.6296447151578276 -0.15144704495749267 -0.19219812676949777 0.007312588051346144 -0.013102711071535638 -0.9359270109078028 -0.09758525636446916
0.183 0.30203892068123406 -0.6305049080754718 -0.15386989202442256 -0.19544706660207894 -0.006347345152852689 0.003326301566765731 -0.9257456817278256 -0.08967027301334272
0.184 0.3000373409091136 -0.630499182545457 -0.15450146565257492 -0.19737320670300912 -0.019067696949315947 0.012298458850136485 -0.9429046714186413 -0.07490816045751574
0.185 0.29640374786580015 -0.6302588561979855 -0.15562776001475492 -0.20097673686475068 -0.03625524435380912 0.009859366962570445 -0.9399689565747481 -0.07039379052238302
0.186 0.2935046672464261 -0.630626096502928 -0.15967222516778623 -0.20252234844492165 -0.012339913899499837 -0.008052764833353543 -0.9467043656980803 -0.07307283732818241
0.187 0.28845540038571366 -0.629120736376651 -0.1610000974206456 -0.20536092464666514 -0.010952420337946347 -0.02385120432450039 -0.9369723100510973 -0.053801321124304184
0.188 0.28589701687877056 -0.6303062479980132 -0.16600250650664625 -0.20695476347781327 0.021575229153383953 -0.014107465404088092 -0.9386809226125318 -0.055408758062194
0.189 0.2838946810365006 -0.6285374838327197 -0.1705465540851658 -0.2087794652320817 0.02964583706938007 0.007468782891820424 -0.9359583471433766 -0.04052258224122459
0.19 0.2783431879722941 -0.6290353962164408 -0.17432676489441204 -0.2071711465162163 0.013981755752036492 -0.004292478804811805 -0.9359556475481163 -0.03798058410379671
0.191 0.2761640038598675 -0.6282379458435513 -0.17927414458259353 -0.21024784550169257 0.0036138068191619143 0.02086871406351767 -0.9377243374361843 -0.023633503624883468
0.192 0.27106934808982974 -0.629102361471477 -0.18274263250496717 -0.21175442031324002 -0.030716248639380803 -0.010739809563560585 -0.9321270018550821 -0.02104570557519844
0.193 0.2677094069904917 -0.629809034706148 -0.1892301703969735 -0.21038091070022802 -0.010910701308419143 0.016558792851508568 -0.9333148159392006 8.19774884778545e-05
0.194 0.26433164104620416 -0.6260627658472434 -0.19230373908296813 -0.21025917572302932 0.02706809496512355 -0.014833557381747181 -0.9304041377732812 -0.007142625819112001
0.195 0.2612242910474073 -0.6278304470801044 -0.19725040415066358 -0.21023794911207877 -0.010193784818209194 0.018703969516028273 -0.9273620969193366 0.006284634386470615
0.196 0.2597134782893613 -0.6273267514909696 -0.20484216333223607 -0.20939405425476482 -0.02236451241560934 -0.005921994031191653 -0.9178780669077675 0.015649749587488153
0.197 0.25270550921311724 -0.6296535360945068 -0.20991542261944132 -0.20666248908606444 -0.0023290878363468235 0.009910288368790278 -0.9188409963410857 0.01827311727561523
0.198 0.25232788289012065 -0.6276077169415343 -0.21585112503673484 -0.20401616034884185 -0.01699062431270383 -0.005254185334517663 -0.9128195278034253 0.02498881879361719
0.199 0.2463728472067165 -0.6264318791511843 -0.22072878664466142 -0.19923876470735752 0.014041351206248219 -0.007675269764978043 -0.9081981334500545 0.02967291628832508
0.2 0.24441242182375533 -0.6254430987830143 -0.226576483613704 -0.19573131744434094 -0.010208304300738234 0.012620342845334016 -0.9010509557705293 0.03134223187853614
0.201 0.23935169156546734 -0.6241891059789108 -0.231382499528886 -0.18935648774907599 -0.012182787930882804 -0.028791917825445098 -0.8934891115845989 0.03489983843050746
0.202 0.23763516048191938 -0.6292800124331219 -0.2364722170240666 -0.18350300196707184 -0.012044930417792702 0.00022458118241046898 -0.8906244149518441 0.03863556535756973
0.203 0.230305356819709 -0.6232455886081091 -0.23909463904942332 -0.17438474619635402 -0.007910784191411327 -0.010975668546622751 -0.8828153036068426 0.04210150746597458
0.204 0.23040186534933615 -0.62486546539114 -0.24138439209373627 -0.16503372941526578 0.018741008264835664 -0.016285204784463662 -0.877492691885646 0.04031708286938445
0.205 0.22693137256382243 -0.6246137255957405 -0.2400980030313469 -0.1569802441400192 -0.018917476119002283 -0.011912855574852572 -0.8749823568942913 0.03376208720990464
0.206 0.22175239732721683 -0.6196443956227732 -0.2376740218464119 -0.1501736979143308 -0.0015759178479713052 -0.0022148801432163323 -0.8677117123865212 0.030119220419807538
0.207 0.22266103850837174 -0.6218100418509992 -0.23460641316315495 -0.14185411512618534 -0.006859019720505136 -0.0049352487542638004 -0.8693944744770314 0.03348099384728644
0.208 0.21979413005037168 -0.6233894929265681 -0.22710139839882912 -0.13539755000402773 -0.014324369600166295 -0.0025587112930236136 -0.8743545190511105 0.024273475537289122
0.209 0.21285877824669924 -0.6228268020590672 -0.22027019219705551 -0.13299452177410645 0.028274018307521014 -0.003951340490579968 -0.8746017009164567 0.02473913417493561
0.21 0.21173292034019764 -0.6199042005542466 -0.21449162544075676 -0.13000778832629323 0.007365203220419174 -0.0085229098497159 -0.8774799992272715 0.02709974426703615
0.211 0.20878040543525556 -0.6251197167004954 -0.20922159452975872 -0.12982316741085728 -0.0022870528661897128 -0.013813875404877699 -0.8863377474343173 0.032046288352667186
0.212 0.20172400972637214 -0.622160349721652 -0.2011325738613098 -0.1328939584312994 -0.0017982008719254984 0.020412656112400278 -0.8882888528996612 0.027321560839794187
0.213 0.2008143871849981 -0.622318015734908 -0.1965418981793238 -0.13493058076231476 -0.016620484138029655 0.0036379514789209024 -0.8960997844577867 0.03422135677093333
0.214 0.19152964088218166 -0.6188251787601319 -0.19389057646519478 -0.13938266903715424 -0.008904320194166263 0.002275778890470171 -0.8952041706630551 0.03586669740227842
0.215 0.19862286784796274 -0.6195750677614413 -0.19012806325997653 -0.1429443548135207 -0.015554974250710746 -0.011365358746354812 -0.9020845440402119 0.04342918337185335
0.216 0.19004055053689137 -0.6171851614478711 -0.18825938985099308 -0.1441613711150713 -0.015323736934063099 0.007880795315736292 -0.909031094783502 0.049419419500262386
0.217 0.18727911245371323 -0.6167721515615094 -0.18985063588010428 -0.14849425645245218 0.007045553629988457 0.0059809310067618525 -0.9104390509589443 0.058702504364704575
0.218 0.18493737092104928 -0.6174970310009965 -0.18926389708009006 -0.15438344818686714 -0.009271282284787331 0.00963168538629323 -0.9133889255563062 0.0689169033260273
0.219 0.17792878990597244 -0.6171812445101093 -0.18902824676048227 -0.15732604489276605 0.006572906980624539 0.01692261454372088 -0.9142466433734463 0.07913971447339506
0.22 0.17605156406727154 -0.6166742455623484 -0.18803717705721346 -0.16041794883965385 -0.0012025597534938426 -0.008953629971944725 -0.9154118101914621 0.07854809269175334
0.221 0.17658704031845218 -0.6147569294788868 -0.19134630787964024 -0.1632750237250404 -0.0031201069401729713 0.021764137989471025 -0.9140104460320119 0.09069176530530232
0.222 0.1718088707152633 -0.615699055122937 -0.19341683735222423 -0.16395072618692505 -0.005162933459165658 -0.005242317738864092 -0.9152619235754822 0.09371313222312425
0.223 0.16828701677406235 -0.6152116976099791 -0.19404991549088418 -0.16761878308567663 -0.01028435469437671 -0.005093404905969549 -0.9218310549950202 0.10470732201595886
0.224 0.1655075470413501 -0.612078894957122 -0.1969949938698153 -0.1707502165382136 -0.010673834791388994 0.017423143802519577 -0.9203830296906964 0.11448104422910645
0.225 0.16594560793856297 -0.6114872063974619 -0.2020251420576049 -0.17150763110264156 0.00030547692025681644 -0.002495470133422121 -0.9160233487697882 0.1154649708421131
0.226 0.16009076828082633 -0.6100504126190798 -0.20009861175090166 -0.1741236433259799 -0.012959529310050524 0.00280234694681954 -0.9127121281000781 0.12490726327075768
0.227 0.15542823047368223 -0.6120521625094704 -0.20384517831720123 -0.17633967896750852 -0.015778772414036756 -0.006821156798346625 -0.917354064719919 0.1329902766582807
0.228 0.15571904242488252 -0.6096035485024006 -0.20734638900864263 -0.17696918229586667 -0.009637246449981571 -0.024514257550195734 -0.9171081525569618 0.13748951379376612
0.229 0.15072502868420845 -0.6097256967570357 -0.20881587851981182 -0.17965614749403197 0.012325672848158808 -0.0012617181266388238 -0.9118045006960893 0.14562211790655027
0.23 0.14973789369786727 -0.6097555495705491 -0.21308810954336058 -0.17991340120606703 -0.005663045815069218 0.005502507713524219 -0.9118191859604127 0.1584826076473576
0.231 0.14542246597321967 -0.607077888726473 -0.2138776568177012 -0.18236508714301203 0.01776382704646231 0.012605509614709827 -0.9065283916398799 0.15983617327279354
0.232 0.14207239044228 -0.6077177062139294 -0.21853305280831486 -0.18322740962173095 -0.0018730519191002258 0.0031094594348812926 -0.9051554151551503 0.16479251223614286
0.233 0.14114872738061235 -0.6055144006922463 -0.22156416168717455 -0.18305711121022167 -0.006294414800598299 0.0024903575793165495 -0.9023091244251241 0.16789761935930797
0.234 0.13624663634153172 -0.6054919507296951 -0.22413317280235667 -0.18487611208301644 0.007222311865658278 -0.00966695272596705 -0.9005255631922058 0.1781559723014404
0.235 0.13466538762473707 -0.6036895254357011 -0.22625572376558556 -0.1860936017199985 0.012825370956729492 0.011759582695477023 -0.9018342769988841 0.186648466190867
0.236 0.13068714293579584 -0.604085958817477 -0.23146737874617354 -0.1855658386566361 0.009951447328902775 -0.0014450474942116634 -0.8987371068110154 0.1985557714128117
0.237 0.12857594646316256 -0.6023920470652917 -0.23415339836958815 -0.18645964228816406 -0.002598486617023069 -0.004601226974427313 -0.8998464370127998 0.1915465102184518
0.238 0.12594201957887285 -0.601684299980807 -0.23548050975103652 -0.187552873018712 -0.0021971804813706096 0.004149509865688388 -0.889563801681302 0.20473087318839078
0.239 0.1240899777194339 -0.6023932560632909 -0.24054134143918215 -0.18855680361399463 -0.005528792997458028 -0.0008376346270088017 -0.8893925009523129 0.21484366875807415
0.24 0.12121482491915421 -0.5974179636839897 -0.24336598832138273 -0.18863572299032885 0.009254848398598019 -0.020692107199690196 -0.8880335606997097 0.21994323528027918
0.241 0.11434565163800813 -0.59771982254375 -0.24999215235647632 -0.18747082330449913 -0.007134130365504512 0.003015385105149236 -0.8810056438419244 0.22720090397368622
0.242 0.11497002563369264 -0.5981599219458413 -0.2522200911117648 -0.1857771322257411 0.005117413742031299 0.002914101359339251 -0.8854067187084684 0.23585153401002587
0.243 0.11119468054551823 -0.5934127294841414 -0.25491930531504525 -0.1890947600698099 -0.0045622830846158416 0.0071307440011389 -0.883020398853542 0.23834410146765692
0.244 0.1092506266230756 -0.5945996061744151 -0.2603406579465128 -0.1898725698445182 -0.004854684289428688 -0.0018691068271758772 -0.8796168844107138 0.2497527468811833
0.245 0.10593193353119107 -0.5973159703192352 -0.2631387166777477 -0.18747619754645817 -0.01757248637060248 -0.005392659717547374 -0.8735560327233944 0.2577194596922678
