!Created with skrf (http://scikit-rf.org).
# GHz S RI R 50.0 
!freq ReS11 ImS11 ReS21 ImS21 ReS12 ImS12 ReS22 ImS22
0.13 0.5279268266929589 -0.5954633664540646 -0.08702487926108608 -0.38941010527036624 -0.020005449353677186 0.05252474687895317 -0.8659188166167271 -0.455990814246499
0.131 0.5230203706370689 -0.5869517058548716 -0.09085992149391776 -0.39265717372113745 0.014055282955715249 0.02776509694288871 -0.8659902646911649 -0.4417105108808966
0.132 0.5237672407275142 -0.5853283576780465 -0.093877481547769 -0.40005981148182723 -0.04251129121868854 0.03293852378081331 -0.8755393583583255 -0.4412360088488996
0.133 0.5188540734629435 -0.5916666783713119 -0.0985816246756457 -0.401098815080593 0.01379130136681396 -0.08545989463224345 -0.8806418547086672 -0.42750719763667455
0.134 0.5114375870118167 -0.5978520928371422 -0.10175497465994465 -0.40497986849990625 0.037890573855021654 0.014912666995832288 -0.8847040635003888 -0.4225266188594943
0.135 0.5085457488738776 -0.5904756962963368 -0.10770441885491663 -0.40903529434453 -0.008741915333614708 0.03215789131576045 -0.8871466151221774 -0.4161379476998117
0.136 0.5032391925230583 -0.5987952693370063 -0.10911664151290836 -0.4118556842913611 -0.018147137332447338 0.05512568367542678 -0.8860857253853525 -0.4095315723548477
0.137 0.4983244055953812 -0.5961689618119158 -0.1133379780411873 -0.4134094912484475 0.016514076044010187 -0.052367100092312456 -0.8888667417920325 -0.3950787568020995
0.138 0.4943524183502387 -0.5991859453112065 -0.11867041228083663 -0.41784353183901746 -0.033931437311841624 -0.03097001323881465 -0.8924934003341379 -0.38450440125489543
0.139 0.49005305619183026 -0.5990634776595647 -0.12312428292093988 -0.423434775883988 -0.011081358998325878 -0.004245618110211152 -0.8907716164500338 -0.3847419927000305
0.14 0.4856421722893334 -0.6032801769163486 -0.12793916398477645 -0.4264968532232359 0.0052016446077587705 -0.0020635634066976435 -0.8965441684124633 -0.3752301504818669
0.141 0.4803395585728483 -0.6033193219956952 -0.13322628062689662 -0.43239872166381554 -0.015117089849243504 -0.03151362211509817 -0.8947808509158817 -0.366531551585994
0.142 0.477190384993782 -0.6038566954363614 -0.1345358005239756 -0.4324015765055024 -0.0059401435717390885 -0.0039272637857529664 -0.9075360204185539 -0.35810132962264646
0.143 0.4734007513094082 -0.6049844499311925 -0.1405312711212821 -0.43482564986769406 -0.009103632395909687 0.027223663587755027 -0.9079686813174377 -0.35229702413112274
0.144 0.4696971424963505 -0.60707813520995 -0.14788435298502073 -0.43763333818580746 0.014986432052345665 0.008707461581632533 -0.9080016525037379 -0.34984191572463214
0.145 0.465347695466751 -0.608528620120768 -0.14864929424095188 -0.44424532552592805 0.011849559522252405 0.03946979608063192 -0.9187549391994758 -0.33100712447877584
0.146 0.4615338699167282 -0.6076016973648393 -0.1533941211352 -0.44807882037264507 0.0006899438637585002 -0.00508066669204833 -0.9159094942331547 -0.3343176909284574
0.147 0.456890138299542 -0.6094328398636742 -0.1584978917121985 -0.4514224780509044 -0.00665343384031697 -0.003336425418410137 -0.9128574159456202 -0.32373652190784497
0.148 0.4521936595678289 -0.6093828685325409 -0.16520314667082298 -0.45534869122848876 0.033037863062065236 0.0315996305383975 -0.9144227447435558 -0.31198194950049574
0.149 0.4474174470648224 -0.6097662458233877 -0.1675185487091116 -0.4549114869736861 -0.053567527932752546 -0.014606336643862912 -0.9219030367662364 -0.3073855323079104
0.15 0.44379153917443176 -0.611996389930792 -0.17821951520431145 -0.4580153355805999 0.049006865649843 -0.04441721383433428 -0.9245475851384082 -0.29667841981970144
0.151 0.44222611934712724 -0.6115948642126063 -0.1768607740662829 -0.46690426484942693 0.012960702030424423 -0.008567771699113423 -0.9210788079418917 -0.2978923084429486
0.152 0.43585420650956214 -0.6149717303081781 -0.18306166156506104 -0.46704354025543093 -0.010572975359142386 -0.009984317233852073 -0.9235062239184186 -0.2857496633241069
0.153 0.4341506221923722 -0.6131161250020424 -0.19230589870911716 -0.47562857138816467 0.0037682157873051465 -0.03565946344569882 -0.9382895298809294 -0.2776846969014647
0.154 0.4253774283893585 -0.6160900786776543 -0.19352093930528186 -0.47612967368348497 0.01729411705009115 -0.0008288694456733885 -0.9276557941616161 -0.27658135699819353
0.155 0.420014321749981 -0.6172418763370388 -0.20214076885969004 -0.4785817180115964 -0.0006674500153544142 0.01544060655599845 -0.9292160052272982 -0.2626352382679931
0.156 0.4181502635380992 -0.6190973251221918 -0.20310180714664866 -0.4828848871944659 -0.0069712856238946805 0.006315303478284208 -0.9346566847322796 -0.26118818432185226
0.157 0.4161597689225114 -0.6173144615309084 -0.20966351763647006 -0.48633651397895516 0.0043149935312878 -0.021053895180673618 -0.9317825584284158 -0.2503124583352926
0.158 0.4099364184757344 -0.6187416689457443 -0.22058879000078624 -0.4934258837490906 -0.026072311802677377 -0.03981454868487978 -0.9377471919530067 -0.2402303237304496
0.159 0.40564817018222055 -0.6209871694614101 -0.22403977119196394 -0.496968148241198 0.025055790716805484 -0.0028248064561611887 -0.9377803500715508 -0.23414907355783476
0.16 0.4025625942012992 -0.620207845963919 -0.23222609337311023 -0.49869763999297145 -0.006240227263116859 0.002701456168004994 -0.9448024737042384 -0.21731867356749363
0.161 0.4027794652079297 -0.6210243658825484 -0.23987273924164718 -0.5051676329562259 -0.02912588669163614 -0.023198665549066175 -0.9460561024973725 -0.22022701276092108
0.162 0.3932612382236844 -0.6225559902492647 -0.24449798121805422 -0.5073376741835548 0.003484235130006181 0.02787603369864912 -0.942943025519848 -0.20793428412529721
0.163 0.3898092986394298 -0.6263251726973557 -0.2523749056741738 -0.511151928819984 -0.007089449611113531 -0.014821927165165933 -0.9418929591649561 -0.21152734333007628
0.164 0.38725377714024106 -0.6175559510276183 -0.25687803711128065 -0.5118705073027885 0.019198476031937705 0.020044083153208648 -0.94265014838793 -0.19458443581705293
0.165 0.38481789649707737 -0.6280670590610203 -0.268222328880096 -0.5197240929984888 0.0011606235800050155 0.043212622363093554 -0.9419717625935785 -0.18801180533138734
0.166 0.3782423885840413 -0.6240188811925043 -0.2812496175959395 -0.5179802977805608 0.024356910509413274 -0.012896528242688466 -0.9394499469577908 -0.17828392951937297
0.167 0.3705044834642367 -0.6233748283651769 -0.2860970931351939 -0.52198130621757 0.004192956309486728 0.00925754275613784 -0.9392430586000187 -0.17427137319115515
0.168 0.3687554322701502 -0.6290178908400635 -0.2998198482413819 -0.5237960866839126 -0.007899610142457554 -0.011192423676312527 -0.9372428900065671 -0.16307095464296983
0.169 0.36593491904525055 -0.6220977002545129 -0.3061506253417337 -0.5231463214420716 -0.02246222763393877 0.0391737375519261 -0.9415950790186617 -0.15680853188865454
0.17 0.3581951728622902 -0.6255356449612686 -0.32142322730754036 -0.5268786017186304 -0.0013142839119005363 -0.03429366218733023 -0.9403882133695609 -0.14660150942422698
0.171 0.35692369127217155 -0.6273907680238376 -0.33173466190217327 -0.5279596774752873 -0.005022188556887458 0.014014466491281689 -0.937225215877819 -0.14873500336564335
0.172 0.3524794867750521 -0.6232964874792302 -0.3353423739213507 -0.5224394761134167 0.009310875348598913 0.025157854535797046 -0.931550962431401 -0.13134904674149506
0.173 0.35170382931651234 -0.6298346024508263 -0.35463356189586187 -0.5218790964859527 0.024384464375439844 0.028738525930962166 -0.9254461586984206 -0.13448488842964282
0.174 0.3427386372237424 -0.6277473925214274 -0.36618383223919 -0.5141459302131861 -0.0061246132688116215 0.010440675542332408 -0.92880757845463 -0.12252449409004333
0.175 0.3366826461742598 -0.6247249849282063 -0.3715831447935546 -0.5002853038740744 0.0021840026006290304 0.013961225415286722 -0.9261771745856832 -0.12186216304306051
0.176 0.3366056902939368 -0.6279437923680183 -0.38048424325946484 -0.49616871873592855 -0.011310464137305354 -0.008520582729456558 -0.9295852591248887 -0.11583201675843514
0.177 0.333175068323467 -0.6237058903044083 -0.37627583510384144 -0.4836698351447451 -0.0015187725631471314 0.033638605607538494 -0.9211937934755128 -0.12149521098032647
0.178 0.3333951667997608 -0.6265790787769664 -0.3751667828515471 -0.4790395878077064 0.009206828181474086 0.01948124579358026 -0.9267744732413711 -0.11648783776190617
0.179 0.3260054248434163 -0.626068681700858 -0.37166865506851104 -0.47372399950162547 -0.011357915392709588 0.010338946034897122 -0.9282791228501504 -0.11298922284328444
0.18 0.32292659493156267 -0.6209117075995497 -0.36616490943746877 -0.47591480683487386 0.004050655699310521 0.01980910124207461 -0.9306930428848171 -0.10441036508895217
0.181 0.31594034124244996 -0.6284455450921508 -0.3609660457477671 -0.4826167582016198 -0.013482589877024087 0.03496438553391294 -0.9374775837067579 -0.09927392730534203
0.182 0.3156383516970374 -0.6279539882823721 -0.360389393069212 -0.48803388684256976 -0.007578488275063672 -0.010294249140003766 -0.9403618278306135 -0.09235334734350685
0.183 0.31025489307867044 -0.6268866638295375 -0.3701300519137992 -0.4965710378172794 0.003869419512290239 -0.0036044229943279073 -0.9304489806598474 -0.08995590205228485
0.184 0.3067223523261866 -0.6259425973209987 -0.366979081805712 -0.49890836972962155 -0.0005286954961059601 0.004900242876895833 -0.9470475861077927 -0.07096873282813382
0.185 0.3057118236128415 -0.6271309197739535 -0.3710800337507425 -0.5065346407138123 -0.004114765696895857 -0.013903724578268887 -0.9384437298462104 -0.068156690674944
0.186 0.3016231524326648 -0.628512424122599 -0.37805714435939547 -0.5145779674247392 0.011824453823320069 -0.015506975501164812 -0.9410763984309163 -0.06764014799665988
0.187 0.2960324525399906 -0.6261211929511087 -0.38664908967452605 -0.5228534219590729 -0.005070191077046215 0.008470823238884309 -0.9466011302321556 -0.05387596058182683
0.188 0.29282684247065877 -0.627241769908218 -0.3982656959050354 -0.5294216397032024 0.00744718218400983 -0.004979365767381022 -0.9405673971531905 -0.05371216192950181
0.189 0.28959277805940464 -0.6261228330084518 -0.4079279216883874 -0.5361507317251971 -0.03026288102071822 -0.01763145049752416 -0.9457947544365232 -0.04525769766791661
0.19 0.2860224432961479 -0.6265277234306472 -0.418698805118904 -0.5311725943444254 0.00931639647571039 0.020776743084759075 -0.9427892868610162 -0.031038786810015276
0.191 0.2831166409757235 -0.6264766584940663 -0.43239161521832614 -0.5420271046854428 -0.018148573066811443 -0.0005413999970021959 -0.9416561480494934 -0.02119375464627362
0.192 0.27905723619177353 -0.6269970576371297 -0.4396102072941071 -0.5455636784942455 0.0044844130667821055 0.0007850697755648158 -0.936112849045897 -0.01854079602666213
0.193 0.27553115294197855 -0.6266716294097738 -0.4581274888034338 -0.542537591551215 -0.00588834091751993 0.019704195373705564 -0.9298970265655775 -0.004477378981828323
0.194 0.2716511989895928 -0.6246844710137163 -0.4651076566653005 -0.5446164094251651 -0.008445510819168254 0.027166505665273184 -0.9340526323415803 -0.004221769300286735
0.195 0.2681731256885805 -0.6271296345825113 -0.47763889896020323 -0.5468052016909766 0.007022537350308741 0.0019229599440380811 -0.9312303795940436 0.008251842251457935
0.196 0.2689368069581981 -0.6247453138829296 -0.4988135083890236 -0.5443493991736099 -0.004251990076249225 -0.00806194815362559 -0.9256600812185266 0.012953171798913699
0.197 0.26219395360719966 -0.6274370847711913 -0.5131289715076879 -0.5386079892747786 0.019059729815604772 -0.021303875437937148 -0.9186923100002109 0.01645355590267003
0.198 0.2591999179669455 -0.6248561467022121 -0.5282331063084318 -0.5365247418205821 -0.005909703009456705 -0.0058462557163572355 -0.9137922990785288 0.025196377909753476
0.199 0.2536814267683691 -0.6217842963612815 -0.5436971859916299 -0.524367025571273 0.0224057402174187 0.0038504141742680045 -0.9085080405313956 0.030140950313364116
0.2 0.25097280716445747 -0.6238778973545739 -0.5584863806890245 -0.5175341718810611 -0.008359672316018498 -0.015481366983420005 -0.8994549966112468 0.03497061516312611
0.201 0.24899147896686322 -0.6226262620490547 -0.5727701435833148 -0.5008806691683929 -0.009639799050763382 0.005123594308575233 -0.8941139947748874 0.03819122265950083
0.202 0.2466257269261493 -0.6237054480872612 -0.5844554080120613 -0.4895450478039345 -0.015353400470788288 0.009829448600263437 -0.892352246923378 0.04523722608778915
0.203 0.23828226608745623 -0.6199447044025345 -0.6003922395454089 -0.46774138370300233 0.004823557986445708 -0.003724270096059893 -0.8787858683281171 0.046794116782295544
0.204 0.23792311407461322 -0.6234474664788437 -0.6032604300870816 -0.44687742141435777 -0.026844455245936583 -0.010730374891652121 -0.877710395267829 0.048371706476990566
0.205 0.2344826202923711 -0.6193053480767946 -0.6035489905718614 -0.42529140044058905 0.005135134663736919 0.015095692289615296 -0.8756994789384704 0.03913966948901837
0.206 0.22942251291478089 -0.6204323882123388 -0.6011939512945549 -0.40530145907002624 0.004744068372376362 -0.008510955835601205 -0.8706223883072678 0.035501404254959096
0.207 0.22756658959398798 -0.6195659142803631 -0.5934354362723591 -0.38721520473248033 -0.01187449645875571 0.022862849319372075 -0.8691895058865121 0.032275953587643284
0.208 0.22598817709562397 -0.6211291714030311 -0.5764371158479145 -0.3716088792674254 -0.013074090312935206 0.004699003395097615 -0.8745705511430188 0.029844234563015954
0.209 0.21980491993668977 -0.6215912264884288 -0.561272785518617 -0.36463677987220616 -0.0017645403915288412 -0.006850527483951804 -0.8748331053190843 0.029196937014771773
0.21 0.21928451494019272 -0.615868607704393 -0.547429357900761 -0.35740776861096124 -0.028514105008810024 -0.008148029363354653 -0.8789747814555968 0.030450431906715418
0.211 0.21534986098353873 -0.6216337873425511 -0.5330031880822653 -0.35562254366893087 0.000776764912229259 0.009869171765430526 -0.8876663404679875 0.03448931986575933
0.212 0.21068613862352759 -0.6217656828935566 -0.5152137229727892 -0.3678615151721973 0.008288554681033174 0.0023116456434391377 -0.8929618159803998 0.03211628092095221
0.213 0.21077060452297364 -0.62199724982639 -0.5085239108696924 -0.3769820261000956 0.00011181875111565335 0.01080832355731146 -0.8966404887657615 0.03536038887627649
0.214 0.20584205960117086 -0.6174474291714647 -0.4965154839570275 -0.38746701612482476 -0.008819608068593636 -0.013628386952644721 -0.8977632642379132 0.03718284441385036
0.215 0.2043073415858394 -0.6159833118564612 -0.48662903366099175 -0.3954131794372862 -0.004166826344984738 0.00427052865959119 -0.9039363711474496 0.04835864948186485
0.216 0.1997085263552315 -0.6132442981410803 -0.4848874410336823 -0.4035981078078198 -0.02429693563621505 -0.007739088316300561 -0.9119930382234033 0.05453899691427022
0.217 0.1927401484299487 -0.6170573594600286 -0.4886943441339097 -0.410239592269813 0.0025695329380886985 0.000681634818339024 -0.9133860167584172 0.06489408836977326
0.218 0.1949199324041219 -0.615737600145452 -0.48663472779824235 -0.42423065041182567 -0.01615270091285796 -0.0016872512415973173 -0.9119749528252105 0.07246362825033435
0.219 0.18810281565957473 -0.6153005195268146 -0.48780381329268735 -0.4348065289806911 -0.00027163802923887515 0.01402421280898743 -0.9173856024212069 0.08196943303487848
0.22 0.1881028156314927 -0.6153347830337612 -0.48844885029930696 -0.4430501936569316 -0.028652497391146434 -0.0007537248979838789 -0.9223731494787211 0.07829311249382741
0.221 0.18327952216617657 -0.6150225162837575 -0.49781738976615747 -0.45456063434927774 -0.005897821718227211 -0.00197918120917941 -0.9171627709140495 0.08845494247063311
0.222 0.18080938258647333 -0.6153744166429796 -0.4986050985428591 -0.4587773699790842 -0.011007382103201041 0.01113022835505255 -0.9176063934538589 0.0966355540076345
0.223 0.17836461698301329 -0.6140058916644751 -0.5061008914597219 -0.46729015056344625 0.004868405162156948 0.0169361629180408 -0.9256597819324619 0.10505854910790928
0.224 0.17371866148374232 -0.6113846531796628 -0.5156935706915853 -0.47804903069533616 -0.007442542214665134 0.0029611341490005804 -0.9248369643257529 0.11474163091379165
0.225 0.17140405659899466 -0.6098181826410163 -0.5264193165912826 -0.48247414552757284 -0.009482698458563494 -0.007641918689780843 -0.9205356232475561 0.1212146409460447
0.226 0.16947906548870958 -0.6082435767761543 -0.5250544987928595 -0.48946908713095416 0.00028590641636329556 0.004381879673647566 -0.9201157941662056 0.12387585143099436
0.227 0.16562993871634507 -0.6108094503947262 -0.5350153192561828 -0.4954546057017758 -0.005776816520139759 -0.008320799475853617 -0.9141662901129163 0.13290167715582502
0.228 0.16280938465567843 -0.607952656973356 -0.5437048706669245 -0.49870594905463433 -0.020836496509136843 0.024017915679219088 -0.9158847048285379 0.1425464029453437
0.229 0.15936890210021257 -0.6087515688677396 -0.5503476670727668 -0.5075771777952278 -0.024799809061969585 0.006334214347254001 -0.9091166834472124 0.14835597916119034
0.23 0.15671699556243537 -0.6082907900813481 -0.5608241647942219 -0.5074835008126523 0.0003534665511987945 0.014991327697116783 -0.9153793003826487 0.15970201994858124
0.231 0.15444401662626878 -0.605206534966588 -0.5649312732137226 -0.5166849384574159 -0.004615875950960161 -0.00478095175290399 -0.9111298353664602 0.15761173269966489
0.232 0.15020215259944886 -0.6066012255618589 -0.5765724178843173 -0.5223996558141918 -0.009124871449085806 -0.003998865636081983 -0.9099496383578326 0.16948511879213135
0.233 0.14920040602025206 -0.6048678996179935 -0.5864420842427154 -0.5217991911180703 0.009265463341798601 0.0012791697082248689 -0.9115880209933771 0.17550122207103475
0.234 0.14561709112584162 -0.604259047125699 -0.5946696934745731 -0.5275819390180985 -0.005688506036763944 -0.017337700035624164 -0.9127077816748472 0.1825065154890896
0.235 0.14376654720898682 -0.6026829851107426 -0.6035470010958955 -0.5291352216877706 -0.0006668727540050713 -0.005943689887249917 -0.8978715305980159 0.19077940445006278
0.236 0.14057179314774892 -0.6028759275193893 -0.6175496936473199 -0.5314523467388901 0.008963120879961723 -0.0043824795223947775 -0.9066829598004081 0.20283265261848493
0.237 0.138606023368927 -0.6011998090937419 -0.6247739281057021 -0.5356895451427112 -0.0045935069499500394 -0.021608084098919875 -0.9053493015804215 0.19808893790612261
0.238 0.13577691541494843 -0.600926086134213 -0.6375963818673601 -0.5400588349723041 0.0007190878742269896 0.005334894071137563 -0.8982899042813297 0.20879280411288806
0.239 0.1335720561447344 -0.6026252344310182 -0.6474452435095999 -0.5437333643151526 0.011454232445742661 -0.008433294893635665 -0.8923782066836008 0.2162159264031333
0.24 0.1290785357583741 -0.598056500948922 -0.6541352361883614 -0.5447787216157698 0.01373334516857466 -0.017594360762680998 -0.891274984909095 0.22497540920013934
0.241 0.12451200582622879 -0.5977305427346112 -0.663997710671726 -0.5446058299855158 -0.007376264020147593 0.011488985296031883 -0.882315007724231 0.22790230376735665
0.242 0.1219575625377293 -0.5990303151739282 -0.676312450727216 -0.5430027242231923 0.002412294135226684 -0.0032213521841841356 -0.8853809766193851 0.24131980974016298
0.243 0.12007205372898047 -0.5935959961324812 -0.6896202194308899 -0.5477975468003571 0.005910649039418244 0.003005605769185493 -0.8859279325963458 0.24696305524784248
0.244 0.1182359761760253 -0.5967017895110978 -0.7073281216013666 -0.5522797149698044 0.013963859907269286 -0.0011644980201580433 -0.8826035869668339 0.2507495164217633
0.245 0.11510559772801518 -0.5942443353160095 -0.7185860358982645 -0.5540106118083145 -0.0057872248266455815 -0.010792139278375492 -0.878618427955779 0.2628796622310864
0.246 0.11121711403333308 -0.5973023813621189 -0.726363916869844 -0.5491974757717301 -0.004564768404959911 -0.009112440221145688 -0.8653585915800938 0.26550426369804403
