!Created with skrf (http://scikit-rf.org).
# GHz S RI R 50.0 
!freq ReS11 ImS11 ReS21 ImS21 ReS12 ImS12 ReS22 ImS22
0.13 0.5267984678206532 -0.5866118580479232 -0.07746596885400976 -0.33691981832328155 0.014083723790192891 -0.04548546745367031 -0.8653753377019956 -0.45471730933006294
0.131 0.5265320213289706 -0.5878014600739144 -0.07872197523842757 -0.3403344948152241 0.005652670662889126 -0.004921211019815242 -0.8713526439274866 -0.4427579056890988
0.132 0.5257688650372359 -0.5855250723546207 -0.08369928369422851 -0.34509566916680534 -0.004860689568329358 -0.00980484108411493 -0.8767359184752799 -0.4402373282815224
0.133 0.5157760967746068 -0.5899709730004381 -0.08695418268501899 -0.3473825130982047 -0.05584068897790114 0.0073807873204594825 -0.8811804965761164 -0.4256406316156912
0.134 0.5126354645490117 -0.595650948394988 -0.08791209824551705 -0.350723328123983 -0.05574639196064663 -0.03835984582319504 -0.8762324263331348 -0.4220571968615573
0.135 0.5088169635042241 -0.5921364347615555 -0.09552792180878295 -0.35286293227119986 -0.0005309901532709346 -0.004238101777406616 -0.8824857398066751 -0.4152943051109581
0.136 0.5042319319027444 -0.6010893782258636 -0.09652622193020288 -0.35565232918448286 0.00055261570343994 0.0004808299000274772 -0.8852091299946475 -0.40577831673007003
0.137 0.4987144991105164 -0.5982544295982459 -0.09944722505900339 -0.3568321436615171 0.025391221092767695 -0.04226609796823688 -0.8860889233980513 -0.3940123011604861
0.138 0.49425137322329693 -0.5959051584409724 -0.10352872851779024 -0.3614025833683126 0.017746734052200862 -0.033218955416637594 -0.8913271923435095 -0.38559548400636273
0.139 0.4898497395801915 -0.5996342974733326 -0.10737516354995737 -0.3638274180320487 -0.03450384640084211 0.02513047287533954 -0.892447757936867 -0.3838925272956328
0.14 0.4832870316656537 -0.6043057997993286 -0.1129437703372594 -0.3673739606026709 0.028927903676861495 -0.011801291301051743 -0.8960643085661745 -0.37689084658258276
0.141 0.478726452914294 -0.6056905859628485 -0.11391086958697832 -0.3717525726658153 0.05215113832538631 0.0056641511133386484 -0.8950751733743102 -0.36954487478783854
0.142 0.4752091719312775 -0.6058731168569453 -0.11723377948271493 -0.37109991613726984 -0.0009953214146516164 -0.01439124776020691 -0.9073492043096798 -0.3580659650765366
0.143 0.4701274731067388 -0.604738657249044 -0.12325462241369811 -0.37556710671217386 0.01598345267376065 0.01028061934191659 -0.9111749715720041 -0.3489263202732706
0.144 0.47006764557735625 -0.6074272047534198 -0.12801105995290435 -0.3777158826327548 -0.05703166092664729 -0.01419370450663716 -0.9073611284263772 -0.34961009287363726
0.145 0.463872278440734 -0.6100926097038409 -0.13057071693409186 -0.38393150862154996 0.03965010098141978 0.008518279521385343 -0.9173629696607647 -0.3326247705774353
0.146 0.46071573548350164 -0.6084492616931155 -0.13537300919678946 -0.38470323849104265 -0.022044318473441578 0.007111860596154169 -0.9136005740739525 -0.3332487737226956
0.147 0.4568151587043551 -0.611152578820696 -0.13725655688076407 -0.38621825854032316 0.019720335071775518 0.027396102937102033 -0.9148814129546331 -0.3261122903629823
0.148 0.4503840184443413 -0.610601920141528 -0.14274828449348187 -0.38963884782979297 -0.0019187496613806186 -0.05592014545740814 -0.9114269479729034 -0.3109204000588378
0.149 0.4454995601351995 -0.6107119272149191 -0.14857150387511264 -0.39062957225284783 -0.020691357510913576 0.006978380256256632 -0.922575391681919 -0.3040159209151846
0.15 0.44348800937988436 -0.613266392783118 -0.15248086491389518 -0.39487186659561113 -0.04769596672357388 0.0007961528070026139 -0.9216729996792075 -0.29898479661948935
0.151 0.4401420794506508 -0.6127711508904237 -0.15631595829405726 -0.39841308116911717 -0.011770592696115209 0.025227566279884334 -0.9273196942320702 -0.29905603859340407
0.152 0.43263915384271445 -0.6165057234304048 -0.16106368386426154 -0.403352752242305 0.01252411131594049 0.020526683814976646 -0.9268268316156436 -0.28671572677114826
0.153 0.4344284390821452 -0.6149658733960338 -0.16527620419820407 -0.40782683332729175 -0.01916727082789339 -0.052342060974989606 -0.9370016387394412 -0.2779860714280211
0.154 0.4248630523996875 -0.6179583301104642 -0.16748201437107427 -0.4058973132013676 -0.019327810752304424 0.005370126716186466 -0.9288137419241836 -0.27815605852593744
0.155 0.42109856084124464 -0.6168971296478435 -0.17841989157331054 -0.41105941950439906 -0.002211260006253105 0.02364530483359867 -0.9233646253744586 -0.26463837484404235
0.156 0.4162422731716703 -0.6204072398139273 -0.1783981586174037 -0.414309002098467 0.01335326128346547 -0.03217678322112405 -0.9348980338540503 -0.2575825043295355
0.157 0.41237768013623516 -0.6192939710766578 -0.18373049409947617 -0.4155518363415936 -0.007474199021284111 0.03100971283616563 -0.930725957871089 -0.25163659467173793
0.158 0.41009822361326165 -0.6200387146408299 -0.19240465453048056 -0.4230772364504178 0.011621967394065218 -0.02669476320306945 -0.9329755251768843 -0.24287385920142202
0.159 0.40507466979870543 -0.6239232278798432 -0.19475127864843156 -0.42411325129097577 0.00655143977942708 -0.016106266100612266 -0.9364239945449848 -0.23329019732147355
0.16 0.3992586385224523 -0.6215291991450399 -0.19997946636009484 -0.4276106411076974 0.017152703540382015 -0.012781876888928134 -0.9359692096664307 -0.22725300377226904
0.161 0.3998832808203379 -0.6215590310293964 -0.20886851054380945 -0.43113295299758225 0.006524750175095802 0.011969625578810145 -0.9386083371208042 -0.22093559884488764
0.162 0.39111576480330246 -0.6218072292043402 -0.21070356456897504 -0.43321995909401617 -0.018248385649585024 0.006951980212459295 -0.9355591971070737 -0.20944928678769167
0.163 0.39035597018900353 -0.6255594979307606 -0.2180822069575651 -0.4366539873162855 0.004160588163622596 -0.027522048814822855 -0.9371854057901112 -0.20414546654253674
0.164 0.3873002916422235 -0.6207781709797966 -0.2220147050709099 -0.43748703323577653 0.021522846058524482 0.0007071590448154651 -0.9394669976767304 -0.19259216246113095
0.165 0.38440118228126896 -0.6276926092650537 -0.23218491409303713 -0.44202202114916544 -5.643451385050221e-06 0.019665551330217464 -0.9407685507192997 -0.18904610320986776
0.166 0.3794578658713208 -0.6238813857558134 -0.24097825901093048 -0.44295508917830884 0.010728580118281912 0.017780489466848483 -0.9400545633345627 -0.1769163290316847
0.167 0.3751402590314166 -0.622384354427814 -0.24581931737593388 -0.4454494509213249 -0.006783126359974655 0.0027894103426612522 -0.9393985613399063 -0.17409630411300223
0.168 0.36512657290025186 -0.6263651045650869 -0.25727207942509234 -0.4451542342752923 -0.006799420181997718 0.013132660497796341 -0.9365615475227237 -0.15955896950809964
0.169 0.35873524280820734 -0.6233144336969271 -0.26478803665870454 -0.4446095001733902 -0.025855287041382395 0.0020311513842405067 -0.9381801249679659 -0.16167072756870554
0.17 0.3553790540316407 -0.6278706884568677 -0.276178948104663 -0.4488220112860937 -0.007488550653396652 -0.015207914460670605 -0.9344007552251085 -0.14611950886731284
0.171 0.35423472411635 -0.6296477541528708 -0.28588603678732044 -0.4474864496287488 0.0077340066955266865 0.029990948900319673 -0.9385450989332401 -0.1509489096008665
0.172 0.35242258740071497 -0.6267814453768661 -0.2917114054235975 -0.44362190599453033 0.004930610685037745 0.015377407654429331 -0.9346557258160479 -0.13346402879285701
0.173 0.3492561007329243 -0.6287749277860173 -0.30283046813561526 -0.4409587634549803 0.027420111248072955 -0.0026304790275376187 -0.9265958912755169 -0.13755468141659405
0.174 0.34088058329193927 -0.6325941372916407 -0.317013534303891 -0.43324174518543157 0.004233919447220537 0.02111731164255924 -0.930332687317151 -0.12239089942868293
0.175 0.33955835562484427 -0.6259842350733363 -0.3195450933588868 -0.4244996352277163 0.02977544405539247 -0.026810501881612457 -0.9222187007200275 -0.12236124848127725
0.176 0.333408961428395 -0.6280075124111695 -0.3227372315877769 -0.41906195759011033 0.002615678074550035 0.02023185551119122 -0.9273698733492176 -0.11637656246181606
0.177 0.3317011199706055 -0.6272310065208571 -0.3247317446960658 -0.4087429377917945 0.021293129679141376 -0.005703347743840616 -0.9219116522469828 -0.12322415118407073
0.178 0.3319367904695571 -0.6265716469494752 -0.32045489883108613 -0.4068821662515088 -0.019200149760426607 0.014185435832463714 -0.9250550745834261 -0.11608952616005162
0.179 0.3255134334426063 -0.6270267869319311 -0.3188206106251439 -0.4024979360038081 -0.011825385119646648 -0.019003918989786046 -0.9290754589439293 -0.11399821458158368
0.18 0.319095984149054 -0.6283871257616405 -0.31357832515757356 -0.4024386822680556 -0.00802043441101487 -0.015804291920991358 -0.9302367227193667 -0.10436017102473434
0.181 0.31678790204305307 -0.6271662617678394 -0.3125881298171853 -0.4074657316413944 0.007689424137034502 0.02033513179429786 -0.9368058819511179 -0.09910121697679339
0.182 0.31413210752825277 -0.6289457691503371 -0.3107912722329192 -0.41305809294380225 0.00011476671284660891 -0.01886909758670742 -0.9358066762304176 -0.09455474750277956
0.183 0.3074156095205713 -0.626283752057815 -0.3140789892958131 -0.4164922664975021 -0.0006776014630629354 0.003881506793432362 -0.9291794810687992 -0.08972159529183615
0.184 0.30622958272462997 -0.6284263330331974 -0.31753637230083065 -0.42327382997018986 0.019552928348115197 -0.006381975353826366 -0.9423376969917406 -0.07401945107844272
0.185 0.30217103656720545 -0.628637239674961 -0.3170121018658365 -0.43104264160343575 0.005369728434541238 0.03110645933140177 -0.9394218644448915 -0.06487447575917257
0.186 0.29936423264189327 -0.628369340712414 -0.32606066648304566 -0.43719901930156524 0.005815084551521149 0.0189627753947944 -0.9469287058163428 -0.07058447944975728
0.187 0.2942776187874288 -0.6262098441416617 -0.3328000939785863 -0.44008580368728695 0.0016411928125693845 0.007397824070750188 -0.9430626845280324 -0.053115372916868776
0.188 0.2915433737776934 -0.6279365238763062 -0.34318286476064636 -0.44323488672763306 0.00644674738614748 0.02447975616433016 -0.9358747662457204 -0.05012038980684123
0.189 0.288441189490917 -0.6272887035037263 -0.3492928764574371 -0.453154699735268 -0.01031292231907885 -0.0013336040152947845 -0.9405822999589764 -0.0384669156623245
0.19 0.28413190592597243 -0.6274578503492171 -0.35951126044506 -0.44897910519508805 0.0042438637891956 0.01470384067000976 -0.9362665283071031 -0.03265934977765523
0.191 0.28175603421164624 -0.6268102492386395 -0.36998513774747355 -0.4579199533690715 -0.001895406020467056 0.0035086933307100256 -0.9380767950482535 -0.018470862522247094
0.192 0.27656305343683674 -0.6273118493314838 -0.37670116181219276 -0.45999086598120337 -0.0054542958283073165 0.007763950901216867 -0.9333083603465068 -0.016340392813879678
0.193 0.2734607239235273 -0.6271360863747298 -0.3918263242807039 -0.4570814051904137 -9.082908128104217e-05 0.011592376715172244 -0.9359682210878626 -0.005051885494472365
0.194 0.27004148810611706 -0.6245074580172265 -0.39969039102589043 -0.45943809491586735 -0.005426375527780345 -0.0023770518165984384 -0.9321164000246104 -0.0029321310923438254
0.195 0.26689186745131066 -0.6265829060057864 -0.40968243754264877 -0.4600637869530281 -0.008926455781459045 -0.017010200521409353 -0.9321856212325654 0.0039477067858089375
0.196 0.2663932628906897 -0.6261508776424645 -0.42580106413954133 -0.45773018123772 -0.009853246595669713 0.010142557122080845 -0.9247881091587495 0.01723891251852603
0.197 0.25904140026561595 -0.6276744383777884 -0.4383455510204611 -0.45524941945117137 -0.016450491848020214 0.004306308585002392 -0.9223514016961247 0.021138155908205933
0.198 0.25908995930653866 -0.6252372620143138 -0.4515773298956657 -0.45070054058237213 -0.020479616171967637 -0.011891696916525939 -0.9154582423448555 0.023530025828216644
0.199 0.2526675447269698 -0.624206444542573 -0.4655673442394445 -0.44036921001457263 -0.02439557640948253 0.004376922037369832 -0.9127023158450523 0.029657275776487118
0.2 0.249854530605412 -0.6245378663751813 -0.4763129427467478 -0.4344897618801476 -0.009584900687866183 0.022113048944341285 -0.9003729768728936 0.03920228838546514
0.201 0.2439833712036296 -0.6231916257311592 -0.48918023490893087 -0.42156736033988085 0.012319895270219107 0.009708420258464662 -0.8986899459756388 0.033366185079133234
0.202 0.2473058950214435 -0.6272531472261913 -0.49990704039366607 -0.40875819113918177 -0.010200134915149935 0.013843033081055368 -0.8931831602773962 0.043650446328901964
0.203 0.23967535197555448 -0.6222815582595206 -0.5107875193140662 -0.3923202957151079 0.007450707098533891 -0.01935443864551511 -0.878323404654698 0.04454521400125591
0.204 0.23493213460100448 -0.6236066492005166 -0.5135365990138862 -0.37234144575222866 -0.009810892827250369 -0.005829893914895691 -0.8788006736646213 0.04094405122088609
0.205 0.23845375000739796 -0.6233177429352591 -0.5150604679725375 -0.35769122297625106 -0.004941584234259124 -0.019423271150567568 -0.8751938327109179 0.035692983230950034
0.206 0.2285851883535566 -0.6203669882199826 -0.511742036138973 -0.3356605774129384 -0.021257652066975056 -0.019468130616562575 -0.8698443696753365 0.03222254753752937
0.207 0.22974600791019972 -0.6213452601910581 -0.5008954431151116 -0.32017980072139607 -0.0004543178851358328 0.0030091152635976733 -0.8677802236285366 0.036709670257900104
0.208 0.2216646713067378 -0.6226023470222867 -0.4906295172045755 -0.30972541483223054 -0.011108096143736444 0.015340072628340898 -0.8741489404978948 0.0297412433908504
0.209 0.22139006585189352 -0.6222647882623482 -0.47473976919450084 -0.30351431245503824 -0.018904222283406203 -0.009837035329118527 -0.8735759331435584 0.029966566528955754
0.21 0.21713556677527215 -0.6195679197305272 -0.46532545829328364 -0.2968130639555183 0.005556451900349716 0.011112438056390676 -0.8781276292940683 0.026744529004817958
0.211 0.21275240287312305 -0.622404016336274 -0.44816764247339197 -0.3010833736300694 0.0031182131305866655 0.016719377462913493 -0.885881880283323 0.03319316376351489
0.212 0.2098080782371923 -0.6218831750042406 -0.43771582323274594 -0.3058524313364696 0.014385760482632605 -0.012034206746946476 -0.8926636466971285 0.03021029028098919
0.213 0.20725422602534255 -0.6236957524928359 -0.42771014466631035 -0.3083562876611042 -0.004301601574158953 -0.02188883506322706 -0.8961404752390536 0.036323030895874846
0.214 0.203461686721968 -0.6188750482174755 -0.4206843448872964 -0.3187273201927803 0.014812000555559023 -0.012628089940281122 -0.8984381501358288 0.03798011154144468
0.215 0.2032416343602034 -0.6187118102015704 -0.4119322288892919 -0.3287195714597185 0.015167396879465285 -0.005716509378834412 -0.9049522537416936 0.04736662030868868
0.216 0.19632776851929348 -0.6136111490754963 -0.4150615015144178 -0.33374172381628725 0.002052785548359414 -0.006158137976207125 -0.9086877501356493 0.05409710642922611
0.217 0.19069368457349353 -0.6162605827257936 -0.4145441636179514 -0.34372052266517494 -0.009600880164073587 -0.028351531660065585 -0.9089081974909816 0.06213169382418084
0.218 0.19165005772778457 -0.618641416375687 -0.41380018105223887 -0.35556217161545595 -0.005332443536663145 -0.011540462481595938 -0.9176740006146759 0.07201902657136118
0.219 0.18880040792929642 -0.619609669799706 -0.41744544667005845 -0.3649803852269473 -0.015496344461695661 -0.013946391350235043 -0.9139266833084387 0.07982770192795688
0.22 0.18534862086854978 -0.616921308072856 -0.41606867597709213 -0.3707898727873399 0.0071989143232749336 -0.005766049602916997 -0.9186113508477035 0.07682655282892842
0.221 0.18344221108299041 -0.6145219340634439 -0.4221793234730846 -0.37733115758194824 0.002948079799973189 0.009628329821190508 -0.9166187977861473 0.08812693404145129
0.222 0.1781095497808006 -0.6126201884495939 -0.42397810477972836 -0.38316368729360395 -0.013477868744159573 -0.018486788158603093 -0.9130753773800292 0.0937056365462647
0.223 0.17526117186609286 -0.6137747251021038 -0.4291233038694239 -0.38889279127409637 0.013894824992867994 0.0024118136170069226 -0.9255439292417507 0.10370927612322292
0.224 0.1733421462838259 -0.6111448762389499 -0.43666387997396566 -0.3971828695904621 0.015070338606145126 -2.3292373822486854e-05 -0.9214524114282903 0.11073170992946502
0.225 0.17003864039181948 -0.6101322009187938 -0.44684546612562154 -0.4010963602238344 -0.005569964481780685 0.00478713451614645 -0.9203208966414208 0.11962699161428071
0.226 0.16834110247463893 -0.6092502012533194 -0.4445006316367198 -0.4067957626534489 0.008931887978486873 -0.016545412330338696 -0.9168920379980766 0.1308685316729766
0.227 0.16360389688611662 -0.6094484186273678 -0.45462284177157986 -0.4127933699850259 -0.008956560420277029 0.02513236088346672 -0.9149302507598295 0.13127079917407025
0.228 0.16088719500926482 -0.6079513447679237 -0.4607528095553685 -0.41572582675917236 -0.0004149564953646112 0.0061891930614640395 -0.914500870947685 0.13723927726916474
0.229 0.15728135400311255 -0.6095257218677961 -0.46611199692492644 -0.4222785323944258 -0.01279035454610731 0.0010256583583890169 -0.9177227794292845 0.14599230637317306
0.23 0.15524176915782417 -0.6085309768205952 -0.4768028316902563 -0.4227991130776475 0.007319173841338281 -0.015330472926143703 -0.9141222562317022 0.1526519767423961
0.231 0.15178709129222395 -0.6060401209168214 -0.47878214417690684 -0.4304824606717336 -0.014115530701276002 0.003626869140395273 -0.9132386953268814 0.1617949002872882
0.232 0.14835797509383905 -0.6078987218422073 -0.4885096987321476 -0.4341234856800056 0.01517976251594537 -0.006445726327910291 -0.9046836193146258 0.16948185281155173
0.233 0.14762652520023536 -0.6051098490164889 -0.49731493926118503 -0.4328020929245963 -0.00046869155672360626 -0.01381280501082133 -0.9074915574639306 0.17825158352095213
0.234 0.1425961902154582 -0.6046979486855023 -0.5027465914752303 -0.4378798922935965 -0.01878980379890672 -0.010254062177472696 -0.9069045965382303 0.17687583545588828
0.235 0.14087274644510964 -0.6033011580201315 -0.510548679527487 -0.44147749186818347 -0.006093302738034958 0.008297384272171632 -0.8993999770374798 0.1903651967875511
0.236 0.1371706801153245 -0.6032587305930361 -0.5209892306126788 -0.44317793914035614 0.012900464395242006 -0.002610620876350022 -0.9002901293948882 0.2042518696513889
0.237 0.1352388809523485 -0.6019213066928296 -0.5264072777803201 -0.44703953964939647 -0.012545747331449138 0.01067832355005624 -0.9034781032274772 0.1979015835221736
0.238 0.13341581640653075 -0.6019591954592516 -0.5363364211559105 -0.4484663235094465 0.0009495799293047078 0.014893193212849324 -0.8939922634431349 0.2068230496309149
0.239 0.1299615373208735 -0.6023245213081396 -0.5457827746843772 -0.45226626703304607 0.014564690092741193 0.0036999867063858866 -0.8895653025323423 0.21155806605295518
0.24 0.1260635595708064 -0.5990041750036582 -0.5520332083620155 -0.4503260325687359 0.007807234507896525 0.002526729886480579 -0.8935629316563696 0.22495722631454237
0.241 0.12158950738223136 -0.5984150395705611 -0.5614250613127749 -0.4489256247134273 0.004043251601742008 -0.0010165006405246854 -0.8793675396263766 0.2283699533423558
0.242 0.12116266574959428 -0.6002595868913572 -0.5753927375102191 -0.4477188494302034 0.0011256242882600718 0.00025094649877693473 -0.8839106047146331 0.23808598786883983
0.243 0.1174099222319857 -0.5939290811421422 -0.5797403284007219 -0.4569209959710352 -0.003103163760270349 0.005331537062202402 -0.8869995800275953 0.24132075838440795
0.244 0.11421460452017451 -0.5968423467905262 -0.5880966582352684 -0.45821240065985364 -0.011617696435743655 0.0045892733179419025 -0.8834548094380512 0.25230671337833244
0.245 0.11317998044914412 -0.5940664800066172 -0.6036431193378979 -0.4561484171786869 -0.005333664394803146 -0.0034145295272954464 -0.8760475579837133 0.25863185522513366
0.246 0.10992596862200933 -0.5956579138935938 -0.609683500186045 -0.45018630082502353 -0.006081095019426181 0.005720937630530712 -0.8633733395172135 0.2658018063349517
