!Created with skrf (http://scikit-rf.org).
# GHz S RI R 50.0 
!freq ReS11 ImS11 ReS21 ImS21 ReS12 ImS12 ReS22 ImS22
0.13 0.5284233162521396 -0.5947675107755374 -0.055341346826526736 -0.2307331529540772 -0.006147534647739204 0.0034900300295758577 -0.8655494685806385 -0.4520611377668605
0.131 0.5198392059615792 -0.5925821764061361 -0.05645120189756968 -0.23266343216910199 -0.02394725000841331 -0.04259054986455919 -0.8655661264759629 -0.44572850167624917
0.132 0.5208364035154601 -0.5896288882935354 -0.058891020444574345 -0.23644447336631985 0.041959499170904815 -0.005055144142676139 -0.8758535626816406 -0.44801079261424076
0.133 0.5115566577607337 -0.5936567422181007 -0.06127723010117453 -0.2368607966311188 0.008166193185896032 -0.03357809859609885 -0.8782707192029261 -0.43136298261270334
0.134 0.5078422226006075 -0.5973668600785719 -0.06283609363517789 -0.23901636473449114 -0.005994314421035004 0.05032419805307707 -0.8784453387445842 -0.420399690382109
0.135 0.5042852385353558 -0.5953152461453096 -0.0671626241167702 -0.24083974688663173 0.009756730510087267 0.01254344741291796 -0.8848651055558224 -0.4169974705824329
0.136 0.5017515921480744 -0.6011776432976838 -0.06929237050686946 -0.2419400313123892 -0.010016722330252784 0.01127756212669029 -0.8870655454148613 -0.4072008339272484
0.137 0.49617079110304724 -0.5974353616778827 -0.07065583298605649 -0.24275519318444552 -0.03023202776358505 -0.008613563453304744 -0.8855104506744561 -0.3932226062945733
0.138 0.49070587610987304 -0.5976562101843839 -0.07327671452628712 -0.24561964167798234 -0.0016694457284146865 -0.02356288131360227 -0.8913460202237875 -0.38350568572785826
0.139 0.48570663167857686 -0.6019574724662293 -0.07590882602014647 -0.24740847492528548 0.020100031946226452 -0.03615907599849392 -0.8906110781845753 -0.3864009590328288
0.14 0.48086651454710566 -0.6051555673246176 -0.07881114370178373 -0.24914729945964031 -0.023296131101602176 0.0009214141886794964 -0.8937955072055199 -0.37525608112602177
0.141 0.47720944330320525 -0.6078666788885444 -0.08078426637250116 -0.2525923314685951 0.005320525048357598 -0.04260202152102812 -0.8947501347517327 -0.37041270807606624
0.142 0.47385735954297825 -0.6073896861444074 -0.08255427283657299 -0.2514996335446283 0.01512435957768027 -0.03563796459074748 -0.9093621981583767 -0.36119220508677685
0.143 0.470266924155798 -0.6068234900421403 -0.08463875634094267 -0.2545441407183597 -0.005569214210675662 -0.02253082547154533 -0.9089492527363067 -0.3508662002245041
0.144 0.465427259816423 -0.610534443007718 -0.08972141876508499 -0.2542427803161366 -0.0027971005654621396 -0.003139985284670762 -0.9095009433781545 -0.3485807504240658
0.145 0.46182037357944644 -0.6119732336105598 -0.0918674330414735 -0.25716643824204527 0.025850151150212847 -0.04996015015945427 -0.9134865492523284 -0.33231745388892386
0.146 0.45755753664483134 -0.6100803871957492 -0.09455646869692018 -0.2591026076330585 -0.004930342123130231 -0.03540948414658177 -0.9121072455388908 -0.33074419147657236
0.147 0.45352587702572267 -0.6123363378774148 -0.09629011831184857 -0.25881102980336007 -0.020565241951000752 0.04156882797155743 -0.9128599876381489 -0.32496796828455765
0.148 0.44854885073551104 -0.6111952257003747 -0.09844141723347004 -0.261734650082954 0.043902818935702984 0.014694361606251576 -0.9140281841537923 -0.3122275834092434
0.149 0.4434353043777364 -0.613602097637488 -0.10353000294113483 -0.26275903604445233 0.03509044693028724 -0.0020090385569961557 -0.9162740642631033 -0.3049153299862996
0.15 0.4399323377275669 -0.6140807678079111 -0.10545691998171967 -0.2651283754952723 -0.013640208889731083 0.009347539050615748 -0.9233291522346462 -0.2985735460875123
0.151 0.43589288499419326 -0.6137752674587453 -0.10630136162832933 -0.26610486111127646 0.02406070302320555 -0.004733293739564133 -0.923209069165875 -0.29568893676940994
0.152 0.4301114032139354 -0.6184150063400681 -0.10894878240475926 -0.26804281962960175 -0.02901155277483341 0.023809935740658105 -0.9230883230208115 -0.28476148677236823
0.153 0.43359325559387596 -0.6160179959668663 -0.11345826339047092 -0.27132543309605034 0.014335840682839577 -0.026692606295993005 -0.9377038011091224 -0.2743788057560928
0.154 0.42202307502547726 -0.6177252157079237 -0.11540867783335727 -0.2701385750910483 0.004628077154140086 0.03482114571318492 -0.9296008347163189 -0.27006261915404783
0.155 0.4177258382499693 -0.6170232710234383 -0.11945170510798714 -0.27186600948537776 0.036842578941557645 -0.0013439512202602724 -0.9272740325489806 -0.25962535128684394
0.156 0.41347990148699015 -0.6214681488860261 -0.12132151170040688 -0.2748197337426481 0.038141238400103354 0.012787339146932634 -0.9369027856760376 -0.2545694772165573
0.157 0.40913191459234466 -0.6176127797833785 -0.12351712515691833 -0.2752789538083972 0.004153407641877393 -0.004140887201393276 -0.9286446508957594 -0.2571213549134529
0.158 0.40637992031771064 -0.6168360751823538 -0.13014985745974558 -0.2791266274386144 -0.007985731849196811 -0.02344898791826132 -0.9281928526778401 -0.24268120922138914
0.159 0.3999482911786165 -0.627171902941217 -0.1318220938985821 -0.27970676237489184 0.016577707213717714 0.009606122041306833 -0.9353823134571182 -0.23695778600000994
0.16 0.39709616083528815 -0.6221002360060557 -0.13543207891818593 -0.2810110111224754 0.009034667631632057 0.020410170435270852 -0.9323889783227634 -0.22206058091624922
0.161 0.39789012712099797 -0.626109066070559 -0.14102925523121362 -0.28425112522227636 -0.02568325946736361 -0.010331718616734842 -0.9411249839969197 -0.217443843645889
0.162 0.38845764567141333 -0.6237960918577875 -0.14176903463362006 -0.2850627665531896 0.019647070602403668 -0.047568343461081984 -0.9373772542063072 -0.21383359626817897
0.163 0.38630143586773125 -0.6236083583248385 -0.14688306143950106 -0.28623282572936887 0.03410487769275075 0.014638550349226856 -0.941839729400288 -0.20645099684508872
0.164 0.3825372432227148 -0.620418053577443 -0.14960088443338543 -0.285730193014172 -0.02131641466763548 -0.019950093091054836 -0.939557509766576 -0.19386365979528233
0.165 0.3793809777903457 -0.6262487143976888 -0.1556346559013232 -0.2896641496716288 0.011522130214304878 -0.014072688038845246 -0.9358065994037421 -0.18964471405132916
0.166 0.37808397639948527 -0.6196494488438958 -0.1614065813133953 -0.28865457073666057 -0.02107498466716999 -0.00018378337302266004 -0.9406996619939599 -0.17923491067286582
0.167 0.36864825887778435 -0.6250220814361322 -0.1645482481973179 -0.2898780235381395 0.0329989254008786 0.012241241945602504 -0.936710577098768 -0.17881182485530756
0.168 0.36358069665306614 -0.6262296502639878 -0.17087155837189608 -0.2902427662433387 0.04727982280286951 -0.014586387097544841 -0.9356615293526563 -0.1623930585929957
0.169 0.361603149055011 -0.6200628369072068 -0.1757033544222131 -0.2888508815268729 0.017593502344263028 -0.0017990546936316918 -0.9392324675574834 -0.1592056221705924
0.17 0.35353312094359607 -0.6279372419433703 -0.18340817360944822 -0.2891924505794808 0.03972675602625701 -0.039419383286269406 -0.9372343328388341 -0.14926843500871653
0.171 0.34974276212771066 -0.6279179100632134 -0.18858330452980127 -0.28884981495302037 0.006851100117126095 -0.03201620071829468 -0.9334375581861035 -0.14852784001664576
0.172 0.34667592563983307 -0.6261598246764284 -0.19500889030109655 -0.2861286451431182 -0.004927768485036207 0.02312826405793545 -0.9300106341854545 -0.13371607364344867
0.173 0.3465990160797943 -0.6293955581450335 -0.2015998121896479 -0.2845185393590772 0.030065264464751475 0.015297012839814822 -0.9252456082949255 -0.13978862207941967
0.174 0.3390484614037985 -0.6328386043276062 -0.20708101345671862 -0.2787506200315299 0.002866412876163192 0.012746239004921694 -0.9288955499987707 -0.12473913081642475
0.175 0.33599109218412515 -0.6293505368736059 -0.2126865847453662 -0.27103574869101593 0.03139743490057745 0.002744672403895565 -0.9224922208739632 -0.12261307245647564
0.176 0.33312181865092855 -0.631014060176446 -0.21350053090792184 -0.26604744099435207 -0.0071734627325390436 0.04383551611845827 -0.9256300211071268 -0.1166315466934528
0.177 0.32781189781279196 -0.630569153140232 -0.2141119907957986 -0.2617225574839798 -0.009267702228666488 -0.026408495063389638 -0.9226904394551246 -0.12530081896394757
0.178 0.329621844063983 -0.6296625275961728 -0.2115928445254754 -0.259749552606709 0.018480604517844217 -0.01739573778155953 -0.922485700832511 -0.11808282016221221
0.179 0.3212472364404101 -0.6273834653073894 -0.20818108656188625 -0.2561198270682769 0.018316062266087427 -0.004811125979241776 -0.9262590908192632 -0.11338327833227052
0.18 0.3153989481286222 -0.6300519602359024 -0.20534306588588797 -0.2555239922235324 0.004135150983214786 -0.0013663848839302716 -0.9259557211601862 -0.10266972170707517
0.181 0.31330093334592196 -0.6277604862455263 -0.2053230044418662 -0.26006644713282 0.0024622082891339768 -0.014616783408134243 -0.9348000761334496 -0.10137353726216593
0.182 0.311471598040743 -0.6292726801061234 -0.2022168233848239 -0.2630115462999064 -0.007451023846807569 0.007732658432669739 -0.9343007956323607 -0.09611519270109037
0.183 0.3050822156228069 -0.6289400277164576 -0.207316668162582 -0.26372139136212447 0.03725785397785735 0.030242929851588937 -0.929577600743238 -0.09084534737023633
0.184 0.30120779931392605 -0.6328642437384475 -0.2074919899141377 -0.26682464362815783 -0.005287021687960602 0.010649888257475834 -0.9443671142506903 -0.07412092834828679
0.185 0.2972275883220064 -0.6285501539715336 -0.20881917431933616 -0.27196086828799265 0.017806392552729644 -0.0037731632333417434 -0.9373964614085325 -0.07025628242637005
0.186 0.29777546646624964 -0.6304039376750987 -0.2122144566325253 -0.2743237545348327 0.014723590681550576 0.06216283670664076 -0.9425705348428438 -0.06880555012217993
0.187 0.2911377160955574 -0.6290877736573244 -0.2171254174576419 -0.2787747745134491 0.029238463152416995 0.018642691825520655 -0.9414353638674638 -0.05301542508652905
0.188 0.2875297551712461 -0.6284407595204865 -0.22275188087940206 -0.2819486129276377 -0.0249228985661151 0.010118936749975313 -0.939311648898018 -0.05146659881764014
0.189 0.2849807094848317 -0.6286609416917776 -0.22840678633052258 -0.2848107072467606 -0.006027001449974418 0.029129957278179214 -0.9355318194155553 -0.036186237316730194
0.19 0.279600219487146 -0.6288764008151744 -0.23385876682939824 -0.28372373109960597 -0.018734639970826462 -0.0014649162690414056 -0.9376925121073089 -0.02814706046441295
0.191 0.27794050419092065 -0.6277281126605598 -0.2409261327259455 -0.287758913845114 -0.004255636858105556 0.012887919963521104 -0.9393299147555133 -0.023509511646600978
0.192 0.2729995060168594 -0.6289843969868052 -0.2444664219395456 -0.28930896074944423 -0.020772942803242885 0.012105219298448221 -0.9315998608737669 -0.018390075066412857
0.193 0.27026171255719117 -0.628640145456671 -0.2547273541414584 -0.28755819310567143 0.01906188354775376 -0.00983574031000626 -0.9291410661753972 -0.007253500923680803
0.194 0.2657724669894268 -0.6250236826262462 -0.2598993688002572 -0.2889400279384321 -0.018986125628225266 0.0007271334257854923 -0.92618721688628 -0.0015303741750141893
0.195 0.2636025527580758 -0.6285340944714143 -0.26593154225517635 -0.2883179957065253 0.012029416640030573 0.03400746038050534 -0.9248309065714546 0.0082245492656872
0.196 0.2626976400479442 -0.6253873386509343 -0.2767166198339648 -0.28683785314706334 -0.00883872345814745 -0.003010309966721644 -0.918801331602212 0.010624216778176493
0.197 0.257122336316579 -0.6298182866226306 -0.2841065161708712 -0.283751203481045 -0.022913871317252355 -0.015175407347223 -0.9213643582181709 0.014934956956121015
0.198 0.2544785980797469 -0.6248032496354726 -0.29314613618470686 -0.2801005726186502 -0.004669325402460448 0.00026060005395114985 -0.9135994348686033 0.022326480601623826
0.199 0.24706300799911107 -0.6249690287756435 -0.3006119177547182 -0.27414104576700965 -0.010739872235468864 -0.0007793506488413029 -0.9061982171365387 0.0254562174398199
0.2 0.24281852698247572 -0.6265105959698735 -0.30724886494411513 -0.27052236864793944 -0.01808450108790128 0.00048805888190422606 -0.9020633931784209 0.032575250613905114
0.201 0.24106280340282835 -0.624442532031079 -0.3149714350974848 -0.2617886559082035 0.0075728821780837955 0.012904765793389427 -0.8914146139992956 0.031495110931320146
0.202 0.23905463570722157 -0.626341240243766 -0.32036318375766587 -0.25330096190900403 0.015374002994219796 0.008106232043553568 -0.8893192266995859 0.04037744750105572
0.203 0.23380015775857754 -0.6227403742556274 -0.3264231355160094 -0.2412292610068451 -0.019115868097484487 -0.002716462601718068 -0.8779015541588946 0.03988455435948846
0.204 0.2311369135638587 -0.624005062364665 -0.32721428555591164 -0.23076786771134478 -0.0037501107049919147 0.006963060693180136 -0.877684773861851 0.04187928606021321
0.205 0.23426204110129903 -0.6240159624195585 -0.32920033567391577 -0.21722407823508427 -0.01381217324799684 -0.013258506942487567 -0.874528614904928 0.0379327516315028
0.206 0.22753653455503794 -0.6204933963003406 -0.32560885011230395 -0.20889833099600275 -0.0105254291990956 0.0006747374960649512 -0.869693869998907 0.030573159871611105
0.207 0.21874481288783476 -0.6227224120520779 -0.32081501629928977 -0.1979778892144462 0.028965340532816995 0.016734156044341243 -0.8713006433404871 0.030914958287268916
0.208 0.21952762235417625 -0.6222820589579884 -0.3126801099279779 -0.18961297929061607 -0.011743677832756353 0.00036648565947643163 -0.8740201873236562 0.024422377394312463
0.209 0.21427935547691418 -0.6229880266740601 -0.3026852983619667 -0.18632133898925005 0.006263818034335059 0.022091337033639375 -0.8749579640649073 0.02511178824518323
0.21 0.21329699749210126 -0.6200980100442769 -0.29459241334858705 -0.18428348605494205 -0.005209742553577774 0.008939189611392274 -0.8774983029361191 0.025693281809431198
0.211 0.2087088850143571 -0.6252622242327536 -0.2845614399374902 -0.18237559371646403 -0.0011522608478236754 -0.02030124589755619 -0.8863612963159291 0.03204560871626124
0.212 0.20504972190818524 -0.6206858353809003 -0.27714905327191464 -0.18677719669403425 0.00668328209210231 -0.00542039651083823 -0.8923498983950834 0.03227911355142226
0.213 0.20222199669425844 -0.6241944918156062 -0.2704176171454984 -0.19057712206923655 -0.008632620456290874 -0.0013056896019395289 -0.8964736939468596 0.03320885784362492
0.214 0.1951500278634891 -0.6170665642675065 -0.26486922577750316 -0.19511258509065474 -0.0007171510655352468 -0.01742123383217499 -0.8972236921808989 0.0386865477874947
0.215 0.19678925689856505 -0.6195411963656102 -0.26360739643965386 -0.20141989453110076 -0.011391004081352785 -0.004439865704072609 -0.9018730659541953 0.04571579515904355
0.216 0.19196090596008109 -0.6134561232481296 -0.25883089203676635 -0.20288460035507286 0.0050201374136092745 0.008312825504395679 -0.9087724393849131 0.05249070141033028
0.217 0.1872838708915352 -0.6201085881566282 -0.26170129911818935 -0.2079534304919983 0.012269907423919342 -0.01780550513651569 -0.9120499070077603 0.05968077342675287
0.218 0.18683318424852338 -0.6164622892477845 -0.2608241225282329 -0.2160481531190721 0.007287548908074259 -0.004725036915129753 -0.9154541003237178 0.07009242815332108
0.219 0.18402622345181857 -0.6161041041810718 -0.2615574751535824 -0.22190862835911968 0.0048758681838848685 0.013035631231588277 -0.9165853045710896 0.07808905325927686
0.22 0.1801771990173571 -0.6156519894877167 -0.2611382990305871 -0.2248304777751202 0.012932276021347392 -0.010582314070972805 -0.9166615032964551 0.07805125570730909
0.221 0.17599130869893914 -0.6144075381918631 -0.26564336376452297 -0.23027280205277234 -0.02044902217456749 0.01443767840181345 -0.9163507505942039 0.08564322865324843
0.222 0.17493107693680074 -0.6159142633386437 -0.2676311813577916 -0.23329385039995945 0.009878179382570804 -0.012426886588258293 -0.9181893334497219 0.09869198967623848
0.223 0.17149413996603205 -0.6130795933436143 -0.2690917321802696 -0.2353369645552322 0.00610184069443198 0.0072023005447992275 -0.9212025403858549 0.10230759641747862
0.224 0.16747680616024907 -0.6101517742250385 -0.2731442462835121 -0.24113391389898445 -0.008985907952560792 -0.015702250005327618 -0.9161076214934688 0.11463708212428152
0.225 0.16436322841718917 -0.6114496197086807 -0.2802568756726183 -0.24316623147398383 -0.0015013340070378026 -0.006071345385423759 -0.9182232712486582 0.12101328715451717
0.226 0.162649513385637 -0.6081712721392649 -0.27809393800688387 -0.24603939474698072 -0.006205338295895273 -0.020078382819787546 -0.9147822194007295 0.12491328630589102
0.227 0.1586088211658622 -0.6103656786259387 -0.28340478038726713 -0.24968364607586566 0.004043014556710523 -0.01421801642879247 -0.9171088086619619 0.12618002722011432
0.228 0.15532582281172716 -0.609437437824137 -0.2878496718079298 -0.2508790552365805 0.004968568830730189 -0.018389885372708963 -0.9157142038743407 0.13408861890106463
0.229 0.15285772315542928 -0.6100173640087396 -0.29077267087113395 -0.25407399601289216 0.009461070148418932 -0.010250496144531667 -0.912686218185426 0.1448988701350247
0.23 0.14970975188101995 -0.6093034218462303 -0.29653895268698505 -0.25408288148485547 0.0024908606320056376 -0.011934610564749731 -0.9115960432820295 0.15344828366966712
0.231 0.14824193908262873 -0.6074282733535133 -0.29854469309262693 -0.25875423628411137 0.01981346286198825 -0.01439934082258332 -0.9080446915401178 0.15982743661366552
0.232 0.14308954241958902 -0.6077440980694596 -0.3041163305949788 -0.2609935843339643 -0.00946370490537563 0.004082359695246094 -0.9044032731206088 0.16099731024433506
0.233 0.1427559798568795 -0.6053514730952192 -0.3085980148740945 -0.2603156616947664 -0.003201557734656889 -0.0009037502280330113 -0.9032489143025986 0.17107633463364524
0.234 0.13836220702062924 -0.6055039051709719 -0.3111289761501237 -0.2630979506583365 -0.005653772885494858 0.00804749930185956 -0.9035216196194981 0.18497169612720915
0.235 0.13578614796771077 -0.6034277312938984 -0.31755973154952594 -0.263524858285309 -0.00640714175892455 -0.01657081040194241 -0.9035244520185853 0.18807344444680632
0.236 0.1328241485248918 -0.6032161206727655 -0.32333726677058033 -0.2645421750530973 -0.01363649281306194 -0.007565443666638294 -0.8989637362818585 0.19538290494047325
0.237 0.13060842235871373 -0.600190593590912 -0.3268873811053664 -0.26571517446162995 0.021852834204418917 2.520036302057941e-05 -0.9042806951949387 0.19418728963668747
0.238 0.12945100632938292 -0.6018682429709243 -0.3329977440945417 -0.268478523494996 -0.009443079918899895 -0.010594006575882893 -0.8926772310357202 0.20533091376778542
0.239 0.1261326637522414 -0.6027533982871862 -0.3363009311900706 -0.26905794698200336 -0.006042660312749753 0.008307630816740361 -0.8919392381868293 0.21230599733206174
0.24 0.12152588722774837 -0.5984467992349489 -0.3432021334121222 -0.2690936258148291 -0.012730755129486519 1.8051991425627376e-05 -0.8906179011392988 0.22158224608062044
0.241 0.11875210843001027 -0.5988498359292701 -0.34756231151165334 -0.26636732358487575 0.0018184593653691598 -0.0045496435571059195 -0.8833658791233563 0.2240464514283575
0.242 0.1134775049560212 -0.5998695857262685 -0.35536412940833767 -0.26669894314776754 0.003111232795257641 -0.007991817175475726 -0.8797526238423861 0.2363954853725527
0.243 0.1122717296944881 -0.5929613909659698 -0.3589279637597659 -0.27108489939779024 0.00047496715852598674 0.008235538691974428 -0.8839124742780893 0.23993985206150173
0.244 0.11120720304286612 -0.5962757548422951 -0.36571434107436934 -0.27084661129871723 -0.0006718619919341484 -0.009526956808301278 -0.8811538943029465 0.25115731844464007
0.245 0.11014740482699092 -0.5941014257576684 -0.37340627790977693 -0.2708264955022416 0.004642827648711972 0.002880032894592254 -0.8754906374116895 0.2583917733872348
0.246 0.10407150717558326 -0.5957500722759856 -0.37602225388855454 -0.26883334862169056 -0.0023934109877602177 -0.010986597040176346 -0.8654093908560895 0.2622573866257992
