!Created with skrf (http://scikit-rf.org).
# GHz S RI R 50.0 
!freq ReS11 ImS11 ReS21 ImS21 ReS12 ImS12 ReS22 ImS22
0.13 0.5281725326639484 -0.5915065268012418 -0.06536414289284684 -0.2839265054522476 -0.031941613239706054 0.010010996606478372 -0.8654230802031403 -0.45003731019350174
0.131 0.5236265901215046 -0.5935152653070452 -0.06651991708817682 -0.28592001147857043 0.0510708568546586 -0.01128833285971258 -0.8700197125194473 -0.44535078585922766
0.132 0.5229379129741403 -0.589265028918621 -0.06870057763831688 -0.2910152037344766 0.04896599250575745 -0.05493147613973355 -0.8746413692835963 -0.4414212382224273
0.133 0.5113041958715694 -0.5916791496190528 -0.07250309537148329 -0.29156811145018924 0.041057569312455765 -0.042971238882115875 -0.8793500276077578 -0.42873948160501785
0.134 0.513438361222937 -0.5978394608660541 -0.07428618938451542 -0.2941982898528538 -0.02553060851748742 -0.012400866668701806 -0.8803326385464001 -0.4206561164681606
0.135 0.5075535163214197 -0.5948711656005723 -0.07899330707341404 -0.297471780501942 -0.005818732088315433 0.01640291047341862 -0.8870309172175629 -0.420958715161193
0.136 0.5033987785041003 -0.6023819293975289 -0.08089647272848477 -0.2979521919277403 0.020034135956259795 -0.03119118891628211 -0.8874647527073849 -0.40900276656368734
0.137 0.49583997737048446 -0.5962472726264633 -0.08471658006274965 -0.3010578406455687 -0.008082190993229122 0.00947703154460541 -0.882706443129396 -0.393119469468975
0.138 0.4940644355949964 -0.5993697260701485 -0.08648420050817841 -0.30354845358589366 -0.012088666367415766 0.014033986754461878 -0.8921791917691133 -0.3866651402424035
0.139 0.4883407835337993 -0.5997451474590015 -0.0900265959139943 -0.3065784732871464 0.0244020157139843 0.018304135913907 -0.8912602245037531 -0.3844147300277612
0.14 0.48292252244276496 -0.602498481412909 -0.09438978081845574 -0.30820815832485965 0.005371724813172793 0.015433172234255768 -0.8965364166029612 -0.3782523935792791
0.141 0.4777689029067008 -0.6050423273285941 -0.09706324798279671 -0.3118476117159627 0.00710081720223945 -0.023399645329774364 -0.8916012853560802 -0.36613133098524847
0.142 0.47649086804791213 -0.6060359775823938 -0.09875393821577613 -0.3124188097422829 0.0036748086794298604 -0.010828306792491322 -0.9087927654019667 -0.3627526902052019
0.143 0.471973828021631 -0.6057875282518461 -0.10292724368431207 -0.3125976319267993 -0.051842937580079115 -0.0264233055963423 -0.9091361484317922 -0.34997193059397513
0.144 0.4678753265184989 -0.6098596161451352 -0.10701035931068197 -0.3167691290376132 0.002429957709936066 -0.011349472800417175 -0.9059127348809114 -0.34721720735703177
0.145 0.4629997576585205 -0.6110543706157218 -0.10894472552648428 -0.3202009358567629 0.0004689074823961147 -0.03086135956621341 -0.9151917772012615 -0.3309738543915173
0.146 0.45870115714624704 -0.6091780224173577 -0.1139430522157714 -0.3212912041607781 0.052388047315698474 -0.02172640835907659 -0.9131885260031506 -0.33344638536429905
0.147 0.455106764605945 -0.6109268402469819 -0.11571620951563896 -0.32282318575083035 0.007489353638557949 -0.06376989355976345 -0.9127739801682961 -0.3226698021288052
0.148 0.4491685658414054 -0.6110595723103072 -0.1198768807288521 -0.32694178487710324 -0.012607380831706318 -0.024958500258303786 -0.9151964273853532 -0.3170246432826889
0.149 0.44468040790434826 -0.6115996263090272 -0.12327132049827418 -0.32772159231509124 0.006910488399596772 0.0033240794487475185 -0.9191603494015188 -0.30159623033651867
0.15 0.4422696560821252 -0.6134441174644244 -0.1279929525194409 -0.32933758873726854 -0.006722028779740775 -0.013776536147778006 -0.9242610016520205 -0.3018867323712117
0.151 0.4369151142924667 -0.6121709768844101 -0.12939865976341763 -0.33280209526856325 0.052214600314994426 -0.005034179442487824 -0.9196770497261179 -0.2976038127187449
0.152 0.43244168897606733 -0.6165010108154279 -0.13219021718819174 -0.3350513209659162 0.014804659829003853 -0.0611242040713427 -0.9302634213777288 -0.2849074058959449
0.153 0.43086780218942294 -0.6173748897084957 -0.1385444066452989 -0.33973565731967087 -0.017020876815279494 0.049537733411316454 -0.9356259183728504 -0.2743537379161169
0.154 0.421724561157495 -0.6198772831022111 -0.140253799229452 -0.33862707457848834 0.02006871769029931 -0.004030813203278968 -0.9307054091300379 -0.27051723394603633
0.155 0.42195043048923997 -0.6165846450105348 -0.1471931745936269 -0.34131845457771753 0.039019052260230794 -0.008713829722848421 -0.9283819740356742 -0.26525712657576994
0.156 0.4129926958306331 -0.6225779431262478 -0.1484381744489473 -0.34252216618072995 -0.023202491915053556 -0.013210874130551631 -0.9319715764060414 -0.25637137012639444
0.157 0.40895365797935146 -0.6210375809985503 -0.15193974070633248 -0.3444376491972866 -0.01988916601958968 -0.023714003156863953 -0.9336754042600016 -0.24763828007665997
0.158 0.4058556965360773 -0.6206558317927515 -0.15962931901254993 -0.3502407805356199 -0.010530404240171515 0.01597497850784188 -0.9335576250660209 -0.2431029298765649
0.159 0.402773312530947 -0.6243381055853797 -0.16027511422566937 -0.3512852670353172 0.025831944348781832 0.020383996849400274 -0.9334684648331643 -0.23483182643195458
0.16 0.40001439791912713 -0.6213405489560957 -0.16637554103236926 -0.3539899650435235 -0.012855035097936469 -0.0007621549574489163 -0.9405907728651755 -0.22081741253361975
0.161 0.3990552427472148 -0.6211181260216617 -0.17259222414764308 -0.35661765091728675 0.004406209907892859 -0.00016624129395135718 -0.9427172054701737 -0.2179906489816869
0.162 0.39051242337717057 -0.6203155664206484 -0.17495740707680235 -0.3587060606627819 0.012410563359838015 -0.015321482723891602 -0.9353583576777448 -0.20942351822728492
0.163 0.38821387342985203 -0.6254752651667036 -0.1810624213455842 -0.3606904244999617 0.04181372473744965 -0.04520093879396966 -0.9403845164325062 -0.20583597391739966
0.164 0.38396781683857395 -0.6196978505533616 -0.1841415078560193 -0.3606857991826241 -5.2544454796578304e-05 0.016126676625073635 -0.9430326012952372 -0.1993917179685327
0.165 0.38041533496922486 -0.6269480355624643 -0.19068219687898816 -0.3652547581378501 -0.02650084970875746 -0.012645755368296494 -0.938775155138907 -0.1909647416753389
0.166 0.3744496184580866 -0.6262377116034873 -0.20019929631549915 -0.36523888833378954 0.02211985745341563 -0.02470084063878699 -0.9383305520373719 -0.1806796614538227
0.167 0.37411301464920366 -0.6229137925605417 -0.20356460821110506 -0.36664692193382165 -0.013652033182049253 0.022668818826869663 -0.9365458665199146 -0.17765655866326535
0.168 0.3634299823927138 -0.6294584568708348 -0.2124588075245243 -0.36668166512951744 0.010227348552183579 0.019781052214145944 -0.9381341377440828 -0.16058043359270885
0.169 0.3597594203252922 -0.6185763552687451 -0.21844764514684228 -0.3655109961592382 0.033625803235992464 0.012225455335499886 -0.9379640526080774 -0.15716757590824057
0.17 0.35753292300183115 -0.6257261946395888 -0.22866000471189804 -0.36786772172429083 0.009768703579417214 0.012700857026501934 -0.9371528782028203 -0.1498538924775895
0.171 0.3523018953479287 -0.6282200515451816 -0.23439834513331573 -0.36707956113903295 -0.002645445785762202 0.024187639918548443 -0.9351023021109193 -0.1474347725227672
0.172 0.35034283265864125 -0.6269406541695315 -0.24127568784603465 -0.36419989435882805 0.028321136797630146 -0.018761691909754658 -0.9336603903361383 -0.1347530484636136
0.173 0.34958701800062936 -0.63343211143107 -0.24985714560888903 -0.364095498417293 -0.021630259008615177 0.014154756050106522 -0.9248055197279726 -0.13678973307208192
0.174 0.339742832053408 -0.6287011529685573 -0.2587652650137586 -0.35696647577117563 0.01068593634826382 -0.01114168426377953 -0.9265909320526002 -0.12231468369255116
0.175 0.3354021824923284 -0.6269767830570937 -0.26233935854934604 -0.3476288437564506 0.012944819809915112 -0.03218207348426917 -0.9237602393883433 -0.12283659710976261
0.176 0.3318578274080619 -0.631405832596648 -0.26658243981368407 -0.3418574298711007 -0.012147007108468963 0.027525535417615363 -0.9265725878493958 -0.11679447235961975
0.177 0.33377384995228637 -0.6300214530341262 -0.2685774734253475 -0.3355610745156525 -0.011466724938923053 -0.005943171801273746 -0.9239141258462904 -0.12360566305357848
0.178 0.33091132654831146 -0.6269871957382963 -0.26326989035836806 -0.3342251149707927 0.00527509287110823 -0.009536511124348303 -0.9233654728996693 -0.11664042062190612
0.179 0.324233641654269 -0.6275336152381958 -0.26142360221171906 -0.32918450740092386 0.01711643464914013 -0.0026981801600508074 -0.9270557498016138 -0.11476042672074932
0.18 0.31988068467128933 -0.6272685093768392 -0.2554520098661036 -0.3289281424784809 0.0035583475678839464 0.0013512233468470762 -0.9284415527766624 -0.10534596727215172
0.181 0.3116738848668556 -0.6276217599877085 -0.2550394777658729 -0.33354397472195296 0.014788066936580906 0.006410495990189702 -0.9338073957481591 -0.10146068667516772
0.182 0.3143754508214007 -0.6301180268877469 -0.2538996542895052 -0.3353417684249931 -0.00017902842097051807 0.008234335226373865 -0.9354794805668254 -0.0945016868310898
0.183 0.30803963297625225 -0.6267441457364649 -0.25715232761886886 -0.33927289103638847 -0.0010926257617096076 -0.002246699998464221 -0.9286164573781034 -0.09103128260349448
0.184 0.30054522149276663 -0.62826957693064 -0.25882005176233813 -0.34517883480657413 -0.007592303415717894 0.03138812373680645 -0.9410763760603562 -0.07318026821466402
0.185 0.30147158166047106 -0.6289240701984881 -0.2617330023046491 -0.35109169382679645 0.006977995487415404 0.017164246137017572 -0.9355974755247405 -0.06728624234384344
0.186 0.2965394946034566 -0.6280532431543723 -0.26693131596735303 -0.3544175975172388 0.0010587339646631786 0.019082282662249598 -0.9435357324136792 -0.0718950024923367
0.187 0.2927298811458959 -0.6295358829604525 -0.27169599732943067 -0.3575563632603675 0.003918183566712712 -0.015578339093480333 -0.9390349349556987 -0.057241625604724664
0.188 0.2899491321366472 -0.6288156938245126 -0.27824966291180264 -0.3623358287901725 0.012700242289243035 -0.010770292617982269 -0.9368357322782265 -0.05235953509593321
0.189 0.2866564903341193 -0.6276178758519693 -0.28596209470425016 -0.36653517475356107 -0.00800855875852039 -0.0010973165707401544 -0.936789483236942 -0.04127243890605716
0.19 0.28240404744677494 -0.6286015715603969 -0.2952881068960279 -0.3666820878247977 -0.017088776192709383 0.0060287546157404585 -0.9375458954698931 -0.03137622332621958
0.191 0.2796975347185072 -0.6277474604186234 -0.3042543055807211 -0.37184750435409564 0.006475053197551145 -0.01472018192231188 -0.938959802945685 -0.024077418642023313
0.192 0.2745105132528831 -0.6284842193146333 -0.3082065823275079 -0.3747072133215576 -0.0063345926037773285 -0.00888502593879825 -0.9337080898802307 -0.01920837331039296
0.193 0.27300193225066577 -0.6285279939508776 -0.3211387609801366 -0.37208891378903614 -0.010535528883736447 -0.019836158931862472 -0.9297862651491917 -0.005323269485856766
0.194 0.26634872786666347 -0.6253615285218677 -0.32712636226249786 -0.37472707383499887 0.013352516455792635 0.012238395271910667 -0.9341666630777171 0.0016455564471755228
0.195 0.2652213474223642 -0.6288493535782453 -0.3355358588838255 -0.37412294711962923 -0.014141693842555038 0.010632976301703036 -0.9302270413654846 0.0025585983067542228
0.196 0.26373478514250853 -0.6258206106335779 -0.3490827170720947 -0.37159606958107533 -0.018596329254322325 -0.01357333293406849 -0.9165077824938386 0.01650419064387071
0.197 0.2570434259546738 -0.6289142501143985 -0.35892487577879295 -0.36798279793718475 0.01813138386278013 0.0015229419820914742 -0.9196859247698855 0.01572370080730506
0.198 0.2569755937780609 -0.6261398988447834 -0.3684595874261793 -0.36475485069245833 0.024226020848026608 0.024062011154742494 -0.9131414554062999 0.025130093872469728
0.199 0.24802706093936427 -0.6256855294007707 -0.38063551616071006 -0.355652680985411 -0.015478015444667374 0.0014700650104931367 -0.9128383359049113 0.0339939068042869
0.2 0.24647860133991387 -0.6260309762913348 -0.38828122737942733 -0.35136139677733835 -0.014425240644944935 -0.0007619517894147368 -0.901694442680236 0.032653080705776084
0.201 0.24491131802006114 -0.6244376346172467 -0.3993060270699456 -0.3400283303752947 -0.01295581427943256 -0.002951164655548727 -0.8942527669567222 0.03604329036341976
0.202 0.24030953580437936 -0.6273654854387618 -0.4082358935788857 -0.33293316818876867 -0.02420951631466046 0.023413822930942872 -0.8875067014761467 0.040119014490571155
0.203 0.23475463269548844 -0.6236776017394718 -0.41419575083742743 -0.3154654303709187 -0.0029495569618955306 -0.004460987424382634 -0.8744664102169548 0.042783632262868035
0.204 0.23316576639622413 -0.6283159709764035 -0.41603471801579456 -0.2981878069855776 -0.002902255855738353 -0.008928676467371496 -0.8798580683796379 0.0399302371225728
0.205 0.2351131847036389 -0.6227213662367037 -0.41894997261646344 -0.28609608966603933 0.009673787201390548 0.000531899571072328 -0.8765571305143451 0.037443359111653925
0.206 0.2235197346714214 -0.622979402870065 -0.4137276154950468 -0.2722780872439465 -0.01093575738387675 0.01252322578855434 -0.8686510349424179 0.03609562837708754
0.207 0.22338071915736218 -0.6230863386505663 -0.4063025755980689 -0.2600592661022699 0.002748991910250088 0.0037445057492590827 -0.8687612651255842 0.03631377878853758
0.208 0.21982883979643933 -0.626431021178906 -0.39960064219838953 -0.2514089239670449 0.00723710017554412 -0.008321523439946514 -0.8730161414518648 0.026907114198902505
0.209 0.2183369694730224 -0.6220097531701039 -0.386885177147721 -0.24481988590440598 0.0020883026462054388 0.027996581130877354 -0.8748395462653052 0.026901346931355374
0.21 0.21449360221001282 -0.6190825805179198 -0.37919629845388253 -0.23983245603735823 -0.009240435956641748 -0.005098086806109251 -0.8800865921469173 0.02880549855044952
0.211 0.21010534667171404 -0.6242151858209015 -0.36681716498286865 -0.24085319518030548 -0.006508596192153027 -0.010483736755455568 -0.8868710064487209 0.032737437336661145
0.212 0.20788570925077932 -0.6189000585274282 -0.3539543903150225 -0.24498067830662637 0.008918326331924005 0.00010428540512221104 -0.8918826673904743 0.028855532371245548
0.213 0.2047639940615688 -0.6226649320040886 -0.34861933630498154 -0.2518358508412054 -0.003321627169228068 -0.0011120028692599869 -0.8983541756619625 0.03441006085998472
0.214 0.1981562883185855 -0.6231917057738333 -0.3410572638108694 -0.25730872349398853 -0.009005147656959055 -0.008603494423261668 -0.8962234970024296 0.03685497279750092
0.215 0.20236572932918873 -0.6222124557156788 -0.33501938868838577 -0.26622972021138086 -0.0011953505050998673 0.015383680286197013 -0.9024344228024407 0.0484883471364337
0.216 0.1942924739626896 -0.6201778199260192 -0.3329272392170996 -0.26900795046177434 -0.003146778012780723 0.002127110716087409 -0.9100026515031323 0.05370873086501496
0.217 0.19348122113598873 -0.6176830215346439 -0.3362569299189911 -0.27513985426844 -0.010358896265092118 0.0002680186762478279 -0.9130188029084956 0.05974823189875088
0.218 0.19022274161099934 -0.6153327443150803 -0.3351514791276563 -0.285416950152991 -0.0015398967709907448 -0.00018115281491863663 -0.9154668868876619 0.07148984183114057
0.219 0.1829590987527703 -0.6189474085346656 -0.33491257954183895 -0.2928178808351103 0.0011127657679888734 -0.0005569927860599039 -0.9146747255576898 0.08174023053620459
0.22 0.18135524424375254 -0.6140439581794134 -0.33538242893046705 -0.29626293891724864 -0.014367793381057313 -0.001894895815041624 -0.9202613033412346 0.07654758145781987
0.221 0.1794520449019485 -0.6167653792735345 -0.34276183099773727 -0.30391603096293013 -0.027556900620406288 -0.00027073365796831286 -0.9154362925589488 0.0897057347403509
0.222 0.17521778984476727 -0.6136283936556204 -0.3409015209849059 -0.3071505393945049 -0.010610290748435355 0.015342374732829095 -0.9125782694771158 0.09402282212529547
0.223 0.17506837261358518 -0.6136542679466556 -0.3487202203299633 -0.3124268476548026 -0.0049264457306028575 0.009845271815307465 -0.9183393092361883 0.10392264295168338
0.224 0.17222440006526066 -0.6142072979304941 -0.3534095140257756 -0.3209071472687099 -0.0063285151994436585 0.006583173786413281 -0.9180756363011535 0.10629504490522071
0.225 0.16903157083907772 -0.6112235089294825 -0.36169034400202793 -0.3218975995518176 0.010641368018223702 0.014501307911615477 -0.9192612765607778 0.1197843742932041
0.226 0.16544660416740004 -0.6103188460449902 -0.35889058991505246 -0.3249496280983383 0.0011501995081559155 -9.639236463243812e-06 -0.9153872483473136 0.12293893812450643
0.227 0.1613792311363513 -0.611128262567024 -0.3662281666474274 -0.33109837951947496 0.002832548021880111 0.012615983187043833 -0.9181721857127816 0.13005939752458867
0.228 0.15805032279872508 -0.6085499202432312 -0.3718482739881378 -0.33265995054730124 0.010634677234516452 -0.0015478051077532939 -0.9154593070128322 0.13805740700627767
0.229 0.15479609370141634 -0.6092476516699492 -0.37596294528185237 -0.3376677194120766 -0.013586501571604423 -0.003363658868814094 -0.9141274988215226 0.1488039571858923
0.23 0.1523771846412709 -0.6089488226139164 -0.38335746891305084 -0.3385655217190998 -0.0160237006739395 -0.02026762071160846 -0.9102224409598183 0.15643577943908576
0.231 0.15031138044866943 -0.6071005101698059 -0.3869881989113517 -0.3435417176264458 -0.0016522369028799378 -0.013340461138145304 -0.9084373698645157 0.16100808908534045
0.232 0.14597226781426262 -0.6075989276445611 -0.39350240567880335 -0.34659159013533103 -0.008210802969371819 -0.00664748051389274 -0.9087682455857157 0.16392751778064638
0.233 0.14514582215184588 -0.6051578383857145 -0.4014205177022359 -0.3459173276277945 0.02914855383518443 -0.018606194118254493 -0.9076136862746648 0.17341732371045585
0.234 0.14012150185678 -0.604913276582855 -0.4049091009646169 -0.3492170651478544 0.0068842704676061964 0.008126909337613675 -0.9055008433907248 0.18280263115614578
0.235 0.13904543112065437 -0.6035545085386866 -0.41200132353277646 -0.351645226666766 0.00036792598978877184 0.0035371171075902616 -0.8993347339064617 0.19263211505030542
0.236 0.13385125795745983 -0.602823643580547 -0.4199930428602682 -0.35328891221752495 -0.015532030549723465 -0.01176902243586477 -0.9034682815032634 0.1986398011470859
0.237 0.13298645899876438 -0.6005580749678032 -0.42568407803600145 -0.3549112531509253 -0.004237437510862116 -0.005152727628818068 -0.9046164785906943 0.19813047045554658
0.238 0.13027228451471637 -0.6019633003347117 -0.43251975300384204 -0.35942790161670923 0.001403433037260947 -0.007710043222816174 -0.8940908977607 0.20899299268959273
0.239 0.12852000711602585 -0.602373669210194 -0.43748255587583973 -0.35875772273655293 -0.01045665290167062 -0.004736744808496272 -0.8918677371247826 0.21807084772039972
0.24 0.12491345623893056 -0.5982536296289614 -0.44394156202063806 -0.36033475947320437 0.005774914158375665 -0.00210220363396942 -0.8915699682416778 0.22521697155516976
0.241 0.1186575044861033 -0.5990202546458275 -0.45397665191696196 -0.3575338510131308 -0.01785103210097833 -0.0037848222820834497 -0.8831465352887709 0.22575728557805644
0.242 0.11740811116312021 -0.5997146525897791 -0.46207947086511153 -0.35656363487260556 0.003936901975783741 -0.021794464676768578 -0.8861014093663188 0.23954903502736005
0.243 0.11438913888177582 -0.5943040624085962 -0.465254468466867 -0.36065558989995683 -0.00694251993366494 -0.010213409266185584 -0.8824441065166762 0.242535493921123
0.244 0.1113701171941165 -0.5987714658650874 -0.47780257322317315 -0.3611677157954447 9.19978749598499e-05 0.005530106768476982 -0.8833363076445778 0.24952226390115964
0.245 0.11336311617237417 -0.5953614839765011 -0.485035946343922 -0.3625264997110009 0.007397068153331759 -0.006498998599020147 -0.8765751235423397 0.25846066501641846
0.246 0.10832463599152783 -0.594975965864674 -0.4887200752544837 -0.35601388126087996 0.0008407306239192021 0.0018488947340983004 -0.8664678964770771 0.2644616702008864
