!Created with skrf (http://scikit-rf.org).
# GHz S RI R 50.0 
!freq ReS11 ImS11 ReS21 ImS21 ReS12 ImS12 ReS22 ImS22
0.13 0.5219353763704684 -0.5909159472039415 -0.0082652865308692 -0.030528382776284422 0.004904442750578615 -0.01637992973672858 -0.8665582992955662 -0.45619973922681767
0.131 0.5131992307309309 -0.5928189465619031 -0.00838298860328824 -0.030641126989970343 0.03774224647287715 -0.04644509025626486 -0.8668012552702515 -0.44527958335849344
0.132 0.5175109357470431 -0.5945972650781697 -0.008591977571865417 -0.030867877241941295 0.024317914158479483 -0.02854684377234118 -0.8772956786688825 -0.44179311322860704
0.133 0.5130359235390413 -0.5966964835222145 -0.008899041422933972 -0.030665585003264183 -0.027877109327285154 0.014810745068890954 -0.8805038994424401 -0.4306665567098142
0.134 0.5080025839434816 -0.6008088086597377 -0.009216069244964 -0.030657798363223136 0.05155300706843651 0.04750537496442808 -0.8787967385146781 -0.423093408818232
0.135 0.5044206514434841 -0.5992530941186971 -0.0094660503331417 -0.030771497433379442 -0.027011886102744537 -0.017774300300377494 -0.883329130796319 -0.4140622742428824
0.136 0.4981018299019799 -0.6029097162422924 -0.009721007991845934 -0.03055829461389927 -0.0074323254903418436 0.00466405465106629 -0.8909244487307674 -0.4096629794680382
0.137 0.493914086849816 -0.599560568008648 -0.010143109675131327 -0.030562274132279996 0.031611310359485646 -0.017830484957237724 -0.8811727601141642 -0.39267166636723266
0.138 0.4887786285388584 -0.600179806739142 -0.010224172267208826 -0.03072556594764173 -0.004925146949481049 0.010638560944577274 -0.891729194590478 -0.38673823347880004
0.139 0.48215710293540714 -0.601532660010585 -0.01059204979109669 -0.03071155644150876 0.0032046706349428996 0.07004112850618305 -0.8900834586965518 -0.38600883142142156
0.14 0.4776013588864794 -0.6063015523663701 -0.010891717531241827 -0.030825560746236866 -0.00017808405357013407 -0.05668657653056236 -0.8979897618492525 -0.3784951142996121
0.141 0.4738361770379362 -0.6066949854473023 -0.011159428925553782 -0.030685754194465228 0.03425877911469353 -0.011534399706849954 -0.892637197096209 -0.36893632439952356
0.142 0.4712163659957637 -0.608310710190743 -0.011249603617231844 -0.030588301266535008 0.021293145645516997 0.007910144793793717 -0.9053884881539143 -0.3614863322476727
0.143 0.46696098951158116 -0.6096748674827234 -0.011543721618289524 -0.030771893886383052 0.056820197280006146 -0.002030657710305049 -0.9088157072578736 -0.3512309631495428
0.144 0.46253414035887913 -0.6121948504206773 -0.011909209380807521 -0.03044541957691346 0.013300776639498713 0.005669775270693252 -0.9085384752195593 -0.35090593500410644
0.145 0.4572513992436926 -0.6145710273788247 -0.012188099982815141 -0.03069350777800207 -0.0409426551390895 0.01581073381033837 -0.9120307476251361 -0.3322779573503148
0.146 0.4532240624220291 -0.61255096321446 -0.012266405568595467 -0.030432985203899834 -0.002455548287310963 -0.016847836079955644 -0.9125047813518102 -0.3290415994143009
0.147 0.4496372204803338 -0.6137953057856714 -0.012765974068782552 -0.030242318607147742 0.07358399464263993 -0.060730284411731554 -0.9125781360674052 -0.32178691687197464
0.148 0.44400911294125184 -0.6144804081831305 -0.01280904359295092 -0.03034782930687858 -0.00911486936084968 -0.0006696409407921794 -0.9140431795009052 -0.31267337113843235
0.149 0.4396262274829548 -0.6156777796219399 -0.013278123858803942 -0.02999560826437652 -0.01966732905930954 -0.005314032415659428 -0.9178650667228457 -0.305402011190087
0.15 0.43561947903788445 -0.615550087985058 -0.013430206841063492 -0.02989760243313733 -0.021124906366923456 -0.0027374323793827506 -0.9217439349350498 -0.29850141905965
0.151 0.4310267042770764 -0.6164971829616593 -0.01360525178158336 -0.030235776077420694 0.029484300074078217 -0.03467153639232707 -0.9248394392752504 -0.30037500207632084
0.152 0.4259335087939008 -0.6203731167649231 -0.01375459299178749 -0.02997424825493949 0.016935264246944547 -0.003586006655805141 -0.9233141705079049 -0.2829359500597643
0.153 0.426147550047304 -0.6180088610879854 -0.01418009584612908 -0.030101435720700245 0.009215285513589676 -0.028977510639345685 -0.9365126879367063 -0.2777163330328235
0.154 0.417171044834557 -0.6199469549740618 -0.014386517374716305 -0.029732686169509578 -0.019463111876524566 -0.00762950024793243 -0.9257803484119053 -0.2747084358711578
0.155 0.41324077198043535 -0.622811644294477 -0.014738550879576023 -0.02951779148767689 -0.014850771065135885 0.0051381781987463425 -0.9310011618045664 -0.26766207849331447
0.156 0.4071668840024222 -0.625045869495303 -0.014753408493528164 -0.02956908923883442 0.009560730226959078 -0.04148071503248475 -0.9307342869813663 -0.25677496307021047
0.157 0.4065522808169956 -0.6236362270593574 -0.014865592294791867 -0.029426340549202977 0.029097830963682934 0.01961118209971275 -0.9333982269981258 -0.2485587370157676
0.158 0.39911152231338437 -0.6225520620987953 -0.015611713910396405 -0.029659473353645067 0.02100384227910322 -0.004164427926634106 -0.9346216084017732 -0.23982891545453844
0.159 0.395828937925788 -0.6255366291974079 -0.01557354290195917 -0.02943996059783216 0.04287612574193816 0.017910301778116897 -0.9343057819404146 -0.23302249610400907
0.16 0.3943075722113761 -0.6274266141105687 -0.015923477347259147 -0.02931777256498881 -0.016031085187469853 0.02976447069356767 -0.9365803705279312 -0.22551474303537547
0.161 0.3908847003284004 -0.6235858193148749 -0.016502827798853127 -0.029278701093339844 0.016925038972804084 -0.01018972926897139 -0.9418125359674331 -0.21669467226328437
0.162 0.38595057803360294 -0.6246164584848174 -0.016527479190035846 -0.029178249399056475 0.016042479042004284 0.0028118329759925812 -0.9341756914800154 -0.21691729093798648
0.163 0.3874141455783256 -0.6266725862489794 -0.016892963553029477 -0.02918384660173704 -0.011820118736308494 -0.009163482564807235 -0.9352210870837594 -0.20410091349739726
0.164 0.37751017525515723 -0.6280565755805791 -0.017122084473040807 -0.02887922891517514 -0.02173471753720016 0.013124203129074589 -0.9418057533177127 -0.19521751511549756
0.165 0.3750036357035339 -0.6275900826755934 -0.017672608735318864 -0.028996941981488125 0.01745902307345277 0.014793495474864018 -0.9373743014933859 -0.1906589426526787
0.166 0.36818714304359984 -0.6253132844508799 -0.018276363546971906 -0.02853363398185737 0.021098708120641553 -0.06601954781561573 -0.9388462402994657 -0.17934353312661672
0.167 0.36492946405245336 -0.6257187882781883 -0.01825871238849508 -0.028389962696568065 0.012771599255310162 0.028666088670947252 -0.936995581368954 -0.1816377371670496
0.168 0.3593334079789564 -0.6277384338164117 -0.018899887102229274 -0.02823829432985022 -0.0004797805189491458 0.0379729758308213 -0.9318873533580716 -0.16098088392215243
0.169 0.36001211624940926 -0.6266296052140314 -0.019262983755929695 -0.02782731843105251 0.005194410670524954 -0.01946254502811385 -0.937859059968181 -0.16166497405405741
0.17 0.3520781638824158 -0.6297032948022082 -0.01983932179094282 -0.02785002084008878 0.02164259982489828 -0.015617062671005533 -0.937239945749134 -0.15271087130456806
0.171 0.3501469105023266 -0.6372306003670274 -0.02046473914654692 -0.02729403047780352 -0.0009943425882305704 0.03731958950975645 -0.9355968546544755 -0.14812117479471787
0.172 0.346454506237395 -0.6317907633388388 -0.02079727708346178 -0.026928423645853156 -0.004418243988914335 -0.023597191017177156 -0.9299093696596391 -0.13847686017292915
0.173 0.34223001336057607 -0.6316763150655916 -0.021282348602279646 -0.02641320530931199 0.033205167982300526 0.002049427500403088 -0.9263016571734438 -0.13728793735555167
0.174 0.33335058303510134 -0.6354864812524679 -0.02181251593791149 -0.02558854250866115 0.02189118542141825 0.0026346111915231145 -0.925707097873407 -0.12564853693669079
0.175 0.3298806793094378 -0.6281106300490032 -0.021859300269905232 -0.02496041060525745 0.005091054082258568 0.014925168614011627 -0.9208279179476008 -0.12203255491581988
0.176 0.3276505639859227 -0.6306687583735893 -0.02205473083356042 -0.0242188196071531 -0.021624201725665405 0.010009070972616295 -0.9242199272380016 -0.12241300143269647
0.177 0.32252769068267395 -0.6314576509668894 -0.02176861866206218 -0.023656385999878727 -0.029632634805445594 0.024403575569322242 -0.9205035394496678 -0.12388940313084709
0.178 0.32377636728631043 -0.6281459700694509 -0.02144966411534929 -0.023358791232363528 0.043907881152196786 0.025069012430328753 -0.9235155812053603 -0.11685956775408599
0.179 0.3160278912087341 -0.6264125389950083 -0.02119989566753383 -0.022921008934741104 0.0004558321884497423 0.009790915185164669 -0.9267600669654956 -0.11455795680414468
0.18 0.31419177440898455 -0.6303291839759843 -0.020711318608641907 -0.022983563062989994 0.014743287999430905 0.0017936978749197234 -0.9274898472378355 -0.10640027688302445
0.181 0.31051192976369596 -0.6311558151900927 -0.020678778341190678 -0.023230451425805338 -0.004198961780875511 0.010240631637356456 -0.9325576944682107 -0.1024940641533981
0.182 0.3096058237400585 -0.6297029396207249 -0.02053022108535238 -0.023239503888989394 -0.029979734264958785 0.02545505737500956 -0.933461109149055 -0.09811062487079035
0.183 0.3003256500752952 -0.6296110090819965 -0.020790975727185124 -0.02345318975587389 -0.013022932723445919 0.01782048164523203 -0.9294113605841001 -0.0929328021185835
0.184 0.29745455958427125 -0.6306371483768323 -0.02084162678968291 -0.0235883239649051 -0.01562604002680422 0.02282634573688662 -0.9392428700961898 -0.07011329016101547
0.185 0.29395283392766813 -0.6311447890619277 -0.021000642575864818 -0.024107429657267337 -0.016433150878985652 0.016751061702974232 -0.9369224294151077 -0.07040985870638626
0.186 0.2913377478649556 -0.6303719354037823 -0.02124603517521022 -0.024201514346753664 0.0015452235949717226 -0.026990972384445765 -0.9418960628805757 -0.07070088545543174
0.187 0.286365619091841 -0.6302502494794657 -0.02165099954291593 -0.02460279457541425 -0.004546121391001588 0.005333804542138589 -0.9379486870766963 -0.04841091429844243
0.188 0.28198484578052796 -0.6300842391386032 -0.022202920160240676 -0.024592596286743807 0.006693654038366594 0.005110097013433449 -0.9412040310504398 -0.0544177112796938
0.189 0.27983227458836324 -0.6293474743336783 -0.022733994862412718 -0.024841260196567422 -0.0331974069684559 0.026316982815161396 -0.9401702450854097 -0.03538645476492273
0.19 0.27590623270858716 -0.6290453023085354 -0.0231820179181794 -0.024520754289238982 0.006541448864036033 0.004812779945346769 -0.9345270429330044 -0.035120553220070266
0.191 0.2729394783092222 -0.6286875453162758 -0.02371709727438122 -0.02489847780956668 0.023021408094129073 -0.017158366061619565 -0.9362401533110645 -0.014528757608815846
0.192 0.26776304905889925 -0.6296384214251354 -0.024139178680211586 -0.024863151671492573 -2.604419634438064e-07 3.7183792352140105e-10 -0.9315952387949268 -0.021775449731222005
0.193 0.26537001820741885 -0.6295493646924253 -0.02493341798187166 -0.024601216549134174 0.013204586128588712 0.007713196475844293 -0.9343670641076212 -0.012499693068912689
0.194 0.2605794796937676 -0.6265384871489119 -0.025345861868564565 -0.02462175232311926 -0.004009553135504491 0.01525547045730642 -0.9311015279512166 -0.0016653145405705794
0.195 0.25721386497935833 -0.6305465541624862 -0.025810927332822378 -0.024504436891196444 -0.007785325402948967 -0.011921491824562567 -0.9251684314488781 0.006246889866760757
0.196 0.25536254986253015 -0.6292011190591309 -0.026721309814755533 -0.02421322967992093 0.004690615502520709 -0.007989472085716804 -0.9205672471233032 0.007408528600060851
0.197 0.25048326357822215 -0.6301463261161315 -0.027328974045575008 -0.023795840219629775 -0.0033772025723362727 -0.0016607180221032056 -0.9143399412997324 0.015340509526340536
0.198 0.24960019025459484 -0.6251122836331606 -0.02799641126764188 -0.023363982799973582 -0.025550942395378168 -0.005059402072792089 -0.9169271793186696 0.023010127815554067
0.199 0.2432444882352135 -0.6260822050058368 -0.02866434665939127 -0.02277324738409384 -0.004616618946161104 0.015540679488434735 -0.9096183972941632 0.03166977295493643
0.2 0.24033595820445108 -0.6277986716268512 -0.029081264794759684 -0.022272169591523484 -0.027483050829605258 -0.027837744964797975 -0.9043828167660809 0.03483273329910915
0.201 0.2370212362607346 -0.6239684048924735 -0.029657265976485117 -0.021439829121377738 0.002430455742776681 0.009499118062666756 -0.8926055777426455 0.032279642676767945
0.202 0.23651372906652435 -0.6276588587017659 -0.030059545196841127 -0.020497123527936357 -0.01545009012211983 0.01235279052328016 -0.8920790965360883 0.03933677862848965
0.203 0.22759009712250014 -0.6242748681213431 -0.03041568832438536 -0.019377855848456388 -0.007918867334443887 -0.0066471095857861115 -0.8748174378371524 0.041872647848959235
0.204 0.22638797123508997 -0.6248581770610663 -0.030357430440137993 -0.01832299698920712 -0.007468649586301419 -0.0027596813974203123 -0.8793517524187103 0.04161842835252983
0.205 0.22639619279095538 -0.6193923500732786 -0.030264373162111193 -0.017155650092617575 -0.009688020080986678 -0.008898359003555307 -0.8765512919475501 0.03583544126650482
0.206 0.2151766870420897 -0.6204909874506466 -0.02971672329852696 -0.016318596616494586 -0.010724663526410482 0.0012916837060654655 -0.868417313422769 0.03268715951018569
0.207 0.21750193184818734 -0.6200746494566547 -0.02913851595729753 -0.015415330295424664 -0.0033356852280982193 0.004935182247823699 -0.8720449511407218 0.032855014475884486
0.208 0.21521105194148915 -0.6223364822218829 -0.028322288346752943 -0.01445111870714639 -0.0119911733319598 -0.015398167969657036 -0.8734090614367255 0.02522477315770944
0.209 0.2134268356254906 -0.6241162202799893 -0.027453130722110433 -0.014146795210928683 -0.00955034733186973 0.024342315848908527 -0.8759275848423589 0.022631950620899975
0.21 0.20981813565452562 -0.6184770433985954 -0.026631395767305485 -0.01378374469573024 0.0008819722258589406 -0.008193965441679099 -0.8771160911685795 0.02628884608837332
0.211 0.2062108139121077 -0.6276843898473053 -0.025778705814130852 -0.013933917519074496 -0.011868257938310558 -0.005642284567017788 -0.8861976169763925 0.03387059533093397
0.212 0.2007279331851918 -0.6183169944451056 -0.025064364386440205 -0.014245364032006508 -0.007214953878797334 0.023046854247271955 -0.8916853660554901 0.029111796669225403
0.213 0.2008932308977425 -0.6272171786404382 -0.024450292942084922 -0.014561921279726216 -0.01758760803251665 0.005808501181181003 -0.8962884643816211 0.03286550227882517
0.214 0.1921206632195283 -0.6217435748072057 -0.023959026833685216 -0.015030842943597694 -0.006575309445112916 -0.01773513479783302 -0.8968433661380765 0.03328546248371433
0.215 0.19580635808702965 -0.6239983709432722 -0.02349870959842534 -0.015207249338096281 -0.019182924318632978 -0.006160814511330444 -0.9029493937670422 0.04439901127008015
0.216 0.19068401833669485 -0.6208527532196229 -0.023333796664532648 -0.015494559587604281 0.007151909663589738 0.010675208548452858 -0.9078535423052342 0.05212847517892856
0.217 0.1844272098126254 -0.616760294441767 -0.023441134067562156 -0.01579274198997023 0.013965030510559457 0.020020663004987057 -0.9091408667353802 0.06186166094143017
0.218 0.185506527765271 -0.6183999629212847 -0.023426188635483555 -0.01632808326119493 0.0036161014208975326 0.002714554578202591 -0.9128470697650694 0.07008155732528361
0.219 0.1784685028356684 -0.6164104364166904 -0.023590951892580644 -0.01691812588923597 0.03062021668368352 -0.003481809482920045 -0.9155101030097164 0.0788696210149886
0.22 0.17438264559206407 -0.614431664543262 -0.023357696158470918 -0.017141117464298927 -0.012760094378026674 0.002841835087179642 -0.9180139368311142 0.07540845595390046
0.221 0.17036656682671739 -0.615315961518916 -0.023707781390675458 -0.01746003207885077 -0.011606844251945095 -0.006352310213223368 -0.9128525241704712 0.08782709664309385
0.222 0.17132386344367617 -0.6132733700549519 -0.023789198199404026 -0.017496170640762303 -0.008418714562133821 -0.0009387432722306852 -0.915947436424462 0.09440417897430578
0.223 0.16794776174374662 -0.6126737147997304 -0.024027774851648524 -0.01789572890616445 0.0005990825844892626 0.0016554704645621496 -0.9214054884996687 0.10490308409629666
0.224 0.16149466658737954 -0.6105630084628234 -0.024398738801267018 -0.018106123137775505 -0.01057812071723452 -0.012003500528107324 -0.9184171541905181 0.11059478593449198
0.225 0.16228867490190985 -0.6110952637081888 -0.024848857379621375 -0.018299246823985732 0.010068800993021522 -0.014488456978201428 -0.9192358013733137 0.11843849660309981
0.226 0.15796368732612834 -0.6122046883971813 -0.02472379561469681 -0.018451284680130395 -0.009188881994467706 0.0006720344323595526 -0.9143342692848323 0.12131683285375107
0.227 0.1534481503437454 -0.6116656910783346 -0.025153964103011073 -0.01862390992548509 0.008013971030542954 -0.0017429230470120405 -0.916222117389256 0.13456129674088846
0.228 0.15039536574362466 -0.6092834600132216 -0.025506868163485245 -0.0186281483081931 0.005845477441785376 -0.006221185978423178 -0.913329600243562 0.13184205737995078
0.229 0.14789488058368463 -0.6091909429199637 -0.02569154247098356 -0.018872538963213233 0.0023044023479654174 -0.016504018272707525 -0.9115735147201285 0.1438889553142887
0.23 0.1459779711058175 -0.6098952677562084 -0.02613052636532874 -0.018849403557249966 0.0051106028345389715 -0.005694289056177235 -0.9095538102714124 0.1565483264210436
0.231 0.14261774130859514 -0.6067390036115329 -0.026288229784004833 -0.01918115821362158 -0.005435991104103855 -0.013202572745089397 -0.9102322314337022 0.1629038337006011
0.232 0.13857704171509752 -0.6070581417130504 -0.026727098699393124 -0.019131812448937684 -0.02058951918187323 -0.005304564959802404 -0.9125648577954826 0.1686782971816573
0.233 0.13805543182974708 -0.6050034198293613 -0.027090532701340698 -0.01911053711759605 0.0046449327280257925 -0.014521227675467138 -0.9042235817263723 0.17388012048555637
0.234 0.13372073261343373 -0.6050718751166528 -0.0273347624190465 -0.01918558213685023 -0.009495368387807113 0.003155073017973523 -0.9075270250165028 0.1832201233917591
0.235 0.1325289891941854 -0.60280263801278 -0.027779968297117572 -0.0192801655730823 -0.018007382530073935 0.0014085315796585382 -0.9001690200297134 0.18366904789059588
0.236 0.12802729616825648 -0.6028398786984047 -0.028215497425580032 -0.019242716519806153 -0.01026449759230694 -0.005997855897573782 -0.9026358395582113 0.19928923594153874
0.237 0.12516711488061327 -0.6005535125843366 -0.028430799130051802 -0.01917843530094688 0.017685717565119823 -0.011223720220747184 -0.9008700237256517 0.19361798648776665
0.238 0.12259270982948828 -0.6016135842064707 -0.028828896161911383 -0.019350620178212218 6.268203137025013e-05 -0.0019032305957166328 -0.8905073696627946 0.2061427323459626
0.239 0.1188123203867048 -0.6035445054255961 -0.02924466235092144 -0.019350892800352876 0.013422934974501944 -0.01630624038427219 -0.8904689122044793 0.21604947639168443
0.24 0.11849809872566784 -0.5966887211548748 -0.029572217259055265 -0.019442286232539793 -0.020046102812742158 -0.004738408429313904 -0.8869551755033871 0.22475911163106452
0.241 0.10958813390291013 -0.6009669130273521 -0.03016632552758017 -0.018862391272701676 0.0005347272679035645 -0.010465700311273994 -0.8807504400260572 0.22203972213455248
0.242 0.10886511523423197 -0.6006811305796516 -0.030561009115918816 -0.019016450514604693 0.0015899004452931801 0.006731956913951119 -0.8844275082644115 0.2351676495908829
0.243 0.10847691555538498 -0.5930919338202758 -0.03085428713406211 -0.019195613405365134 0.010294270712077861 0.0178185691420588 -0.8839154495040465 0.23967462933341305
0.244 0.10664037457661281 -0.594472148535961 -0.03156300352279766 -0.018992345910256538 0.00706021099949772 -0.016313907850241824 -0.8829907170117076 0.24647682631217477
