!Created with skrf (http://scikit-rf.org).
# GHz S RI R 50.0 
!freq ReS11 ImS11 ReS21 ImS21 ReS12 ImS12 ReS22 ImS22
0.13 0.525372130053202 -0.5906549969438286 -0.03333053998946711 -0.13373180883952873 0.0026930590686190434 -0.010279902472580553 -0.8675417401192947 -0.45173711598689203
0.131 0.518854910655995 -0.596062832342819 -0.03393800241145797 -0.13468992510180464 -0.005633100157001704 0.013201405525478674 -0.8660810575869304 -0.44632459313048695
0.132 0.5167387629583546 -0.5876957646163747 -0.034880629354455794 -0.13652936313534567 0.03188238203461443 0.00798654907489005 -0.874672103627268 -0.44041189359096744
0.133 0.5108582871743527 -0.5944792319364947 -0.036466074217966216 -0.13606413801392828 0.02009694328152873 0.026994679516151428 -0.8810620467431839 -0.42795460442783945
0.134 0.5091037605684015 -0.5994755329411509 -0.037856762055109655 -0.13723866753352387 -0.007782245745236135 -0.0005271690940546373 -0.8807429889689053 -0.4240665108005294
0.135 0.5064351394401688 -0.5996301202981912 -0.039418926783549794 -0.1378207019447527 -0.04075953012096529 -0.008989299310769038 -0.8833495976971828 -0.4184783542019451
0.136 0.503808123680258 -0.602508792728314 -0.04090697767283288 -0.13874295355722233 -0.018194726775933024 0.009323323234518982 -0.8864155441670428 -0.40754033070539075
0.137 0.49462059410665304 -0.5957582821181195 -0.04171854503070099 -0.1391269764357438 -0.022683010413910812 0.0011644565036413872 -0.8852419263384828 -0.3919416800678173
0.138 0.4903965119835836 -0.6043198778760248 -0.042922302137407484 -0.1394265082135642 -0.002981376620841147 0.018770056688414437 -0.893277921634386 -0.38493320226302113
0.139 0.48601401391477517 -0.5993726048361055 -0.045248700155020735 -0.14114463076925407 -0.01795772081972172 -0.01569597448297072 -0.8898055656668488 -0.3847488524005196
0.14 0.4828906958365329 -0.6060364696660283 -0.046224012310642736 -0.14200748484171097 0.014630309541360024 -0.062325946033262344 -0.8976431787588881 -0.37690309767599955
0.141 0.4747751429847487 -0.6073285090526345 -0.04810793459256104 -0.14248638675511102 -0.022683815177299147 0.013175638391565174 -0.8935638666790341 -0.3686573977688412
0.142 0.4718973438567781 -0.6099258515323734 -0.04856941722012046 -0.1416840020937537 0.026127621458724878 -0.012389491621060239 -0.9083486532295335 -0.3618898366343421
0.143 0.46566725688621924 -0.6068952322786481 -0.04998121932515541 -0.14209034537831466 -0.011168965786364782 -0.0015540052911574387 -0.9096039303177211 -0.35194241869632265
0.144 0.4642901864952248 -0.6107565083706334 -0.051424238626837065 -0.14361318179221694 0.002262576705927183 0.005415849652667533 -0.906238416482887 -0.35072237706027887
0.145 0.45882107060314453 -0.612622410311593 -0.053462033906981864 -0.14486940953878846 0.015871797968609373 0.05706048555584033 -0.9118699766781466 -0.3320968575301412
0.146 0.45575152872684094 -0.6115200566076245 -0.05381439050298867 -0.14542401980694347 0.01426932928663984 -0.018445701148565943 -0.9117760710433374 -0.3341459253444185
0.147 0.45099491507714606 -0.6132435405038595 -0.05510422170910348 -0.1449385450103446 0.022586438949147032 -0.019369837997798043 -0.9127797033831663 -0.3232906904390044
0.148 0.44590748458028573 -0.6137496188938533 -0.05753555522846932 -0.14542060784034042 0.000666698460009896 -0.054385493390829154 -0.9171317096075324 -0.3145474988161505
0.149 0.4407720350689688 -0.6140130802950252 -0.0594561867689649 -0.14644915613985945 0.025910573647387077 0.004399008660620035 -0.9189003351039181 -0.30338086238517503
0.15 0.43777049325944456 -0.6155544818683576 -0.0601948393517453 -0.14717036338143902 -0.018168357952932028 -0.01992491090723315 -0.9220130978454587 -0.30297519741751633
0.151 0.4340086607612113 -0.615045194358995 -0.06032824951025176 -0.14801492896016974 -0.01707719693205771 -0.014946446439302931 -0.9198631783237531 -0.29781046972233083
0.152 0.42969715588926194 -0.6194127107676042 -0.06239052657223665 -0.14778634725059056 -0.030258336716457807 0.022582112658890725 -0.9174620151474524 -0.2848744529565776
0.153 0.4263839337099021 -0.6168834740547474 -0.06385077059432759 -0.1490637192849816 0.010176797579460843 -0.02630264302138223 -0.9324051116931856 -0.27861336399765513
0.154 0.41978914989762744 -0.6199865014911596 -0.06503212071379824 -0.14871877710097509 -0.007900279267732988 -0.026702965062277727 -0.9233045407828286 -0.27254435551115336
0.155 0.41280139790410764 -0.6193650159373804 -0.06840886906970918 -0.1484542143219318 0.025755815313344043 -0.020906235482989883 -0.9285535079159908 -0.26160196890655935
0.156 0.40653396203655084 -0.6238800874126245 -0.06829442882936046 -0.14924682573919162 -0.018353816877704394 -0.002053633452013596 -0.928149797772086 -0.2575152713099072
0.157 0.40760584933434013 -0.6253077404085166 -0.0691031646705451 -0.14922323849258473 -0.005774174240649978 0.02224110343494442 -0.932254368464838 -0.24951339932516156
0.158 0.4026418923059083 -0.620603690834928 -0.07239276265584335 -0.15058736143070647 0.011300488200194317 0.00031057952807571137 -0.9340825496048183 -0.24001841817649106
0.159 0.397561355081949 -0.6255623073894918 -0.07291789266605497 -0.15073669035435547 0.06172281692726901 -0.01629044751833864 -0.9359986329878769 -0.2318750015964181
0.16 0.3975020182165489 -0.6217859674538352 -0.07551462205436298 -0.15164624939967153 0.02576068743622348 0.033943585399401205 -0.9362840972588095 -0.22349480696922253
0.161 0.3920857407862915 -0.6250995462274955 -0.07760390883322657 -0.1519681625372432 -0.0030187020557017117 -0.017765072029864905 -0.9328847059910352 -0.21322728828833729
0.162 0.38714607276320195 -0.6261492431283832 -0.07846670309568432 -0.15235542057583876 -0.017759095725074583 0.02194102066536127 -0.9358785293891168 -0.20730372407743666
0.163 0.3860001379446448 -0.6252363515177922 -0.08053616739468651 -0.1524661584139906 0.009037674434696509 0.0022675122161340644 -0.9415673457556865 -0.20702592939687026
0.164 0.3784202781813892 -0.6258701283122557 -0.08221711346187618 -0.1519130799976871 0.016924429466578874 0.016125323080504406 -0.9399920482230119 -0.19397599047730066
0.165 0.3783047405165788 -0.6292802830839818 -0.08495261909689965 -0.15337097164254526 0.018807010394259385 -0.015206550343331276 -0.9362070204023746 -0.19093661455205307
0.166 0.37344985032421213 -0.6292888781938711 -0.08782720832383163 -0.15200535019371128 -0.001836618885364839 0.0373523720449821 -0.9346391123817412 -0.17819448985867448
0.167 0.36623083371011617 -0.6259668485785267 -0.09005215422565047 -0.15276872405146735 -0.0042290285174250005 -0.0020188588043370567 -0.93495468666003 -0.17549047943258217
0.168 0.36236047030697177 -0.62920454994023 -0.0925857238636327 -0.15202169577967733 0.04064205495531948 0.005638367939979939 -0.9377793716003548 -0.16159991104725038
0.169 0.35817265377467056 -0.6225986453764815 -0.09549997418945802 -0.1507660786246969 0.016804582861930577 0.01047964040487306 -0.9372199433092268 -0.16005693183695396
0.17 0.3493480730333341 -0.6286747066886679 -0.09906296085152799 -0.15070420342784527 0.011421323325255665 0.020442090419804822 -0.9373353414125032 -0.1518951181318741
0.171 0.34792754845130675 -0.6295852400784632 -0.1016811567672298 -0.14995173549252616 0.017772864489113246 -0.016383267558458238 -0.9356449927031398 -0.14920331919605753
0.172 0.3468156901365854 -0.6272030796575877 -0.1035629202665135 -0.14799709352814877 -0.0041468542129797685 -0.019895989834855562 -0.9313525663077818 -0.13442747387746432
0.173 0.34309588669634067 -0.6315544163481569 -0.10739009290527418 -0.14698433611396497 0.045213861871107194 0.035204314887491366 -0.9276665120742521 -0.13728829461553088
0.174 0.3362632570242757 -0.6294336246211443 -0.11041994311272825 -0.14214968376961606 0.0041393235022710115 0.0037619111438266647 -0.9273011038521392 -0.12495303223178193
0.175 0.33411440717825086 -0.6283267132988288 -0.11140067139600766 -0.13972425249347967 0.01999070662166961 0.03233856604830052 -0.9247114601703096 -0.12273088765737869
0.176 0.3272436234338323 -0.6314580171588101 -0.11273261891526104 -0.13688243404968 0.031171582334976043 0.03346899877127057 -0.9284494794522642 -0.1199193831161739
0.177 0.3250298322327195 -0.6304671448923641 -0.112541266684583 -0.1339556202584909 -0.02487137228707134 -0.007021768024631001 -0.9224607011550896 -0.12339729247940671
0.178 0.3275101006781412 -0.6265402321348752 -0.10969340694339692 -0.1320645854400003 -0.019398575619180205 -0.0030458106833305427 -0.9236124846382566 -0.1152268939177384
0.179 0.3174595542309073 -0.6272093869440761 -0.10872654830182954 -0.12882077898119187 0.001541446766978706 0.014439703630201802 -0.9283168637348482 -0.1140817322438387
0.18 0.3138376126730228 -0.6291455458183426 -0.10675991910496667 -0.12966519704387414 0.035053621733836804 0.03937121287744916 -0.9303572007683016 -0.10368575154781759
0.181 0.3096561996646642 -0.6305670335288953 -0.10597062972255936 -0.1306426344879747 -0.026324291099798093 0.009416680835103842 -0.9315006541503476 -0.0997941994729989
0.182 0.3097526116755412 -0.6329256342097079 -0.10493965723000383 -0.13186793197567306 -0.0013199161694979593 0.010338110148397138 -0.9365469217879633 -0.09552393933482721
0.183 0.30297457762233604 -0.6296148868426891 -0.10705747556330665 -0.13322942929221446 0.001556824136303812 0.026799386493859993 -0.9290560639325405 -0.09083452558784672
0.184 0.2972543608536976 -0.6291920417588227 -0.1084042490492654 -0.13530519082429832 0.0036824477723835054 -0.027380873356211997 -0.9412882731236201 -0.07397246581401339
0.185 0.2954482574323389 -0.6297687796845871 -0.10852964435721889 -0.13686914319026014 -0.026272933677189123 0.0003231882912778375 -0.9393221318684305 -0.07047556911932432
0.186 0.2937779851301297 -0.6296627428960228 -0.11023384825361308 -0.13777444370714234 0.003147957094149074 0.022116246590122943 -0.9433568424343414 -0.07565189554310581
0.187 0.2877510054073926 -0.6290026705827072 -0.11242779884520088 -0.13961668303907862 0.033856050429280436 0.006358869401356119 -0.9396864385015581 -0.0563947263700539
0.188 0.2843118721654139 -0.6298499894582854 -0.11496548621498465 -0.14087680585638296 0.0023239448608023553 0.019179537273244555 -0.9335584564697722 -0.05444892903987576
0.189 0.2821947697877344 -0.6284359387644184 -0.11793510175792984 -0.14199924527415475 0.002287810397031934 0.004302127418084258 -0.9392941551756284 -0.04100852364264505
0.19 0.2764680876219161 -0.6290437180245019 -0.12087310626358817 -0.14087127333261942 -0.015815163088853407 0.0043299644300838335 -0.9346919659962286 -0.031629703389627985
0.191 0.27551056775462235 -0.6290919157367856 -0.1238446770979802 -0.1437808202348693 0.01688935506101819 0.014522889586760996 -0.9373779048689542 -0.020772034511373265
0.192 0.2703147190211026 -0.6296955851754797 -0.12594279787804766 -0.14403199518281953 -0.008778674248032104 0.023360877175894024 -0.9327288804470878 -0.010542157531227484
0.193 0.26692832887323076 -0.6295302445794954 -0.13083566206424477 -0.14278909491776404 -0.011604034239363176 -0.010935184014840706 -0.9343718607672833 -0.011164767053559156
0.194 0.26243608016991526 -0.6264682094449645 -0.1328539423223278 -0.14281507820860415 0.020336966695925843 -0.009159740568809029 -0.9322430968737012 -0.002710652955935233
0.195 0.2608542200104086 -0.6289093820901215 -0.13563586937028252 -0.1422415986959669 -0.0220746744122912 0.01597745951883392 -0.9281199898405172 0.0062116247789765055
0.196 0.2583528867102139 -0.6267041876875432 -0.14041581968896902 -0.14125196045076885 0.009109284402843495 0.012641492180591752 -0.918929733905273 0.010457763388453901
0.197 0.2526702436311615 -0.6309951703471965 -0.1443721106077919 -0.1391178095789812 0.019089339637557632 0.00045881971007043736 -0.9211920442732857 0.01883040154776983
0.198 0.2520833207703535 -0.6243220527191853 -0.1488332568399342 -0.1375864758537229 0.010030447116265351 0.010603788008692801 -0.9100367879000687 0.02221705930994268
0.199 0.2446969776145245 -0.6260056952123639 -0.15227832163739694 -0.13420408403274514 -0.005916348321293356 -0.017030866266891376 -0.9083970429856998 0.029483062316652653
0.2 0.24221953457894171 -0.6266388660413883 -0.1550216088085979 -0.13201910828573993 0.010454607110537953 0.022789417565195143 -0.9000323010554576 0.030108422662321672
0.201 0.23934544755539258 -0.6258278466340326 -0.15893120586406875 -0.1271605870593532 0.014650382528864562 -0.006544182167484908 -0.8960842891397709 0.033397598687628684
0.202 0.2371214717246032 -0.6260386745267251 -0.1618159553158571 -0.12299449918685679 -0.00509347131060844 -0.0074661057025200836 -0.8871961701315105 0.03827970218653826
0.203 0.22955291972489902 -0.6226419335147257 -0.16397305428054976 -0.11691593700752224 0.0013951793739338067 -0.018207513441552015 -0.8741046925284919 0.043214383974261125
0.204 0.22384603220013397 -0.6242244511853341 -0.16422678569376764 -0.11024051708135717 -0.0018963904053072897 0.007756531110485023 -0.8775983347949603 0.03959326843020852
0.205 0.22634384833892784 -0.6258745377277558 -0.16388609633357085 -0.10461442767095748 -0.01574406174378772 0.013178687324824911 -0.8722166629997249 0.03296289101846055
0.206 0.22441196565395555 -0.6191175556085269 -0.1622495294281424 -0.10003076689678961 -0.0020372492887116003 0.008125713633323223 -0.8692510560173133 0.03303461020694391
0.207 0.21659239649485196 -0.6229293367764493 -0.15961014190126324 -0.09420352707304648 -0.009911318883900668 -0.003304913941661015 -0.8693079650710758 0.034245940831288145
0.208 0.2186388686068985 -0.6241380835829499 -0.15439450575221275 -0.09048090581183553 -0.0028713671991584255 0.0015464031008661035 -0.8743607252163441 0.026419792316779416
0.209 0.2127595419493581 -0.627371270661584 -0.15096408585411447 -0.0881947715054386 -0.0018413156383643848 0.0009153542523876148 -0.8747520358212196 0.02272843755248178
0.21 0.2086968326671727 -0.6200962097315306 -0.14530564167881882 -0.08668455971772908 0.024921389121071877 -0.0013860457076462242 -0.8784755905658509 0.026105132120679983
0.211 0.20370290404466754 -0.6266395178286521 -0.14140388387071404 -0.08630111259002157 -0.016172424843608185 -0.005815992963821762 -0.8878610871687787 0.0332233724807186
0.212 0.20228341680246203 -0.6205881236606579 -0.1352533740878403 -0.08852640318778561 0.01493265647944836 0.005785292265318292 -0.8916003438383214 0.028675014127811527
0.213 0.20155878611519337 -0.6255196888143951 -0.13253751570515382 -0.08969438269216154 -0.0015385294002972366 0.008209221654347709 -0.8952587030886779 0.032929278652310344
0.214 0.19646105140618442 -0.6192820647063519 -0.1309875415653071 -0.09244251145460598 0.005283068646209902 0.024484553393068962 -0.8967120758635274 0.03737131207901083
0.215 0.19408036426246897 -0.6200462864888704 -0.12735933646785505 -0.09448179579095649 0.006022042818444933 0.017434428060428844 -0.9023112232264605 0.044047698454444235
0.216 0.1890110255153945 -0.6186413815872813 -0.1269636990003598 -0.09665726200756879 -0.02926994629823869 0.021857331409239414 -0.9099026686119999 0.052417584245445806
0.217 0.18540271226213972 -0.6179175969546005 -0.1276722179310041 -0.09783168611015435 -0.010894956101410117 0.012731443657396315 -0.9100756191938372 0.061296843478203314
0.218 0.1843957209268622 -0.6166261244967021 -0.1267051156120441 -0.10084441341132695 -0.0038864655943895324 -0.0031498523410921886 -0.9127548425644907 0.07002202509066426
0.219 0.17793905041697425 -0.6184371902594039 -0.12714922355861227 -0.10355550627251699 0.0005161459870860187 -0.003720842462879484 -0.9145124817635367 0.07656920378337778
0.22 0.1790896825942592 -0.614821241468617 -0.12655827060230584 -0.10516421605602089 -0.005594223738090304 0.006195675644757171 -0.9151957282967217 0.07585211788147672
0.221 0.1735378368423436 -0.6170063881741973 -0.12880931297005274 -0.10694207258722861 0.007192004647643274 0.010174157701287594 -0.913878531782934 0.08652576362382298
0.222 0.17009299867271208 -0.615312010279568 -0.12896812208505593 -0.10795367140243013 -0.01891765172868382 -0.006921925549486776 -0.9113003895043966 0.09165673355381995
0.223 0.16828335673631123 -0.6135265313273071 -0.13030715787208869 -0.10990983626858553 -2.800753505440205e-05 0.002620723742311057 -0.9202209962224976 0.10018635814018456
0.224 0.16566525594771606 -0.6145050595773197 -0.13179512624358103 -0.11174007581240984 -0.0077765670930286575 -0.008970726160249099 -0.9182069115106352 0.11038849540988152
0.225 0.16502555646965028 -0.6101651182739047 -0.1346040151094808 -0.11257936139754662 -0.0030915726303949098 -0.0007015347570095927 -0.9181507775551728 0.11694606660651725
0.226 0.15907469393172302 -0.6089298382596049 -0.1338477041403388 -0.11382142626254402 0.0032381168349287386 -0.0003243305333209742 -0.9188710388678626 0.1249009443051079
0.227 0.15528798759006532 -0.6127941376392182 -0.13582210750207172 -0.11517748941196401 0.007788814342839506 0.01506861899708534 -0.9141027002133215 0.12881756593825994
0.228 0.1538507681781346 -0.6092033716311974 -0.13814172408367445 -0.1158580489624076 0.007501174379724185 0.0013793436115634478 -0.9127259025213557 0.13162774555880755
0.229 0.14967197226862564 -0.6097069887746338 -0.1390373386871044 -0.11729586263753669 -0.007283202709080227 -0.001554530777030326 -0.91244798352548 0.1472487912070251
0.23 0.14710286318506965 -0.6110947345247583 -0.1416242931402296 -0.11758402695040941 0.009504221976001159 0.01829855572420984 -0.9151757232712888 0.1527080229880048
0.231 0.1439609123004892 -0.6071056059924721 -0.14214879349466936 -0.1188110777189546 -0.008763317821260249 0.010996285117166367 -0.9066613341732866 0.16014430845873823
0.232 0.14064543241540278 -0.6077378937895656 -0.14484484436923115 -0.1198979021378369 -0.002746303552600477 -0.007102585240973359 -0.9033401700543573 0.16447281466287214
0.233 0.13926776117889222 -0.6052246133953729 -0.14698403473689275 -0.11938908176899819 0.005860032964949206 -0.020891298803243287 -0.9049672007353211 0.17132350773824198
0.234 0.1349390801703304 -0.6058413000472895 -0.1485114368236278 -0.120299741458013 0.014341823868164377 -0.0026816524950834266 -0.9037283515902075 0.18128264621934806
0.235 0.13331815911490505 -0.6036480185008865 -0.15088769250984777 -0.12081647534712235 0.005147119273332837 0.0016277697587731002 -0.8994957576169152 0.18849850113255964
0.236 0.1293246937794505 -0.6033621688973291 -0.15392668946052826 -0.12090852961922925 -0.0035284314714683117 -0.004935551944931564 -0.8984645133029441 0.20280323593447522
0.237 0.12658652046859864 -0.6008261532584002 -0.15510598985033994 -0.1209251937912147 -0.0006956126993622405 -0.014831380176921243 -0.8979106191777425 0.19650344054834745
0.238 0.12468220535098523 -0.6019931668968 -0.15777249854502753 -0.12241626503860203 -0.0050579523814692365 -0.0057316993317304546 -0.8942730172961321 0.20796128212273107
0.239 0.12243910922204174 -0.6024478494319648 -0.15885432053011792 -0.12233504199859167 -0.00226356517219953 -0.0025190224575542255 -0.8906477396588548 0.21464054728184623
0.24 0.1197226178621674 -0.5985194260624274 -0.16114779786710004 -0.12210605147793478 -0.0030370289615719477 -0.023192045983771052 -0.8908212329900458 0.217988676289655
0.241 0.11276512233702869 -0.5981963495960377 -0.1644458926551643 -0.12147273769574025 0.006213955642939133 -0.013961877320399472 -0.8822421164812702 0.22165727867860682
0.242 0.11296764369855754 -0.5991316247008859 -0.1672566957513372 -0.12043421470419816 -0.0035811765284555104 0.00342987214985906 -0.8826914025902225 0.23600147823184225
0.243 0.10866508968340939 -0.5944806323569968 -0.16973883478258103 -0.1228023350577592 0.009453208743663273 -0.011209264587025427 -0.8812525406778496 0.24185460683935006
0.244 0.10648683435576799 -0.5949482543586171 -0.17200951692567634 -0.12208792613644691 0.004639764769446309 -0.005553360531241106 -0.8802024900770463 0.24994651715569974
0.245 0.10103448847693329 -0.595368903702547 -0.1741112203376091 -0.12172795112913393 0.005811814239154167 0.02251867775927202 -0.8766373646858134 0.2574137928593686
