!Created with skrf (http://scikit-rf.org).
# GHz S RI R 50.0 
!freq ReS11 ImS11 ReS21 ImS21 ReS12 ImS12 ReS22 ImS22
0.13 0.5228549618691386 -0.5913151582634081 -0.022734181077444043 -0.09199489959101528 0.029984608811376077 -0.04527936008706726 -0.868634991880536 -0.45039692146054133
0.131 0.5185672104459523 -0.5924506214962402 -0.02303806441754553 -0.09242004788821598 -0.009713874343439644 -0.05136935314382131 -0.8649612047508256 -0.4492694947308185
0.132 0.5193090004994928 -0.5948787436558661 -0.023664615266031752 -0.09342170606514169 -0.013232384415922036 -0.09211193746400079 -0.8743449855269584 -0.4431101843457726
0.133 0.508867708595467 -0.5938624274541375 -0.024952410793402914 -0.09325418856398147 0.03316155667874089 -0.034870732763435074 -0.8822245942437749 -0.428552673001796
0.134 0.5047006759396814 -0.5989441228520594 -0.025814088406411258 -0.09387035753872212 -0.010164613178862653 -0.02670524783482602 -0.8779925634086708 -0.42040699668674447
0.135 0.5048555928916982 -0.6000525094884644 -0.026900909011017108 -0.09434386755104093 0.033396345116762295 -0.060593086791171626 -0.8843349296904225 -0.42181578259762975
0.136 0.5005807264011766 -0.5995338992177474 -0.027234852799818875 -0.09409200131505897 0.020767463510067422 -0.016260615149972027 -0.8875651223558695 -0.4092040195220497
0.137 0.49603862970927676 -0.6016352299264883 -0.02829062794543696 -0.094358273375374 -0.004124901418055755 0.009240765551162806 -0.883866088631736 -0.3948871031255101
0.138 0.4917355485517979 -0.6009450699372098 -0.0295151475970888 -0.09487725735045174 0.05186384665874091 -0.016812607246126727 -0.892783215964602 -0.3856494817631077
0.139 0.4855300328996201 -0.6038240084832434 -0.029967677140855672 -0.09587818118061894 0.025965981834482517 0.006961191215360158 -0.8917180902053993 -0.38614453412701466
0.14 0.47837560752804126 -0.6049396433030997 -0.030579010271258613 -0.09560137676351776 0.005267414480863592 -0.008621187967169854 -0.8957081730374902 -0.377320224235181
0.141 0.47374261796666245 -0.6069318399326412 -0.03190143976001449 -0.09659405352175947 0.02454774519731943 0.011968678068707604 -0.8940986384499268 -0.36731394465858425
0.142 0.4721229577323002 -0.6096997720540305 -0.032320814940038516 -0.09602293499230957 0.031685788563267064 -0.024381799126713503 -0.9056026832999583 -0.3630470233417909
0.143 0.4681420325567894 -0.606270169134723 -0.03397078539730334 -0.09615710653804849 -0.0030491865849762603 -0.0006812786998029217 -0.9085543740366134 -0.34784020552406497
0.144 0.4626400398289658 -0.6114432808690633 -0.0352799713439805 -0.09648752101828864 -0.016328019039683398 0.013547512109073132 -0.9046151314601037 -0.3522455808178637
0.145 0.45911041112572454 -0.6133119928674631 -0.03540237446402307 -0.09695441616690458 0.007268542008300379 0.029022949264107492 -0.9151304398154265 -0.3326727633730062
0.146 0.4547945769069598 -0.6117969509500731 -0.0358490320763823 -0.09727339630147964 0.014152510474383232 0.030496850795777953 -0.913955419617456 -0.3318226047076514
0.147 0.45108338395463915 -0.6134905477090322 -0.03741290721441885 -0.09676788193809792 -0.00445722874512304 -0.010507582150873001 -0.9115844349568679 -0.32521876880938755
0.148 0.44457994662299527 -0.6143754913041243 -0.03770916408250666 -0.09709306562671548 0.0029395151731713537 -0.05006461259838229 -0.9178212841192352 -0.31104511131852053
0.149 0.4411427372955485 -0.6149881172112417 -0.039183683658297865 -0.0970374537482513 -0.03033622927805353 0.011915377752976892 -0.9155510079847561 -0.3067198334629099
0.15 0.43595654393727457 -0.6160127795749657 -0.04051771383891976 -0.09747139630904399 0.009513628789259914 -0.03450374294447759 -0.9229401789778929 -0.29920625411693735
0.151 0.43432227795107786 -0.6154092941446571 -0.040483661569634115 -0.09798973128161342 0.050524586911894216 -0.012877022827743608 -0.9208369975112825 -0.2963013640729136
0.152 0.42703626923150556 -0.61953799232159 -0.04133032362950409 -0.0978235276487215 0.0560523642156628 0.013523922618603747 -0.9157511532132597 -0.28618292709205423
0.153 0.42700191145598904 -0.6163683713282886 -0.042928897291390884 -0.09829599602243123 -0.009403336687926091 -0.01600362885427212 -0.9361101468440037 -0.27774160388036484
0.154 0.4197096408792999 -0.6217498521627047 -0.04327928238851147 -0.09783307587584185 -0.02757791797344371 0.00744107843203617 -0.9325427208266468 -0.27256732714992077
0.155 0.41469433906609493 -0.6191577203950575 -0.045252634969904094 -0.09761074306534213 0.0350932214956421 -0.007661302886125078 -0.9296124139656271 -0.26584088539677614
0.156 0.4111071557552849 -0.6233388983472238 -0.045375159684960996 -0.09828907156254525 -0.009699101561243427 0.01858335283195633 -0.9361446537845335 -0.2549503023383188
0.157 0.404689776691186 -0.6209262742042827 -0.0460530322750421 -0.0980219504285699 -0.02825530084482068 0.0053594832455178 -0.9283086908701481 -0.25082527398546556
0.158 0.403107464998332 -0.6231593671537394 -0.047886777613072834 -0.09906297917350841 0.04422804279246069 -0.01730862179960397 -0.9332152846541063 -0.24023485834070166
0.159 0.39814686705575836 -0.6269146722413053 -0.048215967421732 -0.09872503316216477 0.0365009339267584 -0.005803254011676232 -0.9377793351307108 -0.23774038745511103
0.16 0.3944678334553039 -0.6264838410180761 -0.04945404804205737 -0.09867450064304124 -0.03888630035662786 0.024799198054570305 -0.9330935095661335 -0.22514649657226393
0.161 0.3898665697112723 -0.6272072431446551 -0.050758419653476605 -0.09895077932690946 0.009589696746360673 -0.007269593349405283 -0.9417194871517378 -0.21857865061712062
0.162 0.3876388507908557 -0.6241796138220334 -0.051337819412871924 -0.09877477943023553 0.021708939759121023 0.006635482251195643 -0.9345600675453486 -0.20478940608329915
0.163 0.3863292153430748 -0.6249289278539883 -0.052771132306235306 -0.0987848889653328 -0.0027830824616113755 0.008902897389923694 -0.9353539984467656 -0.2069655287542758
0.164 0.37817095490906755 -0.6218259548879623 -0.05351401403275323 -0.0980049089694312 -0.004071248301417279 0.01216761430418482 -0.9420067477859999 -0.19403624789226998
0.165 0.3794425650644303 -0.6317686757663346 -0.055065870883684614 -0.0988516432214195 0.019702692428217535 -0.021731606115568902 -0.9371774931556096 -0.1916907863008611
0.166 0.3688029538336086 -0.6279790094942137 -0.057198190465395926 -0.09762160624410791 -0.020634645718152166 -0.021470646226337937 -0.9382464553216258 -0.1771092271543966
0.167 0.36654711103023346 -0.6244173441716422 -0.057606066817985045 -0.09824845486162867 -0.00609135348569469 -0.020037675434223228 -0.9405536369110561 -0.17781475775213193
0.168 0.3586724884886887 -0.6291364345884769 -0.05974605043674491 -0.09741044110844227 0.03399037258232681 -0.009502575062848934 -0.9341876139524805 -0.16681330586330453
0.169 0.357705000568255 -0.6233974768982787 -0.061134549118063104 -0.09653015483577393 0.013674705415977553 0.014700704840726391 -0.9399020432493388 -0.1618678565692326
0.17 0.3516080244486069 -0.6312802003438097 -0.06320349666154328 -0.09617665795629068 -0.013143206316316724 0.02175737598087897 -0.9368306790441406 -0.14734569427436786
0.171 0.3516571001615085 -0.6357807979683476 -0.06503206649895635 -0.09487073447213751 0.009028270063929643 0.03290919064261449 -0.9321111985755545 -0.15001734852788598
0.172 0.34982325887760407 -0.6260844328697864 -0.06636928309141932 -0.09421010023803665 0.033389612284062196 -0.00610108689210628 -0.9318308664381881 -0.1354880566109076
0.173 0.34453706305145126 -0.6333099244583881 -0.06866556856147626 -0.09252636438601163 0.00808110528408545 0.014538340756221567 -0.9254512033284156 -0.1392318532377353
0.174 0.33405894377830303 -0.6314551068629811 -0.07035438774632391 -0.09071792314771554 0.0004873453888405585 0.019470483584578372 -0.9273313903282642 -0.12727231029632294
0.175 0.3278839103604181 -0.6312060920467853 -0.07108657092630316 -0.08812242869989355 0.011801423524376149 -0.007406458652454491 -0.9239938351330251 -0.1241322496352926
0.176 0.3306891902330919 -0.6324243119760594 -0.07085226703454196 -0.08608336560900251 0.012865985054706468 -0.02437217452659467 -0.9268120480122107 -0.11659379461313897
0.177 0.3240444750061161 -0.6318277294950224 -0.07193114134338564 -0.08410372079223642 0.014446492033692606 0.00997141874016121 -0.9222420447724553 -0.12579980533096574
0.178 0.32579794920121985 -0.6288248260923144 -0.06977764786810887 -0.0830722920336571 -0.01323148728167246 0.002505722891411707 -0.9228132143132002 -0.1175468543500487
0.179 0.31780171078285874 -0.628436841372837 -0.0684842810505218 -0.08131177292872303 0.021178170157341972 -0.004965564535409407 -0.9259096691265237 -0.11293436841460688
0.18 0.3142428718906567 -0.6303797776281409 -0.06766299882978531 -0.08116553610656323 -0.013357127058270506 0.015613802741259303 -0.9297080709387796 -0.10328273819225099
0.181 0.308975525067326 -0.6293665147414783 -0.06758820642037236 -0.08206683270272201 -0.024859118609940657 0.016547351611304394 -0.9312323697790188 -0.10220357151343293
0.182 0.3080429543083256 -0.6295408380296452 -0.06661208627359073 -0.08317099014256457 -0.004066644979383747 0.017537977681954288 -0.9337106970675976 -0.0976141673781476
0.183 0.3047466729557077 -0.6299611081748347 -0.06750651078350059 -0.08353345084333472 0.0006263591045856839 0.020643435655971154 -0.925423820771142 -0.0923598181179149
0.184 0.2961869000749788 -0.6302281131642659 -0.06796647778711312 -0.08437864865737511 -0.00033970279667163946 0.012641611995714806 -0.9420626289730921 -0.07201800087928724
0.185 0.2963070347249564 -0.6296627335448308 -0.06736369903222546 -0.0857516479846236 0.011225602447940797 -0.0024218525147685975 -0.9359005020375101 -0.06615690583026063
0.186 0.293094846891096 -0.6306692223599988 -0.06972222482971537 -0.0864898088435082 -0.005764839299910591 0.012733467077769782 -0.9424604847047081 -0.07277019755512716
0.187 0.2863646460695461 -0.6296859819903265 -0.07149308955444368 -0.08701418165225698 -0.028934357360060173 0.020949231361207507 -0.941742029669291 -0.05438089100937613
0.188 0.28405320166493286 -0.6302357178829456 -0.07219454082872823 -0.08804257472519764 0.009404286186096993 0.01120247367999651 -0.9329198244232237 -0.05029543486189906
0.189 0.2800622005243511 -0.6296606452247506 -0.07422487193564957 -0.0887731594580843 -0.011517980423027136 0.007204118626996476 -0.9359101650274111 -0.04131930717409944
0.19 0.27574911481129577 -0.6295354807141869 -0.07580545720602003 -0.08761165331707889 -0.011834249784349804 -0.01764707397625263 -0.9313314571437302 -0.03403011389413331
0.191 0.27406731376256727 -0.6287964750463751 -0.07756256372858303 -0.08902877745103673 -0.01502020192486706 0.0055181028109689495 -0.9384359808658406 -0.02346255605109205
0.192 0.2697755089365498 -0.6294653919402073 -0.07918019496694538 -0.08954539773066657 0.0027281573413718715 -0.009015538461971716 -0.933919302360205 -0.021247908806383026
0.193 0.26608558188790815 -0.6308633445038497 -0.08193539113226078 -0.08850325480339472 -0.019015013660876275 -0.008976501894860692 -0.9298005878702146 -0.0067919241146399256
0.194 0.26182252429287367 -0.6273956948806192 -0.08310796921311826 -0.08848750549383762 -0.010590105733163787 0.019025907819571954 -0.9259293545702714 0.00031816615915305536
0.195 0.25820520071101594 -0.6294402259815562 -0.08504189763223348 -0.08837888903269027 0.00808204819499927 0.029122742804101102 -0.9279527796546984 0.0057361256693622825
0.196 0.2580010646110613 -0.6273793794227855 -0.08819621111605533 -0.08785791425850872 0.007536235738036738 0.0034140453368117947 -0.9231760904150377 0.01238045987619121
0.197 0.2521417774644266 -0.6303646872344857 -0.09030778360180411 -0.08626539636303152 -0.027084859312189458 0.014602213903928709 -0.9212335165118595 0.018626676013469835
0.198 0.24948031119613837 -0.627758730829735 -0.09252004004510127 -0.0858239530209878 0.00873470784207101 -0.008458578040454474 -0.9127996938219146 0.022626485471688915
0.199 0.24574284926005496 -0.6260448858566399 -0.0949665503504649 -0.08243844705326582 0.006671129066429944 0.009698419103883126 -0.9079338878343578 0.02787576061417046
0.2 0.24295460160353885 -0.6256434580958234 -0.09695878541144361 -0.08121478362715073 -0.009127835417127528 0.019383649779300807 -0.8980299529312307 0.03340715476499774
0.201 0.23507316548169604 -0.6273683924523284 -0.09875692070193075 -0.07877485075014343 -0.017710962222081694 0.011893876571210544 -0.8958406436157724 0.031103282374510426
0.202 0.2356943117857755 -0.6289254730743055 -0.10014169170330865 -0.07606039672104895 -0.012624519747426365 -0.007056044648908231 -0.8894824495476864 0.04215265608106236
0.203 0.22985639053745457 -0.6234424049591446 -0.10187447844844592 -0.07190905611308489 -0.015026502842993558 0.0034891850563170197 -0.8745272775326813 0.03931302086290821
0.204 0.22814369645508206 -0.6256379853137953 -0.10192813701014446 -0.0676983062671038 -0.005222372911186665 0.018925888543482997 -0.8757258398543132 0.039129035879121574
0.205 0.2253255060542107 -0.6258757156634079 -0.10138227452713035 -0.06466808559557562 0.004554220657756016 -0.0038498631388601914 -0.8747320539986263 0.03752778647114075
0.206 0.22210912548623957 -0.6247267264674871 -0.1006350645520317 -0.06051016484652367 -0.011506281482804727 -0.0031500892149477233 -0.8682243313125428 0.030635187746985752
0.207 0.21540236126434287 -0.6199581960991748 -0.09842210387753046 -0.05723867763145057 0.00889966284631826 0.01046996551754176 -0.8689729856582525 0.03176340769410158
0.208 0.2156947632873534 -0.6252202604444322 -0.09631310577546374 -0.05494646606876448 -0.0011369214201687756 -0.0007206398681011671 -0.8719157137137961 0.026461944106663284
0.209 0.2121468600420295 -0.624051481480692 -0.09245887187631334 -0.053976261797530005 -0.018909079163849356 0.005327041943343227 -0.875433610680195 0.024786988104254195
0.21 0.21183159171304428 -0.6210953554349429 -0.0904910421711299 -0.05242840551358153 -0.010882286200182917 -0.016562379465115136 -0.8755783842069446 0.02644244481270193
0.211 0.20769512161376638 -0.6233951749500583 -0.08668943094265895 -0.05254032236365965 -0.023023750695376932 -0.009214685889003406 -0.8884083995594851 0.032067367314762216
0.212 0.19947069559918615 -0.6177504259624587 -0.08390165802629766 -0.053698569563588906 -0.004433911791172351 -0.0005895064858137289 -0.8921334252308799 0.029095764167606605
0.213 0.2007936346033779 -0.6275388860795587 -0.08211227127126346 -0.05477897721494768 0.005691933878343567 0.014553225879244697 -0.8967406015874368 0.034940448782143384
0.214 0.1944574341783006 -0.6195875947885733 -0.08088619344045034 -0.055578576775498635 0.026499186408370068 -0.00891485432944523 -0.8962603674183321 0.03777457633987951
0.215 0.19355106873594918 -0.6191548344523116 -0.07899859523565213 -0.05746269354680785 -0.007894518787088441 -0.005651326308780101 -0.9017712704155854 0.04744938764496722
0.216 0.18960987237851848 -0.615878788596506 -0.07801662649847688 -0.05830372637989114 0.0011053617551811232 0.016535448533681166 -0.9085501891622638 0.051539535583305096
0.217 0.18594993348156272 -0.6179407995895433 -0.07817963271677737 -0.05929995933258395 -0.006899030337517677 0.01752802622951796 -0.9103146120742007 0.060637734478868915
0.218 0.18401086197268857 -0.6169042863484298 -0.07808199755123256 -0.061644184059467005 0.006921966709359783 0.0006682605830177637 -0.9138716402132891 0.0695712576195671
0.219 0.17783535431336062 -0.6182923866011085 -0.07825940910678506 -0.0631427268465281 0.001094558642176552 0.004966582869921323 -0.9167268557700049 0.0804141927328541
0.22 0.17767241354655708 -0.6162413982280343 -0.07726009764982124 -0.06400204526511111 -0.011281814936608455 -0.012632580782553155 -0.9138367707706236 0.07570564371170196
0.221 0.17449507196582442 -0.6154615137048842 -0.07876285000439065 -0.06488369170654062 -0.016336247967719528 -0.03191332565625346 -0.9138019349880655 0.08595240850531535
0.222 0.17261786612565078 -0.6166165963383194 -0.07905960627311226 -0.065475791809663 -0.009132405341525743 -0.011196579486836996 -0.9155778060752574 0.09734740929876408
0.223 0.16689090096542233 -0.6142193856563427 -0.08033068194725553 -0.06668067871357292 -0.01289482049676789 0.005603192829126556 -0.9227451370815402 0.10141166806408093
0.224 0.16464004767412227 -0.612855054878706 -0.08111782071510812 -0.06773694593932737 -0.0050261661901958915 -0.007816739448672274 -0.9206195191873869 0.11336416483779642
0.225 0.16174066937335613 -0.6116081919711828 -0.08260065865296214 -0.0680677121469153 -0.010505376346808117 -0.010395121519089522 -0.9155581295868658 0.12057832906428524
0.226 0.15867368614737018 -0.6099650179590761 -0.08191999945805925 -0.06872558271938939 0.010216733506471906 -0.010507127086471788 -0.9186686575451181 0.12321456147138693
0.227 0.1561813132501289 -0.6123368907180394 -0.08359506844399558 -0.06964780112346912 -0.0019141184812911393 -0.0050045584636431335 -0.9162935820758881 0.1307061846667175
0.228 0.1543106950234613 -0.609749909635987 -0.08433347567567295 -0.06992980212457203 -0.002989519829493914 0.0255395478975852 -0.9152860506983693 0.1391776756194709
0.229 0.15004667478900016 -0.610044076086393 -0.08503889693646992 -0.07075145848107477 0.0068381867496800555 -0.018079783786807566 -0.9115574215922373 0.149004269728324
0.23 0.14626354591850355 -0.6092883358883693 -0.08668215297707421 -0.07041250638059154 -0.01630320235788337 -0.007191421001211323 -0.9113544756284606 0.15757227591732015
0.231 0.14278365387846315 -0.6073290219791214 -0.08715572581875317 -0.07142934315275797 0.0038981232482211184 -0.0160791083350822 -0.9070114493056106 0.15592521508542173
0.232 0.1393179591281776 -0.6075471560986775 -0.08849078176319251 -0.07195606430173969 0.010252550673872173 -0.01192951742445218 -0.90559987180893 0.16705040592811427
0.233 0.1388124767705224 -0.6057185707390119 -0.08992005416028277 -0.07156130058301521 0.0033698260677333123 0.004006615275938957 -0.9059489915467381 0.173954696664846
0.234 0.13459162664316882 -0.6062264329853686 -0.09063637008116152 -0.07218732288870068 0.0036257299231149094 -0.008123542441611196 -0.9079085310650656 0.17858207368516443
0.235 0.13254593067976647 -0.604331337606229 -0.0919287545281325 -0.07282324297024116 0.002442767364060526 -0.006484450888781508 -0.8982114173935768 0.19057224684777824
0.236 0.12830924790881124 -0.602930443261307 -0.09367624061208484 -0.0720207951577067 -0.00047317554127668655 -0.007470634819744691 -0.8985530524550328 0.19927527331367412
0.237 0.12539993681755066 -0.6013139481164718 -0.09461843748538833 -0.07251605221618183 -0.009800501127632635 -0.00806160442495969 -0.9000666341525406 0.19329464742960423
0.238 0.12440551782423372 -0.6022849822562889 -0.09574392750300895 -0.07340060825875938 -0.004351810884668973 -0.00507881615116938 -0.8921296720294969 0.20272637861853968
0.239 0.12050749698346033 -0.6015720498178649 -0.09691411626701528 -0.0733270211547833 -0.00820306334458927 -0.008183903935717267 -0.8913324442093374 0.21480771819775837
0.24 0.11841785358014652 -0.5984803304289331 -0.09822264884249313 -0.07311823425540757 -0.010309533022319494 0.006564576049753166 -0.8895438561631643 0.222131746249949
0.241 0.11416751921621514 -0.5974698097281078 -0.1004341896340108 -0.07209668270190024 0.004565645824964467 0.007635872964291548 -0.8810256564032287 0.22538794316570906
0.242 0.10953835931565914 -0.6003279463701976 -0.10245272185882087 -0.07182465147645295 0.0001883158715936512 0.017936302877235816 -0.880875607446012 0.2356280870310307
0.243 0.1079409611402082 -0.594203568225377 -0.10254074604536415 -0.07278276584846148 0.007154292460052286 -0.00045116199337992107 -0.8849359182176589 0.23983298985365348
0.244 0.10631209515153914 -0.5949151613056582 -0.1048496556757103 -0.07326688751205437 0.007039462047408411 0.0013773168221264483 -0.8810480254758234 0.24872347690710447
0.245 0.10551524870030833 -0.5930005877854302 -0.1058401177914254 -0.07338913148503684 -0.01384075728155944 -0.006612175610045641 -0.8752836916263718 0.25681981548859745
