!Created with skrf (http://scikit-rf.org).
# GHz S RI R 50.0 
!freq ReS11 ImS11 ReS21 ImS21 ReS12 ImS12 ReS22 ImS22
0.13 0.5197769997059991 -0.5910162886164992 -0.004065264098276822 -0.012815871996464863 -0.016685208902819736 -0.00928622501265328 -0.8673685435020807 -0.45086808187788674
0.131 0.5166462638859072 -0.5938911123115214 -0.004118826798704547 -0.012843261383333705 -0.0036464556912206366 -0.0900078046550522 -0.8666990861330445 -0.4467344620119447
0.132 0.5165540589925159 -0.5954193553031646 -0.004201803133957992 -0.012915075316144907 -0.03811829647355061 -0.02490678876704759 -0.8754712436890015 -0.4395889421207274
0.133 0.5128578948980377 -0.5952155984703985 -0.004323401305850573 -0.012776179285324317 -0.006450180606946758 -0.05065278855928095 -0.8779189210947893 -0.42698868485127806
0.134 0.5090451788077752 -0.6022933329978616 -0.004418643474200614 -0.012820486434897211 -0.003152367668966004 -0.04183134857599612 -0.8812250189505342 -0.4265003160409977
0.135 0.503943952066109 -0.5964670938112099 -0.004619355393798159 -0.012840668113868364 -0.015835566577852143 -0.02596789235082106 -0.8819870572717068 -0.4208244476204898
0.136 0.49676681120822297 -0.6022780054020747 -0.004679091399153026 -0.012723368578842417 -0.019862316004300225 -0.01751580820531633 -0.88616946151058 -0.40576379505993176
0.137 0.491171309730566 -0.5981479276816352 -0.0048532722154543614 -0.012723517364449878 -0.0092102476334868 0.0015263773291887572 -0.8887022793624122 -0.3930666647692052
0.138 0.486948453554267 -0.6023771614110753 -0.004915981010878948 -0.012844296257972392 -0.0034141719121622074 -0.0736196538364524 -0.8903721353854819 -0.3868691458807406
0.139 0.48050479631534515 -0.6032860948373557 -0.005015351756936357 -0.012668615482913108 -0.01473254752383387 -0.06299682109012761 -0.8902812047754812 -0.384908148487523
0.14 0.4799660049849698 -0.6067936491061712 -0.005218980557574035 -0.01282185076480741 -0.004370091146249233 0.004496040237618675 -0.8965453228448287 -0.3786685571067969
0.141 0.4706588078734472 -0.6084753648916785 -0.005333968948190369 -0.012744808838544668 -0.029741496269385374 0.04608795308403914 -0.8948927292870767 -0.36919324881899057
0.142 0.4698581881261317 -0.6100959740491603 -0.0054099700168613795 -0.012661466731550268 0.043124093533773465 -0.0035164849449124554 -0.9079474263295355 -0.3616722160039135
0.143 0.4645587244773842 -0.6080074569370172 -0.005539708792025819 -0.012669143295133672 0.02645251154621352 -0.02468657070661282 -0.9057998949287476 -0.3498255488788079
0.144 0.46147114860473615 -0.6126637098818731 -0.005647908441102178 -0.012628998322139855 0.023253876885297023 0.03175958755754105 -0.9067251494522621 -0.3522542966478492
0.145 0.45688030564760745 -0.6137364433175033 -0.0057460595018186365 -0.012678421767661223 0.006780100583330041 -0.00994230095676375 -0.914025253935201 -0.33583370017182457
0.146 0.4539670080953398 -0.6120131929380572 -0.005900392947835363 -0.012545480662552103 0.006330981641969882 0.0004472105098758505 -0.9139618477704117 -0.33497534006862073
0.147 0.4495119064694663 -0.6134244673353848 -0.005969154424820392 -0.012516069424056316 0.01960363149101618 -0.0359269460032768 -0.911398754551009 -0.32684276346531943
0.148 0.44371748757055757 -0.6147779648069683 -0.0060577221121387295 -0.012501520279994214 -0.011262327556024373 0.014110395121511417 -0.9138846321754921 -0.3164302240209534
0.149 0.43915947538998507 -0.6155537887611504 -0.006228297618951161 -0.01240638180637701 0.06048753055162312 -0.056286422604146874 -0.9192310619990821 -0.3034872858718732
0.15 0.43623736551880143 -0.6153731310207814 -0.006376460836026079 -0.012345674562430976 -0.014190204494691964 -0.02064647896403805 -0.9201066114538535 -0.30011757777015247
0.151 0.4310663964363915 -0.6154982542641005 -0.006370895449759264 -0.012385242865543218 0.008005721095938544 0.024065429143204607 -0.9210585466556342 -0.29856340667156106
0.152 0.4262144504214258 -0.620786689129851 -0.006407239578941418 -0.012291454538853913 -0.01558524944366796 0.01829491265089439 -0.9236532607795465 -0.28132350318333044
0.153 0.42592758460303276 -0.6175263059800705 -0.006695637595509118 -0.012312659786745558 0.03275129654579035 0.016704898828917795 -0.9349935884338688 -0.2823009697077403
0.154 0.4178438552802671 -0.619873353110008 -0.006644967192849488 -0.012265641818958804 -0.018918041301014845 0.016574277474195702 -0.9238023354144765 -0.27148598852206607
0.155 0.4119926376683757 -0.6181693219720558 -0.006850077105186678 -0.012112255645790342 0.009620361201713409 -0.019441546409692312 -0.9287544826357573 -0.26953881194224755
0.156 0.40646826825234117 -0.625292317671263 -0.006867601737042255 -0.012092444787793552 0.013775635581294288 0.008850813693944769 -0.9349417995281529 -0.2556292319309578
0.157 0.4072617632586537 -0.6206500064466843 -0.006971869082382146 -0.012019084075051848 0.023574457167879995 0.022485669026861933 -0.9315506721343385 -0.2518346759369727
0.158 0.3994361791668651 -0.6223122517890596 -0.007218788400265807 -0.012076059144233233 -0.004232104753035383 -0.015411546067504929 -0.9358409430369031 -0.2387193192252405
0.159 0.3965981945672587 -0.6226002906302819 -0.00722772673554429 -0.011985475997577716 0.02004850910226745 -0.0034568976131925363 -0.9326954541691526 -0.23248146317588209
0.16 0.3940959750602591 -0.6235542346518287 -0.007448830276456719 -0.011973330849256796 -0.01078982427751491 -0.01804906692966858 -0.9371425315723656 -0.22053898132089253
0.161 0.3859115651630845 -0.6265719784210523 -0.0075829710100570906 -0.01192209217275774 0.014594556539332742 -0.0028974298823287656 -0.9342710101397017 -0.21706561151474055
0.162 0.3867452582532422 -0.6238084322503874 -0.0076581000691748335 -0.011905867985524857 -0.006087643892853771 0.02314288522291343 -0.9410970247251713 -0.207531529507927
0.163 0.383604547547491 -0.6237337294051957 -0.007784569828306662 -0.011826556691740956 -0.010117016278040302 -0.05241854739215304 -0.9367691491612671 -0.2093279376356866
0.164 0.3768805784909224 -0.6258395416551945 -0.007895371015883544 -0.011740207308474597 -0.021846600806196468 -0.001321439617453931 -0.9424914287487065 -0.1980766933715297
0.165 0.3780252750807742 -0.6289859811086442 -0.008144080230364085 -0.01177131081461426 -0.0014137498888808148 -0.014106167659550093 -0.9400193479962176 -0.19014619473657834
0.166 0.36650243525369736 -0.627210505698703 -0.008438881544242778 -0.011553747296238011 0.058836716703056006 -0.01790257910697473 -0.943797704119527 -0.17936926155237212
0.167 0.3666085507476544 -0.6312830627724804 -0.008459166340798721 -0.011552280030552314 -0.02380868978126201 0.02296495568266224 -0.9396423156682281 -0.17748194438728807
0.168 0.3573853016146653 -0.6263144712703133 -0.008774252708734501 -0.011409355311280298 0.018435613141042802 0.008978440211448092 -0.9383548542886698 -0.1601528621597038
0.169 0.3556853663779689 -0.6278920206915686 -0.008861464434945026 -0.011196827949199836 0.027331340874867643 -0.0019887567295029723 -0.9390258155463501 -0.16093369534408325
0.17 0.34884115098987284 -0.629215184726322 -0.00908827007847008 -0.01117480780505178 0.009852008158076584 -1.7452552140914717e-05 -0.9390068802335626 -0.14928920086009984
0.171 0.34590951350030763 -0.6322985190653585 -0.009344741345419894 -0.011010738386686902 0.01696419574156901 -0.006313522366711747 -0.9362373648878346 -0.15140448999340753
0.172 0.3451377445315368 -0.6243738676711442 -0.009485640994288879 -0.010774045843218182 -0.018950365408364086 -0.01363216490093614 -0.9286954014105036 -0.1376344867816461
0.173 0.34047193580579427 -0.6312685471881917 -0.00970979948643311 -0.010721421679735596 0.02088376757425394 -0.008310180341163511 -0.9245678637038669 -0.13767990048839981
0.174 0.3332556361823349 -0.632080094798565 -0.009985718718961572 -0.01025928643781323 0.006250897118462951 0.014015865502549981 -0.926820465252648 -0.1256714752010995
0.175 0.3312914456428507 -0.6300640051111047 -0.009956427036384758 -0.009894165878564285 0.0193650012515551 0.025527536722223573 -0.9227809376641333 -0.12177757359448366
0.176 0.32795274493235954 -0.6322689640963145 -0.010045991995720835 -0.009691587946032747 0.007145612488864782 0.017641466451397875 -0.9270342722428456 -0.11762180779551769
0.177 0.3225976713287883 -0.633987033909686 -0.009853895052345683 -0.009301632331493543 0.033002139075550586 -0.02161488823595625 -0.9205490473195284 -0.1218523385460336
0.178 0.3238567773110474 -0.6300524311800716 -0.009723568467200672 -0.009220807032504252 0.014162859432967141 -0.0002303296325888072 -0.9240650623236463 -0.11604205184622624
0.179 0.31852836525905026 -0.6293018741592905 -0.009620760680988018 -0.009010959887651599 -0.01241331848830825 0.030028785664261145 -0.9293350291678941 -0.11331689031752082
0.18 0.31230234119215844 -0.6305992205426664 -0.009513999436636318 -0.009016687553806763 -0.0009057916684630268 0.03270416593414947 -0.9299702707433115 -0.1071750406459156
0.181 0.3053103462512277 -0.6308037700775052 -0.009357158381828313 -0.009207953192216593 -0.004513146485281271 -0.005437859099638769 -0.9335936874428722 -0.10273498424314159
0.182 0.3100843556242837 -0.6288581865559733 -0.00934207570867398 -0.00925551058348253 -0.03387266051855544 0.0038260201226328256 -0.9349621990121143 -0.0978240889399541
0.183 0.3019957408387862 -0.6309530885739568 -0.009522453704096325 -0.00926722869349886 -0.010828281936536751 -0.00520728739840485 -0.9289100626655762 -0.08997205291089938
0.184 0.29533811341444305 -0.6321075187961268 -0.009555254923363413 -0.009382094642627422 0.0018606065954558761 -0.005636712983716625 -0.9422538609662915 -0.07160124635678057
0.185 0.29378987837031456 -0.6284907239259806 -0.009583732260440783 -0.009552820717160489 -0.019587749107071874 0.008738904358071304 -0.9354757913531053 -0.07134039467612904
0.186 0.2902931879505482 -0.6301513367932453 -0.009792521148098155 -0.009632180685351686 -0.024963274424126023 0.01532761764454524 -0.9430793990809211 -0.07430369625475869
0.187 0.28610070390017456 -0.6302071077469488 -0.009946357461553541 -0.00964767976931339 -0.010986826593922057 0.0029795533100064812 -0.9398631599165772 -0.05630722247052947
0.188 0.28343584725371057 -0.6302407766057562 -0.010165102450533656 -0.009721389407007414 -0.008509036924876723 -0.000751294085287841 -0.9384517625617943 -0.05244514410211294
0.189 0.2797630257724887 -0.6288440943790892 -0.0104061746721432 -0.009823528779257183 0.001547232189835654 0.005089121648310525 -0.9382121501569873 -0.04091050214312029
0.19 0.2751745190371961 -0.6301979225758778 -0.010582783420612696 -0.009635718780722741 0.016248594491361148 0.02462712638990428 -0.9348072821469967 -0.03726435580988471
0.191 0.2729241654126522 -0.6296682437793939 -0.010865008463711634 -0.009818530548612092 -0.007843873259956691 -0.002100852220103969 -0.9372339137761406 -0.020505506217550047
0.192 0.2679796112186245 -0.6302977212767641 -0.011043771658187719 -0.009801380909273348 -0.02392992750191053 0.016169012929214733 -0.9409418043477753 -0.017899988048410365
0.193 0.26474948766449724 -0.6297802817515031 -0.01136768482329462 -0.009585310505222166 0.011417812597101382 0.03915297695254826 -0.9307831158114779 -0.010489485793825908
0.194 0.2604474523492718 -0.6267490912090974 -0.011526814301307035 -0.009583498545377045 0.003747302564242978 0.013302167059808214 -0.9332907015358699 -0.00239691511209193
0.195 0.25756187261867985 -0.628815292546268 -0.011733919861867247 -0.009509788707888149 0.0004122917728302079 0.02994628880207002 -0.9309151192890487 0.006592299266368559
0.196 0.2572079390696374 -0.6281864685370033 -0.012142664931379471 -0.009384217582725196 -0.019048808031499047 0.00791632986549546 -0.9183915085282552 0.008327148147784109
0.197 0.25026276343850656 -0.6291732853853844 -0.012327710179817939 -0.009177668722278853 -0.008334586265384152 -0.00675403601583696 -0.9193567251763531 0.0183370627307816
0.198 0.24876335012884138 -0.6272363637987567 -0.012651726989175832 -0.009002451161868201 -0.002025480638146587 -0.015320309392622855 -0.9160572062994592 0.02085903968040087
0.199 0.24280298722783497 -0.6257209875478413 -0.012894249412725737 -0.00864098663319042 -0.01649582384618104 0.019416951786250046 -0.9095235796769396 0.025947318109311578
0.2 0.23983905442302303 -0.6252386769385615 -0.013088172141488564 -0.008430092414626993 -0.027373041819765454 0.010509965345981998 -0.8999464864754612 0.03322299810311716
0.201 0.2370015580705006 -0.6245852701432218 -0.013260021529689092 -0.008041181496865864 -0.02600009429010062 0.003712770965635369 -0.8942656444708665 0.03574914160886582
0.202 0.23361323753513863 -0.6267120705754026 -0.013411041250148201 -0.007667311073896794 -0.005405819342743056 0.011569113624786704 -0.8940561533601559 0.03614557032037572
0.203 0.22863715408047589 -0.6233587716232717 -0.013577447979212098 -0.007147193662060396 0.0011315049101628487 -0.007871665360056205 -0.8766948275251223 0.04176905822264781
0.204 0.22590110441326816 -0.6255041055110614 -0.013556407271050196 -0.006690936870554006 0.01648145754117281 -0.002905985254845266 -0.8766347427141531 0.040022596340784304
0.205 0.22730749651475995 -0.621758079899576 -0.01343640421796233 -0.006246488721211405 -0.021941780356805562 0.013497121386549932 -0.873980751146197 0.03660836547364898
0.206 0.2181989466401312 -0.6213610454374126 -0.013242908871255303 -0.005790891160630987 0.004115854160459157 0.009035318899785356 -0.8705360130684802 0.03213929338298407
0.207 0.2158597136059967 -0.6220419125096045 -0.01289801288365591 -0.005430952298717733 -0.013831004801042553 -0.007221064316631101 -0.8687978982426151 0.03371421976066508
0.208 0.211773074707523 -0.6219008739914906 -0.01258781063851838 -0.005219464494935658 0.013369351679598532 0.003944003863847775 -0.8719043757633165 0.024135420053260415
0.209 0.2106153773873838 -0.6240800637183522 -0.012182557726085792 -0.0050030153875781965 0.001378566502219459 -0.008174894369910006 -0.8726343112583603 0.025426617315065327
0.21 0.20697585252217718 -0.622082969737736 -0.011836894619824742 -0.004873795427239407 -0.014854024302099289 0.008520665299979462 -0.8795088661174304 0.027070524572555245
0.211 0.20116709909686029 -0.6265424134548396 -0.0114246544486754 -0.004929022739452388 0.009201659927894287 0.012688803461652487 -0.8863676339987432 0.033172710265287925
0.212 0.19913414192811693 -0.6177297580588603 -0.011133934174015947 -0.005067009703871161 -0.015446556803533379 0.009544009380707737 -0.8899222989249908 0.028476907810603993
0.213 0.19572137521774843 -0.6243505775082354 -0.01087909110403072 -0.005153036198314355 -0.00596353394026211 -0.010132931986209088 -0.8955064332133671 0.03361577399783028
0.214 0.19269862154498363 -0.621833761424909 -0.010701522769858961 -0.005449439306584458 -0.019853798080072187 0.02322567386654556 -0.8955917028133636 0.036809100268169116
0.215 0.19403624131678626 -0.6183301140039424 -0.010537687318365909 -0.005615715594447059 0.00432649807431585 0.017703288440995123 -0.9030570083775309 0.04415349108961636
0.216 0.18561428139501493 -0.6160151125262244 -0.010486859851469138 -0.005695574962356481 0.01101131125336998 0.004895596832129446 -0.9087130225007777 0.051875454912800746
0.217 0.18559041261498596 -0.6162448715767017 -0.010536212311747452 -0.0058498616156237755 -0.002344690925431371 -0.0031621304316791572 -0.9095455859749332 0.0628863805042217
0.218 0.17948905802955148 -0.6155222832754185 -0.010579203700746205 -0.006075017338745808 -0.008855595373043776 -0.017904252378687004 -0.9126418595560443 0.06985107851548553
0.219 0.17892861803306842 -0.6203146270952259 -0.01059081853511557 -0.006186934768148753 -0.0029925786458937027 0.005709708368247429 -0.9134969785893979 0.07288318172033911
0.22 0.172901600492801 -0.6164833319516795 -0.010555498185321779 -0.006391791961239137 0.0015346726284048166 -0.016037630756575192 -0.9188179515465503 0.07743077739554825
0.221 0.17231176614023863 -0.6152536030558575 -0.010782028260746238 -0.006507614525564868 0.008877001090458324 0.008056436289079196 -0.9138639101139788 0.08560340984097889
0.222 0.16836829598397018 -0.6141233978012185 -0.010819147870325143 -0.006523840972375925 0.0029588245048377407 -0.013970483625822034 -0.9142523042437168 0.09637326058108646
0.223 0.16610051642199816 -0.6160874428235547 -0.010921314539628456 -0.006632799841943885 -0.003760508796199309 -0.00558318500175246 -0.9200493798895985 0.1025246956288608
0.224 0.1613808571534419 -0.6111156766701417 -0.01111063768326125 -0.00678211078127051 0.0011605707203101183 0.002085309338508627 -0.9204171813483948 0.11294683910937466
0.225 0.15992212782178064 -0.6121100014353823 -0.011301876021958422 -0.0067656384452899005 -0.008782359322282754 -0.012362047214611607 -0.9186867674177237 0.1222082156738989
0.226 0.1578647318338278 -0.608985670684361 -0.011258800711661953 -0.0068616310652484976 0.012300572992930098 0.002859047182908583 -0.9167645851286957 0.12210025286201923
0.227 0.15286424130009552 -0.6124234320408425 -0.011453793055579291 -0.006918808506945137 -0.012801366789236556 -0.019870398814198564 -0.9184945142861781 0.13541357070357343
0.228 0.1502253446798967 -0.6106374922412487 -0.01161524988386453 -0.006872036038035104 0.02544969174771153 -0.007414777770765288 -0.9132625479002089 0.13112634300943474
0.229 0.14707113919318265 -0.6094037976805599 -0.011699252732888951 -0.006946326183699483 -0.022185416278246852 0.007915416647900035 -0.9142338781271694 0.14625070681733693
0.23 0.14561712562714627 -0.6088093281348924 -0.011891394782040264 -0.006930141536549118 0.0054508889582435775 -0.0016789276544881355 -0.9079562925019733 0.15794522468588096
0.231 0.14244155828380206 -0.6071056467289834 -0.011964727788349843 -0.007054317657083725 0.004303961457098379 0.014678067231103393 -0.912282907805366 0.16360223932833792
0.232 0.1388668640279168 -0.6071816925145872 -0.012183875314410713 -0.007058924060000028 0.008988565006272656 -0.008579067414561768 -0.9051481902619762 0.1634411076811103
0.233 0.13785492155932497 -0.6052781255764395 -0.012321774627532527 -0.007018115899127422 -0.019779756750322168 -0.001655609984335227 -0.9063320994694098 0.1697249486769221
0.234 0.13378164497312628 -0.6057084985823491 -0.012425807559609627 -0.007014484353600793 -0.008871075856448937 -0.009100564620225356 -0.9054298849655664 0.17754743248455354
0.235 0.13160114902314182 -0.6031793880515612 -0.012555733598118016 -0.0069524482247578685 -0.02147012913657196 -0.0057416242913296885 -0.9017224608580007 0.18753086913745223
0.236 0.1273386429429675 -0.6027604972496408 -0.012794262414577207 -0.00696351678915673 -0.004169350528524989 -0.009960724916561749 -0.8991005084823691 0.19900368370037647
0.237 0.1252976422221034 -0.6008237132522254 -0.012959669281517415 -0.006919353612866654 0.0008759226078954802 0.0008473775093359935 -0.8949924634356248 0.19269837829312572
0.238 0.12310312189225563 -0.6004073168801018 -0.013161704757615807 -0.006970518975518688 0.008376412990862 0.0017834320855673574 -0.8936004674954127 0.20215781088948495
0.239 0.11892108473667905 -0.6020074842000475 -0.013339406647651169 -0.00694149277344884 -4.7086148903532384e-05 0.012265218202050978 -0.8926012874074968 0.21354847112894168
0.24 0.1186229468223555 -0.5977199074524875 -0.013437704855976368 -0.006947870539766194 -0.004485386328283066 -0.017892895750604994 -0.8919603465878667 0.22224185265772606
0.241 0.11278612022286434 -0.5966799660642642 -0.013753388977913237 -0.006785029841722004 0.005440458154567758 0.012577435647989963 -0.8843905882341275 0.22601834694482914
0.242 0.11188110008817474 -0.5985128205724507 -0.013886795731691312 -0.0066451819732803105 0.009457731479243087 0.002778818135223386 -0.8834640561243637 0.23675861519867109
0.243 0.1052692904538551 -0.5943696017906132 -0.013997027621484635 -0.006839732311817264 0.01962753438620312 0.002097334516359698 -0.8815425111032855 0.2404633733118631
0.244 0.10647901775812708 -0.5959552738476684 -0.014346185929389616 -0.006709893798041003 0.011114623190047714 -0.022992771424569246 -0.8814174357190425 0.2478894925088263
