!Created with skrf (http://scikit-rf.org).
# GHz S RI R 50.0 
!freq ReS11 ImS11 ReS21 ImS21 ReS12 ImS12 ReS22 ImS22
0.13 0.5183639723130977 -0.5924940190877637 -0.015513382470736794 -0.05747072771208783 0.0025771209502752344 0.04308697120663382 -0.8641510618775042 -0.4542745254587104
0.131 0.5182863716897126 -0.5907840671165314 -0.01576083904619992 -0.05762365239364341 -0.02215331487523303 -0.015261486632143283 -0.8642110639181413 -0.44831608730244665
0.132 0.5183520362663319 -0.5917940933591084 -0.016132664666272722 -0.058123231602740515 0.054348250633053936 -0.01672696711874898 -0.8749799916908886 -0.4419818547152091
0.133 0.5100185908321826 -0.5937210233942394 -0.016554580308204975 -0.05808037918396593 -0.012033905191408472 -0.0689449262544834 -0.8825925105742614 -0.43060078847675065
0.134 0.5088950582317271 -0.6018492637444157 -0.016787999927407336 -0.05832715646306294 -0.014938407857209167 0.007366756457692734 -0.8745852221862167 -0.42269061579487566
0.135 0.5008481991823823 -0.596675224188732 -0.017801293542970532 -0.05839917605884472 -0.02234018006093535 0.0006641338273548703 -0.8839628069655914 -0.41795275610247384
0.136 0.49795076486903944 -0.6055588657398239 -0.017977599335411487 -0.05824831477593033 0.006697760338323007 -0.017509939560402744 -0.8850856716037133 -0.40559110761861283
0.137 0.4936069493433805 -0.5990521757709355 -0.018681068103861505 -0.05815264576646045 0.06780242358665797 0.01910929311761229 -0.8833861589739029 -0.39267562773722453
0.138 0.4889450246056003 -0.6025513274620924 -0.018992892320800717 -0.058515362907248646 0.01143018737615639 -0.01080287440331221 -0.8907304810902625 -0.3852479324144454
0.139 0.48478468325474317 -0.6077408273053917 -0.019494819550799035 -0.05888597212519903 0.02240999361747792 -0.03469781969509074 -0.8922064956720565 -0.38608975876573065
0.14 0.4786421379214851 -0.60526661377123 -0.020856694658580862 -0.0588156057170332 -0.004097157972181574 -0.00474608804511375 -0.8970009754014934 -0.3751615328610764
0.141 0.47204046254897253 -0.6075530437817762 -0.020920214300856017 -0.059308812145880394 -0.012289026876690886 -0.00032986200692734606 -0.8917112254648163 -0.3678764137785335
0.142 0.4708532031580221 -0.6088698137421222 -0.021088318053018598 -0.05875887015340041 0.028361178020456436 0.004219485363891281 -0.9067780263139523 -0.36272186425290864
0.143 0.4640306737878489 -0.6079560695766347 -0.021768478139343645 -0.05895756712719827 -0.03451092762019751 0.009997738466619404 -0.9080378640201906 -0.3495134583172541
0.144 0.4632810002301715 -0.6116541185778661 -0.022962414182692424 -0.05885063441501497 0.01297317451496 0.023767071048787287 -0.9052777112258426 -0.35180109837781737
0.145 0.457259372100494 -0.6144395628249023 -0.023015546162670698 -0.059082636245734864 0.005991873974196176 0.03312660234810679 -0.911744470346523 -0.3341095385644289
0.146 0.4533293704774038 -0.6120241103377017 -0.02340286294930974 -0.05903983225419831 0.018573312247506173 6.490591083142145e-05 -0.9117669793529403 -0.33487731952190897
0.147 0.44971478633549244 -0.6133811937676776 -0.024115711815223272 -0.058385586028363676 0.016058559683103043 0.017172516621144714 -0.9107570081762569 -0.32560789829625203
0.148 0.4440898474087962 -0.6140656274116041 -0.02405074891797489 -0.058511834260987584 -0.0030962847276010236 -0.006008446622964765 -0.9143140811932525 -0.31388038979984245
0.149 0.43931089278432695 -0.6146843899781937 -0.025227692841476353 -0.05849115436481796 -0.026676372195718015 -0.006753284958319781 -0.9177639372038733 -0.30481156787073477
0.15 0.43642877546009745 -0.6158598827342638 -0.02566291439267099 -0.058431205393876404 0.00768351656653531 0.03804173766854435 -0.9283175690559959 -0.30589386510333855
0.151 0.43271791279318017 -0.6154010897178501 -0.025626398498538285 -0.058597711165032026 0.036820151853744675 -0.0033090012873823954 -0.9183997637385192 -0.3024645177170116
0.152 0.4258878852599707 -0.6193992753989169 -0.02645553565276405 -0.05864090962702174 -0.010534320864655994 0.00478918817530351 -0.924074272119664 -0.287679500143681
0.153 0.4256849501476136 -0.6180853512980061 -0.02736124195592598 -0.05883292400622601 0.0558019504060865 -0.0015475231853022955 -0.9386499625939477 -0.2804480463438711
0.154 0.41905794060326096 -0.6224061604851258 -0.02714256344676863 -0.05845284244593365 -0.009569145117306221 -0.016343264142908136 -0.9209332247710085 -0.27205085088727865
0.155 0.4117152025538269 -0.6204734027007228 -0.027980876139596482 -0.05826802775265801 -0.020486292410657907 -0.014557964854519276 -0.9352107921652486 -0.2624080981105972
0.156 0.40907445317995894 -0.6222293551155289 -0.02811487107062152 -0.05836581151458943 0.037240934868117054 -0.008682351906985939 -0.9331961405496031 -0.2528450776402715
0.157 0.4045492834227346 -0.6227462880242299 -0.028788791996718327 -0.05796108424439892 0.042756811265369336 -0.01151851320182784 -0.9320616751176926 -0.2454890878860274
0.158 0.3972918850311954 -0.6202624648128732 -0.02955107138023465 -0.05861992854146188 0.02018605124663804 0.006848504758447938 -0.936334081445724 -0.24255452850670353
0.159 0.39792767739793033 -0.627955943009424 -0.029670994787800487 -0.05830573357511475 -0.02177517990239089 0.03523068578502329 -0.9315778564753008 -0.23452116964672123
0.16 0.39479799430545764 -0.6248441781588017 -0.03050026578020249 -0.058119941740500544 0.04439123386921106 -0.011347838639427258 -0.9345760582110664 -0.22545350767321215
0.161 0.3913031194634414 -0.6273830068985672 -0.03130901158820133 -0.0582631192288244 -0.03845078697753174 0.025370768437351886 -0.9372843624738313 -0.21469423290481474
0.162 0.38695734943728893 -0.6253920652948136 -0.031667064823603 -0.05812228191546341 -0.012816870602652563 0.0029596609464299334 -0.934616839712172 -0.21458912626034413
0.163 0.3829666819093733 -0.6264034890575474 -0.03246702212004739 -0.05781536802700228 -0.023958331735312866 0.03253280018243175 -0.9403651587070199 -0.19999042110167586
0.164 0.3810816795460683 -0.6248904674909305 -0.032797033424899195 -0.05758589914065386 0.008671698010697356 -0.044457209559063036 -0.9401277548199514 -0.19675200253696817
0.165 0.373438543115111 -0.628036036075715 -0.034077753757928916 -0.057770274567674904 -0.019010063969453567 0.001988316930854904 -0.937478981092713 -0.18706877247984294
0.166 0.3689918831850837 -0.6293917896172594 -0.03498818726610413 -0.057229301249538955 -0.014534572287833928 -0.016955603087730454 -0.9369706852853986 -0.17764045789196312
0.167 0.3664594040717005 -0.6287015646764949 -0.03524886949227955 -0.057022789677914125 -0.015037370780491402 -0.0732419730209789 -0.9407864250668542 -0.1777441846839812
0.168 0.35871635472789143 -0.6313931073840938 -0.036563018429028336 -0.0569895439283882 0.01791459590693424 -0.013283350347534681 -0.9334974678045131 -0.1656402713397598
0.169 0.3571906744474626 -0.6240009881357653 -0.03731397529865779 -0.05594240132260608 0.013114371190922205 0.011758720478710582 -0.93577059587145 -0.15916188175509283
0.17 0.3487599656136793 -0.6295503541712887 -0.03861581519473311 -0.05579784527247536 -0.052238531545011194 0.02370542096096677 -0.9386452774196067 -0.15242442075574206
0.171 0.34461995350212565 -0.6280731469465884 -0.03918476241114467 -0.055254064118615255 -0.0008186279739537476 0.004003206885649834 -0.932437220911023 -0.14656548444170342
0.172 0.3450245667162636 -0.6295893554310888 -0.03986544756569241 -0.05450142360720148 0.008373120991319238 -0.0010227962936291547 -0.9331751812254395 -0.1338691226570959
0.173 0.3432943316488445 -0.6319906078255914 -0.04129920157725136 -0.05312230976337176 -0.001182979359089238 -0.01599885734459119 -0.9273350231779391 -0.1386335235401971
0.174 0.33613158038484325 -0.6331189807954738 -0.04289298538907561 -0.051664495588686916 0.023280991795987586 0.0031659880508673054 -0.9266195750429936 -0.12499264188976099
0.175 0.3306114980873691 -0.6315127037319064 -0.042208874745141234 -0.05031673140303013 -0.02544874502684486 0.018371097940334764 -0.9223580816755262 -0.12350932664878722
0.176 0.3248650182775622 -0.6343016225478116 -0.04308238627271985 -0.04909288286678521 -0.009883937735046915 0.01783603425191195 -0.9259359134346608 -0.11940604225814153
0.177 0.3262635792668988 -0.6314069710203454 -0.04219330455764465 -0.04810266513053201 0.0146734727989379 0.0012994669521979648 -0.9209428797328904 -0.12575778979850333
0.178 0.3240731300428295 -0.6265955545895994 -0.04184606623109928 -0.04697503848751809 -0.005732253958433962 0.015254223615894834 -0.9224845131764653 -0.12043905309106202
0.179 0.3165252563031172 -0.6302678677846073 -0.04124564547888602 -0.04584676681157552 -0.0016098270875623964 0.02486814451617001 -0.9286851951310268 -0.11143153910095735
0.18 0.3134022469504518 -0.630525330039102 -0.040458166211075994 -0.04635836641859453 -0.02665354338104272 0.009839269382868982 -0.9310690916215227 -0.10407909830353093
0.181 0.30710195638349785 -0.6303536344773727 -0.03997554483374948 -0.04655723059869501 0.007537071420400444 -0.002160449646298589 -0.9329853778036838 -0.10190404348250312
0.182 0.30699615161971655 -0.6303096482320635 -0.03977850051000349 -0.04744240438078008 0.007817242948529843 0.005138593409446359 -0.931461732472828 -0.09536401266704873
0.183 0.3009114641764513 -0.6297658202585347 -0.04048803394230104 -0.04735074556114392 -0.020064980938715792 -0.0011310290393537076 -0.9258482749035173 -0.09196796523391385
0.184 0.29855612288464795 -0.6305812922067711 -0.04050725106309128 -0.04804926562279447 -0.0076656609006119794 0.033365374854776614 -0.9427680419076442 -0.07153924283907392
0.185 0.2951209231621359 -0.6299101133714687 -0.04039322270890892 -0.048969033263931636 0.004501353854625869 -0.004327026392709323 -0.9332405165252682 -0.06941837925332003
0.186 0.2925842098896663 -0.6313772515477762 -0.04143638370136788 -0.04901290850969846 0.0371433327815232 -0.007484193994886861 -0.9456382374711012 -0.0712917793619986
0.187 0.2859090692725258 -0.6297316612918356 -0.042269198186230816 -0.04943355199959438 -0.004793921131803543 0.0326352238231066 -0.9399734001921773 -0.0568630382892649
0.188 0.28188796542453426 -0.6302347349324016 -0.04296533825843176 -0.05001878123239171 0.01775861859776482 0.03506752018640823 -0.9394502732392204 -0.051656620553967955
0.189 0.2801544847866648 -0.6296719666239414 -0.043909407723234456 -0.05038200084873175 -0.03595862794466448 0.04966237432043829 -0.9393133939298185 -0.04172284985409283
0.19 0.2752720210069189 -0.6301951120544631 -0.044876491903989076 -0.04994769554769324 0.011252164158588724 0.014446270631804377 -0.9287412344434076 -0.03276826496196763
0.191 0.2731054253668609 -0.6287205898989392 -0.04613230414723995 -0.05028770290712197 -0.015451810466251908 0.011528796153481574 -0.9405383238316263 -0.02412878961819216
0.192 0.2676639251599608 -0.6295246164208488 -0.046893047010354676 -0.05067130368743223 0.0008286343934267288 0.001532537775321936 -0.9366327471056217 -0.01749780750672674
0.193 0.26498720481178156 -0.6302944560876127 -0.04844804112645051 -0.050093859615976094 -0.007441547408081609 0.0043419048183914654 -0.9300989585123782 -0.004563559674510883
0.194 0.26136746617732926 -0.625807378329265 -0.049237028724542796 -0.049988199516715355 -0.0015522413579641238 0.017233195221933197 -0.931648517303546 -0.004372663136938815
0.195 0.25956292273405296 -0.6296238465847148 -0.05027961398279067 -0.049847839943806226 0.020692901787379224 0.010128490227490452 -0.9287087091081309 0.0057906122890934225
0.196 0.25660716955056684 -0.6288734962206133 -0.05196339929944565 -0.04927106199231923 -0.002357244910107006 0.015219588079865742 -0.9189814992626693 0.011408316586469163
0.197 0.251516202903625 -0.6301780411185136 -0.053126060641926806 -0.04850563912340487 0.01249279213228382 -0.019907430073394163 -0.9200871897307239 0.016772075380077283
0.198 0.2509183452684751 -0.6252698302908402 -0.05442638406767081 -0.0480359140740311 0.006219044083021255 0.028949439091419518 -0.9069641619733746 0.021040962923612214
0.199 0.24226297212080178 -0.6244247535372336 -0.05571339306187216 -0.04657890880178531 0.014399974943935816 -0.006415729795103437 -0.9049133437781793 0.027455572511205364
0.2 0.2413792670619107 -0.6265014243063937 -0.05655618506479477 -0.045401912521046556 -0.0034027842990529394 0.016706386497302276 -0.9026251508478546 0.030656172962896473
0.201 0.23550915217675097 -0.6249503046894868 -0.05794877571884714 -0.04395931323693393 0.0005500129110506469 0.011842848928705782 -0.8954246711201076 0.03565940948712893
0.202 0.23358317728976258 -0.628803843384616 -0.05862635782535449 -0.04208712983125544 0.002438232759051672 -0.02836061641807364 -0.8894874906942286 0.03994593802155606
0.203 0.23000409182105133 -0.6248702178711081 -0.05952226946472978 -0.03983200023484465 -0.012095339758792073 0.012237917160051874 -0.8756857554363429 0.03899430558758793
0.204 0.22653183646710615 -0.6227681268978729 -0.05961157172131729 -0.0377281102655998 0.0018150738464569193 0.007446234364235084 -0.8749149612350303 0.041949232950069984
0.205 0.22717187924646154 -0.6239894760253493 -0.059565401612029015 -0.03547557573706379 -0.023633059295733942 -0.007585884208773884 -0.8759725319483839 0.036211898133569835
0.206 0.22116396939871388 -0.6245231356604976 -0.058183437936160376 -0.03355940395432328 -0.015142590994250556 0.004894355434239364 -0.8721458600039284 0.0302505640861442
0.207 0.21751323302243375 -0.6209737949309124 -0.05721683736007414 -0.031737725696384916 -0.00987914029495409 -0.00410193929375459 -0.8692751931878925 0.03310844678479102
0.208 0.2123711043185276 -0.6234057529554681 -0.05546203898547 -0.030131536799712418 -0.001748794784768636 -0.0027513902401917795 -0.8741831699590749 0.02518211369301633
0.209 0.20966160567579104 -0.6247368028843436 -0.05369658549455851 -0.029746666082004075 0.005489376882531618 0.00393398199145889 -0.8754724744294423 0.02156835242980575
0.21 0.21026598657026496 -0.62123326667501 -0.05171605241300893 -0.028670774990729658 -0.015005086645354637 -0.007193668586452761 -0.8788591567867089 0.027492345033756693
0.211 0.20404571724221934 -0.6235913256505938 -0.050434987059435374 -0.029021799832849374 0.0041222772483880815 -0.008032247497404704 -0.8854545663435954 0.032605511976253485
0.212 0.19947162656276712 -0.6216541324168189 -0.04874014094201143 -0.029698374384243567 0.007347420649058143 -0.002915490432516725 -0.891939803756492 0.027527420294588566
0.213 0.19950348795132278 -0.6255558731182828 -0.04739821596939397 -0.030363234964258752 0.0021850409998277814 0.008829508715986967 -0.8976059888927161 0.03235601832983893
0.214 0.19224945536867113 -0.6211486643418929 -0.046793954422213034 -0.031105139808538265 -0.004522824472671108 -0.016521122770436037 -0.897526762499534 0.0381777573140617
0.215 0.19746698390734252 -0.6193689715455687 -0.045746133932532476 -0.0318465263273608 -0.007651455452999732 -0.011582067021461381 -0.9031048365685707 0.044016898405805846
0.216 0.18835897263494722 -0.6167071515126191 -0.04528118589662174 -0.031999131111095466 -0.0042482671556230665 -0.011807049189618127 -0.9079992250112081 0.050393800571321964
0.217 0.18595462214145467 -0.6188723517814967 -0.045625142717395 -0.032705700693818014 -0.016245425211563434 0.0004354764873133707 -0.9108917282364298 0.05996123901446725
0.218 0.1799143430748665 -0.617143783377887 -0.04535067562895839 -0.033730917775171135 -0.005811249490010702 -0.004281769494645925 -0.9135275893151528 0.07036147813471727
0.219 0.17934179450769347 -0.6200058809025553 -0.045551116759293464 -0.034859521033186604 -0.015106262136947074 -0.00011544350662253689 -0.9132640416333938 0.07658217660494002
0.22 0.17640700174689905 -0.6155660783474014 -0.04513546279492498 -0.03531352857183766 -0.008603561770068966 -0.007242399771837758 -0.916926970930722 0.07834065144525129
0.221 0.17260224238276395 -0.6189145239287015 -0.04583459473617971 -0.03579050718927014 0.013316739837114318 0.015572289559960548 -0.9167254279549641 0.08643548790867879
0.222 0.16812609755166671 -0.6142546230510286 -0.04602728522377033 -0.03618759531325899 0.027814980109510442 0.0016399390842320575 -0.9139057823118196 0.09488547764469263
0.223 0.16542707675520607 -0.615883525936385 -0.0463064049962457 -0.03666785212473147 -0.000627846753430921 -0.013042857115038433 -0.9216152805885344 0.10340803808940568
0.224 0.163193980121976 -0.6125015197111958 -0.04697685050038066 -0.03725628189536379 0.008044219699435867 -0.0024641412853669852 -0.9199160153541659 0.1102663528930271
0.225 0.1617764340079791 -0.6127093854596136 -0.04788129288043575 -0.03756686744349409 0.0005310798621267304 -0.009975298104810536 -0.917440770047353 0.12038015521340636
0.226 0.1575110987600682 -0.6112154258677444 -0.047459866411752386 -0.03801972779918455 0.02667977540665447 0.0005003284448075141 -0.9092168281771374 0.12559547976931373
0.227 0.15467738590898725 -0.612604702002801 -0.04841542416837739 -0.03833739880777024 0.005225787028775224 -0.015576953699563047 -0.9114061644496274 0.1291808398565234
0.228 0.15242507894659432 -0.6084130787875905 -0.04901593421009922 -0.038377235265511504 0.0046924825045512155 0.00015710732816908406 -0.9078924902156837 0.13449158842956827
0.229 0.14784448895383082 -0.6094003023481432 -0.04939588986989422 -0.038936960403013685 -0.018794945308176058 0.00807587210003113 -0.9156381255488671 0.1466655818365777
0.23 0.14561824591745864 -0.6094839999037335 -0.05040733199776108 -0.03876043848021665 -0.008814110774458971 -0.008794055341441379 -0.9127499071041371 0.15315010292307932
0.231 0.14276381798262433 -0.6066596503956635 -0.050530190293167 -0.039470218617004955 -0.012429726763612647 -0.001771527448156647 -0.9097056947823488 0.1568930517566514
0.232 0.13824543653040322 -0.6074499316574715 -0.05152369012510017 -0.03962946060061044 0.0067289330071231895 -0.0029843485007484266 -0.9073126452821471 0.1604012176676821
0.233 0.1383471495119701 -0.6055054114552636 -0.05204392988040475 -0.039356046167248894 0.009068176035430975 -0.007527115162558326 -0.8999780834693811 0.17369325739329322
0.234 0.13339751332598246 -0.6050794754372355 -0.05247682901040222 -0.03953620707288888 0.016661284747895355 -0.005361877813323063 -0.9030362971593555 0.17825125091650715
0.235 0.13227051744689583 -0.6039158526641578 -0.05341350141636094 -0.03971598011870917 0.0017701866077351608 0.005264561759783314 -0.8985847064664562 0.18829466880547907
0.236 0.1272397723928769 -0.6035216745830525 -0.05441839222137943 -0.03978403673324093 -0.006603339274813951 0.003306932306499694 -0.9033362623771962 0.20301987353431722
0.237 0.1252789393230928 -0.6011484202109542 -0.05469496477045631 -0.03977131593273961 -0.0026341820346142174 0.0006937277848931074 -0.9014107805930432 0.1921523740020661
0.238 0.1226179663647079 -0.602537406343065 -0.05552713659040173 -0.040057821575654205 0.006679404689841333 -0.0056600995245690315 -0.8920741311362205 0.20730999212474935
0.239 0.11957180493732425 -0.6018571420830974 -0.056076950894908016 -0.03967237977320276 0.009136315963926273 -0.0063470955128792856 -0.8912813546798495 0.21138821664678914
0.24 0.11783389541961674 -0.597910119013491 -0.05699500255926297 -0.04038189558757779 0.006788490548347413 0.0038423961257667213 -0.8884708660941198 0.22028736826890524
0.241 0.11074797352610534 -0.5972427060566888 -0.05820684242983744 -0.03979879214411307 0.0010566226997994344 -0.0031194338782936175 -0.8808695201547734 0.22272549512689532
0.242 0.11100920047046328 -0.5997186852194427 -0.05901230415752135 -0.0389747675453212 -0.0066431653847614505 0.002645783678139288 -0.8825727831925302 0.23610430810207758
0.243 0.10799298185477561 -0.5950929633242936 -0.05907041096292468 -0.04039147618081547 -0.005328805530617829 0.0034636671583620727 -0.88381369384939 0.2380438148180255
0.244 0.10534942822674045 -0.5955628930438648 -0.060466187064954914 -0.0393621776976515 0.0030087236597518374 0.012966964549078544 -0.8816396415297272 0.2470191302953467
0.245 0.10174304439839109 -0.5973103933211191 -0.06137280262889195 -0.040092998644033734 -0.0019132855392440498 0.004749254384300486 -0.8730292814827573 0.2548173618443577
