!Created with skrf (http://scikit-rf.org).
# GHz S RI R 50.0 
!freq ReS11 ImS11 ReS21 ImS21 ReS12 ImS12 ReS22 ImS22
0.13 0.5206329828447175 -0.5910288774358202 -0.0014137136933147125 -0.0031177073154088006 -0.016698593624861254 -0.0027670186225863358 -0.8597490228612028 -0.4540364282266744
0.131 0.5172301279350111 -0.5939832231326186 -0.0014730285593118609 -0.0031035338009253945 -0.02230588514638653 -0.01707916486791759 -0.8690889726128221 -0.445370539326436
0.132 0.5146456937720343 -0.5963789475203253 -0.0014975976987396233 -0.0031584093819233276 -0.03211566824066722 -0.05885418754711704 -0.8785974352404778 -0.4433704605360017
0.133 0.5093854777377973 -0.595932408757874 -0.0015375454011126186 -0.0030925703460548794 -0.022775009077478394 -0.08621328457003109 -0.8804679977010226 -0.4262148384266151
0.134 0.5058587355485553 -0.6015403556628127 -0.0015223750764544997 -0.0030996453787719195 -0.005449401211541064 -0.036705495865723116 -0.8817101060585939 -0.42003935674890497
0.135 0.4997699060157877 -0.5986047828374803 -0.0016021339900627023 -0.0030832040450399353 0.00012297714776339595 -0.04390384502842958 -0.8859263885674944 -0.41934690300811833
0.136 0.496712454996218 -0.5989254575679072 -0.0016316296715513457 -0.003086101990151415 0.020353725789085356 -0.023667919066821017 -0.8884831953182053 -0.40988356486974264
0.137 0.4901649391283833 -0.6002096821928712 -0.00164778547941 -0.0030726620299765793 0.035686917815722016 -0.05039678949221177 -0.881167354818337 -0.393483782479011
0.138 0.48885112770446754 -0.6020897654607071 -0.0017026510395551525 -0.0030809359916073318 -0.012769347757717913 0.009663465301662472 -0.8918860107949119 -0.38372691950549065
0.139 0.4845831443905045 -0.6042651872489259 -0.0017237578058781262 -0.0030715790758390664 -0.023061135258724698 -0.019626272288977738 -0.8908500918530493 -0.3833734559815211
0.14 0.47718636753433297 -0.6088100474017702 -0.0018025179119316738 -0.0030311811225564107 0.0266727090919092 -0.032539640111943616 -0.8966365490355582 -0.3798117484893455
0.141 0.47355604616383523 -0.6088650781763124 -0.0018540587074048947 -0.003065401484938703 0.05443163739716972 0.010243122968582145 -0.8941574780961775 -0.3672265255495864
0.142 0.4708488718208773 -0.6084963862711317 -0.0018322244932765556 -0.003021285478838579 -0.024878395182438364 0.009831679002032627 -0.9074477531934831 -0.36116828091368464
0.143 0.4631567535443754 -0.6086951698569298 -0.0019060486438588135 -0.0030067672292494207 -0.06040611289350615 -0.05444654944389066 -0.9075645759304367 -0.35205246857520467
0.144 0.46147713124891115 -0.6121479107919962 -0.0019371966780914185 -0.0029954112438683295 0.04226314766892035 -0.014590512416718656 -0.9058283745101636 -0.35055733299785846
0.145 0.4571513966710671 -0.6135841125462916 -0.0019644035455981474 -0.0029586826937796295 0.019318710515408125 8.719933566660525e-06 -0.9159063813682982 -0.3320917087367294
0.146 0.45367658959607454 -0.6121360492468827 -0.0019719767269330865 -0.0029608255453629695 0.018719779316661442 0.016113425792345603 -0.913836560045027 -0.33330340244708156
0.147 0.44946356657996706 -0.6145811952358475 -0.0020220238049185684 -0.002934701392826949 6.0044685124679445e-05 0.011968913550963078 -0.9103472101666547 -0.3244325259279683
0.148 0.44458928302391465 -0.614594645482383 -0.002040894113014561 -0.002949609191951213 0.009393126431003164 -0.003917104942404023 -0.9158211045787283 -0.3152136914228651
0.149 0.43910227796987417 -0.6156498472218214 -0.00211976716346964 -0.002882484651598776 0.013416152558168831 0.007433698407032483 -0.9177883933955319 -0.3059329101750473
0.15 0.4355547407830724 -0.6170618701576268 -0.00214431107098575 -0.0028715749919102193 0.006908359199407562 -0.046624124386210226 -0.9261881880790975 -0.30276998012227296
0.151 0.4327114061084151 -0.6171498529892512 -0.0021481910278040215 -0.002843289827466857 0.0023253868583011576 0.03531809041314567 -0.9202316722979118 -0.29967924035732085
0.152 0.4257734559075854 -0.6188730787550157 -0.002197403876660674 -0.002831224967018944 0.02486474894894307 0.020836255251751066 -0.9197218192473101 -0.28291868227990613
0.153 0.4261316625468814 -0.6185376916498223 -0.002251505842656564 -0.002832119075073502 -0.02697360057778381 0.03706199030960516 -0.9306037893726219 -0.2806033494651817
0.154 0.4155218119625612 -0.6211203481114769 -0.002241346837667199 -0.0027888638058383972 -0.030534677458132528 -0.009880411801135022 -0.9274675411192943 -0.2705215459726989
0.155 0.4113810494797975 -0.6203509909087627 -0.0023310289643281704 -0.0027469731242585243 0.03814108155681786 -0.009080334589927214 -0.9300771761841874 -0.2624995328212838
0.156 0.4090449749814292 -0.62610608977899 -0.0023231649342994208 -0.0027586564076083108 -0.011233843053058856 -0.004469948008297442 -0.9330264875150391 -0.25165452481984313
0.157 0.4044011207643159 -0.6230766434025399 -0.0023694219856407153 -0.002732662920576283 -0.005606462078016421 -0.009216644130401807 -0.9320791661600558 -0.25081472047292164
0.158 0.400101863314879 -0.6211154122383626 -0.0024081618972882405 -0.00270453155816967 0.026758174352778507 0.004330832799455993 -0.9374951576522342 -0.23854019336840077
0.159 0.3949477862977541 -0.6246958508437965 -0.002418801019919359 -0.002679363229964392 -0.0024878593692944113 -0.025157431793120928 -0.9349208356065237 -0.23347005844113153
0.16 0.3919758924349452 -0.6231996902515218 -0.002483891258216574 -0.0026651927784112927 -0.010302471522650184 -0.03452550254487475 -0.9305119638073538 -0.22154051016893028
0.161 0.3905912183176407 -0.6246519586456024 -0.0025392025042593894 -0.002656684363814708 -0.010022293206524684 -0.020570939382458305 -0.9405490031851258 -0.21667190321060167
0.162 0.38899176715193096 -0.6253084966250939 -0.0025882514797054765 -0.002641383225205202 0.005522765936053603 -0.005627525507081011 -0.9419819368856162 -0.21046398187365656
0.163 0.3787362746390181 -0.6274291901321063 -0.0026211087563724066 -0.0026227800314138285 0.027830311473935544 0.009367051670476348 -0.9362163403552748 -0.2049986830287129
0.164 0.3779258252613096 -0.6232234114474868 -0.0026351372122716465 -0.0025536423322920472 -0.009732970553286329 0.031603784262957554 -0.9427718904984091 -0.19596384535594968
0.165 0.3735678006229469 -0.6258826960423598 -0.0027345029361261243 -0.002572092748901175 -0.0007231168063611198 -0.022886179944797722 -0.9421129511974137 -0.19031392282054585
0.166 0.37216039052982863 -0.6281285303133727 -0.0027711759219823484 -0.0024863730406766643 -0.039828727390890266 -1.249996771237054e-05 -0.9415942182629615 -0.18015170146838688
0.167 0.363711554578098 -0.6286934775562955 -0.0027988063391193494 -0.002492668042906956 0.011013943420696528 -0.01947410304138143 -0.9425546832907807 -0.1763103664674961
0.168 0.3536073395035 -0.6295735689519713 -0.002850206472728635 -0.002389116278091143 -0.026974147448364613 -0.014745143456635126 -0.9349423200711421 -0.1681642877707687
0.169 0.3552510842399781 -0.6261226104976528 -0.002917816188372574 -0.002339711383497167 -0.0214782256622949 0.012266076031516809 -0.937847074794402 -0.1584711295024369
0.17 0.3504326643521166 -0.6290078884064345 -0.0029617436443315015 -0.0023005639244749105 0.023101561167468372 0.028977236062644286 -0.9405842879978326 -0.15259857001745733
0.171 0.3440923986071055 -0.630843053297051 -0.003024196578580044 -0.002255454120809053 0.01390346251948255 0.036627946983951463 -0.9364486228569856 -0.14945822760032043
0.172 0.3428327043227394 -0.6299440260437769 -0.003048107599795781 -0.0021719046822228326 0.011429685375211234 0.0009075161805750879 -0.9308920438342094 -0.13418587710731814
0.173 0.33887533222310456 -0.6339918913508784 -0.0031024974995362943 -0.0021317544085534424 0.00017281144761116226 -0.002147993340208754 -0.927370218596379 -0.13915251779971136
0.174 0.3376116783407271 -0.631457025335568 -0.003169970130889654 -0.0020287042281218657 -0.003341271710571213 0.013389020418828994 -0.9270902868027189 -0.12532195537318633
0.175 0.330630780561329 -0.6304101826344501 -0.0031668117520266955 -0.0019415557932896922 -0.03716129798798474 -0.014081025602689033 -0.9245174420998663 -0.12650913074186745
0.176 0.32286012006153747 -0.6294868657474655 -0.0031529036888198864 -0.0018358344841708314 -0.021762093722548188 0.015870147931690382 -0.9259949779891441 -0.1167187687148741
0.177 0.3202542798599089 -0.6313826347911006 -0.0031326841894600234 -0.0017765589170264978 -0.012168154542209935 -0.0005235893796577054 -0.9204421148216062 -0.12388917381002441
0.178 0.32335917898902844 -0.6320075922604119 -0.0030888031223066997 -0.0017231809186489821 0.013421890444708585 0.022827589221055086 -0.9251503494348955 -0.11733045807338359
0.179 0.31891349097522736 -0.6292506849995997 -0.003026804048580439 -0.0016923518755823503 0.006567439372532298 0.01877319854319249 -0.9284867628570445 -0.11502199800332412
0.18 0.3111414447251032 -0.6309662030483748 -0.0030047374277355023 -0.0017000910562557914 0.004309811740092286 -0.010845887034213682 -0.9293876082708549 -0.10263494663749385
0.181 0.3046878034985561 -0.6305214932806683 -0.0029884731951324325 -0.001750018787719611 0.005215949395294121 -0.01163243028351213 -0.9351278759343589 -0.10173758858449167
0.182 0.30744831362242847 -0.6323140455870528 -0.002998082625699804 -0.0017417238506870554 0.011408215295711503 -0.005226861930084143 -0.9353730808521068 -0.09735590488783964
0.183 0.2985093990289517 -0.6291291960668579 -0.0030466360029106757 -0.0017548537546336683 0.02054139506359106 -0.0017941385020372252 -0.9294241507914979 -0.08881269202048701
0.184 0.29467141634187294 -0.6314786354483901 -0.0030911179612907536 -0.0017763162227465987 -0.027298996306102295 0.005243650767788944 -0.9399470208336853 -0.07202353968843632
0.185 0.29275726629448057 -0.6306776242804898 -0.0031048315562111645 -0.0018097581428125477 0.022358636563102205 0.007466084285349404 -0.9388424463338386 -0.06766846814505573
0.186 0.29060839537825445 -0.631795949562485 -0.0031858751389616875 -0.0017909313156474497 0.02117421699252095 -0.005363011388643871 -0.9442868353855624 -0.0739445208994106
0.187 0.28416031592991753 -0.6300078750933947 -0.0032329017984942146 -0.0018062315834434142 0.019740901037124996 -0.00027658678460106174 -0.9403274199257473 -0.05506082529665365
0.188 0.28234778811988737 -0.6293039563827739 -0.0033013936377145744 -0.0018307855917266522 0.01563145549775003 0.023085546911092866 -0.9359053499489175 -0.05226387930480216
0.189 0.27975095669783423 -0.6292357131521271 -0.003368181164944814 -0.0017979101238559127 -0.0019429390348508415 -0.0015652606555605476 -0.937429966125734 -0.04050574378661413
0.19 0.2755869565425693 -0.6295658535344503 -0.0033864844149132573 -0.001723641320999946 -0.0006035977240133236 0.010101502634277174 -0.9375117331773215 -0.03463735727022462
0.191 0.2725509987885077 -0.6286884521964553 -0.0034762693590087183 -0.0017523263383794848 -0.0218658702075856 -0.0077278328964004404 -0.9345036532261833 -0.01708543617666059
0.192 0.2675747865939358 -0.6291534236866143 -0.0035457841490560246 -0.0017318012349730504 0.006207163907840539 0.01888676553105684 -0.934737309067987 -0.021247971046610102
0.193 0.2651953337728477 -0.629648563289437 -0.0036344016037907954 -0.0016541106021047854 -0.017820102404451064 0.02936095800130036 -0.9327729644802858 -0.007054789864463968
0.194 0.2610214926347192 -0.6270919209257686 -0.003673877872530564 -0.0016306210467837167 0.021834046368463107 0.020339574190084964 -0.9349195633415527 -0.0005669611296990881
0.195 0.25803802156992317 -0.6282745341923714 -0.0037248810060881207 -0.001609568854410599 0.013557958694922712 -0.004886208893960709 -0.930660490658443 0.0077696774961989274
0.196 0.2569654143021196 -0.6273718829920751 -0.003814231641419003 -0.0015075443370502774 -0.01211692305407853 0.010179432215418175 -0.9234651866677638 0.012586985472101988
0.197 0.2494731593935821 -0.6283746578539539 -0.003903657049698305 -0.0014653495420926881 0.018826704928377107 0.00976642383176042 -0.9162822246602089 0.02198428024264021
0.198 0.25059678940132407 -0.625798099225736 -0.003938069197511085 -0.001398804842488142 -0.0006183203623161632 0.01594947675499693 -0.9117726165712303 0.024583265747924812
0.199 0.24369936194013184 -0.6263088860535095 -0.003994290588803358 -0.0012757784906342097 -0.015844947258249694 -0.01344856029946824 -0.9121910593291165 0.0265037390276413
0.2 0.2394378288038771 -0.624925888009187 -0.004021337149940741 -0.001217495854032108 0.011878182590317735 0.005781143081981369 -0.8996007608945341 0.032690076127155354
0.201 0.2381809183440131 -0.6246191450633821 -0.0040338346712817524 -0.0010654469810689815 0.003024326823208226 0.01047890879727819 -0.8939766403161815 0.036013315658869574
0.202 0.23493670185996962 -0.626660798434312 -0.004065472106535076 -0.0009548764915609347 -0.012224522176559737 -0.008117232649654952 -0.8938170844103607 0.046513093680287595
0.203 0.22804174383223041 -0.6244539545898089 -0.004087588561339662 -0.0007709670217608304 -0.01136708436173326 -0.002239138728028558 -0.8776933116368633 0.042641749069991575
0.204 0.22671363931290617 -0.6258601247339706 -0.003995970093624216 -0.0006660112837813288 0.015646744616886074 -0.0008447985178988061 -0.8809216620469048 0.04320809817267043
0.205 0.22595533239562088 -0.6256700318796123 -0.003952089142515776 -0.0005560075526562909 0.014708241867493034 -0.01738004728217357 -0.8779948734423942 0.03643442674121469
0.206 0.21818179164563978 -0.6159891091346124 -0.0038672638684968115 -0.0004354824790251164 -0.002532516658349955 0.006408702265470535 -0.87071709687277 0.034254530203735464
0.207 0.2156605906981915 -0.6234481821026157 -0.003778381596359122 -0.00036135591022695403 0.015591061733564024 0.004943071102253318 -0.8701469890521986 0.037713801803717015
0.208 0.21341810657321372 -0.6221218105004263 -0.003622961387618087 -0.00029849847603624836 0.0023251813965989377 -0.0067936536187429356 -0.8758020022977188 0.025643167025790746
0.209 0.21101149550525075 -0.6251804620867697 -0.0035712850896764533 -0.0002999530118817231 -0.00477186686547238 0.02389445532952591 -0.87493697521743 0.026868803702267352
0.21 0.2030967335607237 -0.6205450262045544 -0.0034476907066337777 -0.0002888373315130546 -0.011073660021541983 0.03207422814433419 -0.8776565290637115 0.03199013440869672
0.211 0.20403733019000467 -0.6229019149064979 -0.0033584160748151752 -0.0003132310758373293 -0.005296417496707621 0.0013467277260918787 -0.8847769993583161 0.034605179700166314
0.212 0.20276182505244197 -0.6230355159662371 -0.003302189215033254 -0.0003804941435743166 -0.012612813656404032 -0.007046953141505212 -0.8911612651108234 0.027795466676644395
0.213 0.20146895746391782 -0.6257824063683433 -0.0032847150391522315 -0.00043499323816370333 0.015066451831419594 0.0015523598689883295 -0.8969426083476437 0.03544994802774562
0.214 0.1941762634566204 -0.6216873030002008 -0.0032323063317808544 -0.0005099063682802666 -0.006984461415264725 0.00012050003373055386 -0.8986498829445052 0.03772839557922834
0.215 0.19254007322132205 -0.6185379423014735 -0.0032163232886786345 -0.000553580348282659 -0.013924303068481789 0.008518961140540675 -0.9029444430589066 0.04631347195907806
0.216 0.18525082190293576 -0.6190869164434029 -0.0032197213719532304 -0.0005796128125485512 0.007890149157853228 -0.0020186860266508027 -0.9096206869875435 0.053721360365190866
0.217 0.1863753982528113 -0.6185092487337515 -0.003252316178278886 -0.0006183676534797801 -0.024806449518341735 0.009862274562892107 -0.9082033179554998 0.060723347643262135
0.218 0.18431608392031357 -0.6145944448602086 -0.0032475777379192767 -0.0006881504868319779 -0.010803342126087351 -0.007672074403389418 -0.9159541669440584 0.07212167381649874
0.219 0.1775862249195504 -0.6206780725927352 -0.003270371096932442 -0.0007100515851411034 0.010947402807566897 0.000811894978223832 -0.9159586355669296 0.08063393815278816
0.22 0.17371534227568228 -0.6165029602413199 -0.0032912858962374043 -0.0007560436826424727 -0.0009340055597710401 -0.009289593485881651 -0.9167100302255704 0.07630747508950375
0.221 0.1711033141969188 -0.6159937740668362 -0.0033860110391457096 -0.0007249008296775269 0.011093616121773632 0.017800277254566232 -0.9152365610349404 0.08900328704959169
0.222 0.1687300312613434 -0.6156562198712624 -0.00340476555354257 -0.0007266694500086127 -0.003757779346699284 -0.010360434268051421 -0.9102600250161599 0.0960657018763156
0.223 0.16750805953781409 -0.6142004405164515 -0.0034379095123784204 -0.000769927520671287 -0.00250622050776265 0.00927037168558661 -0.9204275016505892 0.1030745161805647
0.224 0.1617330976530977 -0.6123503842733579 -0.0035138627319830774 -0.0007897224362190745 0.0006809765060416349 -0.0025711101580211653 -0.9197916335581859 0.10980043353058974
0.225 0.1618833541862504 -0.6112426301300674 -0.0035637930452160995 -0.0007505280693312665 -0.013182420437652697 -0.002858980883024392 -0.9200554080675022 0.11886061347639591
0.226 0.1564660571025112 -0.609942232552804 -0.0035832802212741903 -0.0007652993342006222 0.00901132225597039 -0.008688026238883763 -0.9180818389555063 0.12298748304756392
0.227 0.15358006711088737 -0.6128268379423574 -0.0036426903330428854 -0.0007391943065429026 -0.01896245223022623 0.025526703161688497 -0.9180402645540207 0.13346810784653157
0.228 0.15149060955643218 -0.6094874676446744 -0.0036711925854896214 -0.0007440307373126853 0.007062753214663066 -0.001781084325683937 -0.9182203869031689 0.13552732041135185
0.229 0.14857978894576573 -0.6098649645592246 -0.003716710153716032 -0.0007025027400594884 -0.011346859246522355 -0.013316412971422643 -0.9098520200038323 0.14959791878651132
0.23 0.14558306509539568 -0.6097146466863966 -0.003774856106984597 -0.000699623004613483 -0.00552149523853843 -0.004418081852143158 -0.9142593623164448 0.15477560742301005
0.231 0.14285725531791482 -0.6077417841699067 -0.003812078958590672 -0.0007217912400836812 -0.004802127936629963 0.009089931998251451 -0.9125841280798683 0.158317655279223
0.232 0.13801553801865493 -0.607585638564318 -0.0038876652046443234 -0.0006714022928590589 -0.0021333423268184667 -0.014692228569977086 -0.9077344444256465 0.17082806121393984
0.233 0.13807139516858621 -0.6050982245089936 -0.003905268752969778 -0.0006432265847662577 0.011966266737243735 0.003438041379744765 -0.9091801158004128 0.17066746191455245
0.234 0.13281129938674252 -0.6051708743820937 -0.003943040446842847 -0.0006173087543042775 -0.017063125428375056 0.010226959451655129 -0.9045584127702233 0.18391754073810862
0.235 0.13196113053810585 -0.6032691425492507 -0.003999376901441531 -0.0006159813662487035 0.003793407005315375 0.0034310090156696336 -0.9043702636167547 0.18928308026158325
0.236 0.12774598944971455 -0.6026977616319695 -0.004044667723491628 -0.0006008414283379861 0.001525634227842022 -0.01682426237209122 -0.9046193560854784 0.20067556765825442
0.237 0.12527613095567494 -0.6003131680957192 -0.004105288240655852 -0.0005478555157818149 0.0033290201037685786 -0.006988247190296006 -0.8996360728715233 0.1970134755709429
0.238 0.12329584238691735 -0.6005416164005797 -0.004176549120279425 -0.0005432394631252503 -0.012972282961004446 -0.009185159045538571 -0.8946215687825765 0.2067332225488127
0.239 0.12019598934839576 -0.6025417035204872 -0.004196009401759113 -0.00047727831381398216 -0.019620012159426638 -0.0028361719508757247 -0.8897666008470556 0.21560561794534436
0.24 0.11804883021260108 -0.5973223468230122 -0.0042294053321390995 -0.0005133281790282384 0.0026975610511919294 -0.008054708417309962 -0.8926335192873073 0.22626169604848656
0.241 0.11177981752432731 -0.6002639721290933 -0.004294937324024028 -0.0003797883947263238 0.0039372318508811965 0.004860404267159461 -0.8831440493744275 0.22621242680508516
0.242 0.11026952259902661 -0.5987458214778273 -0.004340835639639155 -0.0003455551882875048 0.0048250178375875245 0.010151920751430982 -0.8857224904970933 0.23805861343214943
0.243 0.10762252986412432 -0.5928691509964994 -0.004358053928323772 -0.000368168746902681 0.007851599743403413 0.00473524162624192 -0.8846366370186008 0.23708188125175939
