!Created with skrf (http://scikit-rf.org).
# GHz S RI R 50.0 
!freq ReS11 ImS11 ReS21 ImS21 ReS12 ImS12 ReS22 ImS22
0.13 0.5222666212622737 -0.5929673040924023 -0.00021373257254843976 -3.3685938779130374e-05 -0.049303872590534495 0.031749776394730304 -0.8592816077910376 -0.4557418331355415
0.131 0.5167640332680055 -0.5952996148705397 -0.00024729058538954 6.363546846798173e-06 0.01362799701299597 -0.03175413831532822 -0.8707831559700171 -0.4474203443951028
0.132 0.51420878191371 -0.5937650300517129 -0.00022970503610466965 -1.5491578140931882e-05 -0.012890153713780349 0.005696531747335571 -0.8773711392578498 -0.44407496939370994
0.133 0.5077744349993905 -0.5925880240771396 -0.00021268094901253897 -9.396469358852685e-06 -0.09060237765352729 -0.012749698158114246 -0.884469138990721 -0.4315986824938197
0.134 0.5087157001087727 -0.6034617595684661 -0.00023152572226120327 -1.1462679241487764e-05 0.00041714289503328535 0.014997530972412408 -0.8807509171432142 -0.4199361125676405
0.135 0.5015887909724227 -0.5995640382509044 -0.0001906028444302704 -1.8632174762407776e-05 0.009482101761691581 -0.0025409222900871042 -0.8846496441438116 -0.42213030523970374
0.136 0.49517548172560755 -0.602319877458308 -0.00023567385315902514 4.798668623558017e-07 -0.008157035457329717 -0.00684984523630775 -0.8871280638935218 -0.4125795028885317
0.137 0.4950981093175851 -0.6036421297408147 -0.0002171450579119058 -1.856301949215071e-06 -0.025372744103092176 0.028273561503334908 -0.8854810759917434 -0.3956389057129457
0.138 0.4889599340711053 -0.6028882214398542 -0.000250111337972951 -2.6135429060149044e-06 0.013340817257613598 0.028624843667232364 -0.8929617473030536 -0.3876985575310599
0.139 0.4865102629084847 -0.6035158635625877 -0.0002361876073259787 -6.626631658638518e-06 0.017802559474074445 0.00923933052555062 -0.893209481075402 -0.38740949023397625
0.14 0.47602390231061636 -0.6073076876876782 -0.0002241895122139749 1.4082516533332825e-05 0.034580739186442146 -0.020440822790645647 -0.8953512184778425 -0.3807992422905424
0.141 0.4715029693772049 -0.6092477119617319 -0.00025319403065944584 1.2348088802502669e-05 -0.0404751821061029 -0.027107695864652788 -0.895597235790835 -0.36875352704978664
0.142 0.4688310524351583 -0.6089078250409101 -0.00025626342931896895 -3.0791710527736842e-06 -0.017278097774173988 0.009451847890565801 -0.907652647470758 -0.3611776625945931
0.143 0.4642946814460703 -0.6081645392024129 -0.00024797423333887755 2.6471554891570255e-05 -0.016629015129588948 0.03042888491902481 -0.9092034842620971 -0.35017097614599113
0.144 0.4617929429650716 -0.6120531446252107 -0.0002881391586828411 3.772458758308788e-05 -0.01351800714819913 -0.009313073374512109 -0.9101892211325554 -0.3469760814644824
0.145 0.45741368420725553 -0.6139395156319609 -0.0002713318117461635 2.4506384363138386e-05 0.006963880021292569 -0.016732922645588854 -0.9146997869357325 -0.333131429796507
0.146 0.45386797638289095 -0.6134375635261152 -0.0002778457666370324 -4.437421932055706e-06 6.093447665844996e-05 -0.0006327583389832568 -0.9163883444970095 -0.33391375784164107
0.147 0.4495434561713387 -0.614166831713383 -0.00026873881190427106 1.8914267295695488e-05 -0.021580720577579614 -0.0365967405758467 -0.913825259415158 -0.32294659532324954
0.148 0.44385745797337245 -0.6133945924937875 -0.0002974232222993126 3.639086734816449e-05 0.04010386809068774 0.007044283582694885 -0.9181088655666332 -0.3120141191774413
0.149 0.43868514724010566 -0.6161171047603052 -0.00027330362272055266 3.549014756343146e-05 0.0014151829186762213 -0.022830995276262117 -0.9217120718537938 -0.30683794042118
0.15 0.4354978258709236 -0.6166264689610725 -0.00031318767226603796 1.482384829487888e-05 0.0009912689369736686 -0.0029720325711116028 -0.9287143767327742 -0.3019236875998224
0.151 0.4313021166259415 -0.6163655092812207 -0.0003127097754807851 1.570638981503994e-05 -0.021409786599156624 -0.007070327967148073 -0.9239249422659203 -0.29972983133243875
0.152 0.4262719790549758 -0.6215932712040957 -0.00031296563863635155 4.577390276493351e-05 0.025567972728140816 0.002680060838059064 -0.9227906352132162 -0.28560711426454644
0.153 0.42588059660891575 -0.618708159848105 -0.00030876726146204336 5.86049464921749e-05 0.05559137724425947 0.009811067477489298 -0.936791888658461 -0.27521618649321067
0.154 0.41791497397209637 -0.6196136959260292 -0.0003234982708089809 3.456037408457799e-05 0.02722417516152888 -0.044360382424595605 -0.9262604703124286 -0.27409117287410156
0.155 0.41196956102894317 -0.6212462513206667 -0.00030188787439452665 6.70120804948923e-05 -0.010709949970962886 -0.026420725980378916 -0.9297341972733998 -0.26824779302277146
0.156 0.40831322308155155 -0.6266594102328032 -0.00033391746471016616 7.165650667374717e-05 0.022622464205989387 -0.011615758755558477 -0.9350363691940067 -0.25848704742283196
0.157 0.404843128145422 -0.6241363408898716 -0.0003282234666831432 6.569946093531769e-05 -0.03686977170324505 0.003817255210368351 -0.9362443369796585 -0.2531498613735953
0.158 0.3977531250735813 -0.6228553872509702 -0.00033321249663341516 4.9893262763386826e-05 -0.03588524893037583 0.008646144448693025 -0.94028097331068 -0.24231848040375661
0.159 0.39709342743020715 -0.6245125642645762 -0.0003673685579328114 6.837537888285832e-05 0.010889407729655716 0.002770052307514237 -0.9413720506201051 -0.23410976848800244
0.16 0.3938988657825785 -0.6262779427811164 -0.0003457483112287753 8.682796274832395e-05 -0.005798827294789509 0.001194209857368173 -0.937087107253926 -0.21705456331997824
0.161 0.39510709314104125 -0.6238741126165804 -0.00033633167161830534 7.927010331212313e-05 0.01649868924695844 -0.00968727091992531 -0.9411513080052004 -0.21490664541435006
0.162 0.38518604777239096 -0.631552454010869 -0.0003608132669160152 9.394261295619736e-05 0.02337136541627689 -0.020525440051363066 -0.942137055865319 -0.20613432243726917
0.163 0.3837515316586709 -0.627455238216003 -0.0003653940516117058 9.494644904329172e-05 0.010906221768894823 -0.015932889338426407 -0.9460212826277761 -0.2064248447708154
0.164 0.37473144292553545 -0.6256600472598565 -0.0003660579675477648 0.00010906181227513727 0.01320576916160467 0.018429142652340986 -0.9412093834274238 -0.19765817003907807
0.165 0.37768574750618894 -0.6293065816873847 -0.0003735744705701932 0.00014244656183587251 0.006708155714066478 -0.019089310396850277 -0.9451296623232971 -0.18687732553956957
0.166 0.3688524738219981 -0.6277632785419786 -0.0003598814806645035 0.00013622806431557732 0.008876039073460794 -0.012096421925650873 -0.9483294042837883 -0.17607349626108687
0.167 0.3681033868351649 -0.6229391454504245 -0.00038416398118111376 0.00013053657742843338 0.01468274163855728 0.021183488171477822 -0.9431067319485723 -0.17587997960237994
0.168 0.35915066382147576 -0.6287236265678634 -0.0003892918631459966 9.948342498866249e-05 -0.019005076775139542 0.017911394850565573 -0.9365290613133682 -0.1616873374566479
0.169 0.3602182365152379 -0.6245954761158837 -0.00041764918439969893 0.00016378621651102883 0.02304239915540659 0.020748110381202743 -0.941989800751204 -0.1581198621616786
0.17 0.35230944823136207 -0.6293110114645843 -0.0004245861550614544 0.00014920278815628115 -0.011443638972243712 0.0036939116284100313 -0.9430168814647824 -0.15206739239631104
0.171 0.3455799884568343 -0.6328474860137437 -0.00039710331059176557 0.00017624646220758386 -0.009389776666925835 -0.026044178490786322 -0.9394126061208429 -0.14730069182496736
0.172 0.34559810298432997 -0.6267327896104583 -0.0004013125110518888 0.00018848170651570358 -0.007272076213704108 -0.02733005097581282 -0.9371339847953079 -0.13406041348719824
0.173 0.3382891580885673 -0.6283712030836995 -0.000407043285801579 0.00018709275021341746 -0.02069257036078426 -0.013074506279590567 -0.9320559686026387 -0.13632889911706308
0.174 0.33338312298166156 -0.631360194450141 -0.0004285597468621855 0.00020661142054633703 -0.0031457664405083576 0.009060227767755814 -0.930620186918758 -0.12255601802890782
0.175 0.3310085034060741 -0.6321486065914669 -0.0004042472447936531 0.0002190368969249971 -0.016079311685003695 -0.02288196717363148 -0.9258975894340074 -0.12231768497970925
0.176 0.3247937511514659 -0.629749171667813 -0.00040254014364940276 0.00018533442481996398 -0.002981434042983214 0.03286182614947809 -0.9261438441506505 -0.11596521670261416
0.177 0.3232310064751715 -0.6287026340869006 -0.0003748873527606279 0.00021437693200812913 -0.002434561002024445 -0.018400161681703664 -0.9233806899508263 -0.12235600984439098
0.178 0.3270774198900116 -0.631547197934693 -0.00037766768480198626 0.0002366774078112339 -0.022056886554780983 0.004328854517413858 -0.9275700831202365 -0.11352265329377483
0.179 0.3192346748035801 -0.6290182005245024 -0.00035724585414814914 0.00020893502031264912 0.03574744338210124 -0.0029917239425199756 -0.9319563483702193 -0.11117588212038168
0.18 0.3135605530105394 -0.6302227993286292 -0.00039431484699290116 0.00022760319948405487 0.014330232339614198 -0.02168417662118717 -0.9334740113908093 -0.10382979179800314
0.181 0.3109581068084938 -0.62973627062276 -0.00037779375542254604 0.0001873135407533994 0.0038043244909512107 0.008648200669288335 -0.9351316498008266 -0.09749561497772491
0.182 0.3092395260894268 -0.6318516962778682 -0.0004018777277132504 0.00018632732694439104 -0.0063364904487928884 0.016676871983959392 -0.9377547105132827 -0.0928967747090244
0.183 0.30177677351091114 -0.6281819240211562 -0.00042131623050034513 0.00018494119104848768 -0.009126624366334725 0.0026579190709555165 -0.9320950374566516 -0.08777477740928048
0.184 0.295733918077142 -0.6299779274550102 -0.00042291052170444877 0.00020918207590072844 0.008541143169346253 -0.015375806872264988 -0.9483306428112652 -0.07748185320780929
0.185 0.29240419330597994 -0.6306075144873107 -0.0004454546144557314 0.00020286886832463698 -0.007376295905926371 -0.012115567034431608 -0.9423427549533047 -0.06666794586976472
0.186 0.2912680916000807 -0.6315248964828912 -0.0004321569935476504 0.00022907015280104097 -0.01307199410000636 -0.002410793200444404 -0.9488702194917891 -0.07310303857027872
0.187 0.28508907820632395 -0.6298495981562092 -0.0004587810328956249 0.0002230191827544392 -0.0073783460813786105 0.012609352632808685 -0.9448952886351916 -0.05253407052153506
0.188 0.2825541980575594 -0.6302485944436562 -0.00047760648351117505 0.000237382280683059 0.010387594554649262 0.02479629230920793 -0.9430065900380744 -0.04903524961993319
0.189 0.28077825299943715 -0.6295182469554004 -0.00047651993997826 0.0002261591199968376 0.024686011274799757 -0.004797425308328093 -0.9403693180387867 -0.04193263186546172
0.19 0.27478485576575923 -0.6291517676426825 -0.0004586135853847634 0.000245280491268474 -0.004134077188883441 0.0035280840166544746 -0.943332861608121 -0.02928392061318151
0.191 0.2727965372631217 -0.6288363638888462 -0.0004893391361231719 0.0002423771762679072 -0.00014236962104253824 -0.0007865191307232738 -0.9424506489897156 -0.02480467774929104
0.192 0.26826614950160044 -0.6299261265991223 -0.00048061397005418294 0.00026767124842884014 -0.007248366077739518 0.006873127793484357 -0.9434439562443803 -0.01786066889640933
0.193 0.26533849626953326 -0.6298688147930113 -0.0004598109005165621 0.0003043795035819416 -0.0046125445021865325 0.018366294975318772 -0.9416357856059949 -0.006272323193540826
0.194 0.2616281237283818 -0.6263386799077345 -0.00048043135314681845 0.0003065966524563401 -0.022783093497439486 -0.030649616825592765 -0.9379868372075391 0.0019189196895982303
0.195 0.2577654444101379 -0.6296170026541962 -0.0005168541686617788 0.00032452963920595867 -0.0024761995358213774 -0.005491096248819252 -0.9339610764199199 0.010864134380959444
0.196 0.2560215225174275 -0.6283468356915813 -0.0004985278038400705 0.00034726529863198994 -0.010043571677574433 -0.01319494163117327 -0.9269114991144768 0.01440366732457311
0.197 0.2502743068982848 -0.6291100105579125 -0.0004968322426603288 0.00036885530277841423 -0.0024152610185865352 -0.009836815640671532 -0.921265630000961 0.019780353173102058
0.198 0.24859891859646085 -0.6281781586293508 -0.0005236928471251821 0.00036174401470618326 0.005749326913052661 0.04483316743879572 -0.9219687437466204 0.025698204609582255
0.199 0.24417436489031621 -0.624605290546784 -0.0005013482145651182 0.0004220338183442013 -0.0018586290860604883 0.004814684564126431 -0.9169458243973383 0.03330851040893719
0.2 0.24227687502499673 -0.6239113828626505 -0.00048002815091720003 0.0004152441663560187 0.0021096785596650142 -0.0010907576569139828 -0.9073855235847579 0.038311615803285265
0.201 0.2349752221473453 -0.625966330429169 -0.0004500757400651339 0.0004385109798014821 -0.00857062414343133 0.010549895764530018 -0.8998112773726208 0.040408585084669074
0.202 0.23620667829754305 -0.6251049297666833 -0.0004537834846303645 0.000456014220439803 -0.0258289518551782 -0.010697841687831049 -0.8936052182309472 0.04844455658164281
0.203 0.22836159481414453 -0.6245341918075814 -0.0004804632569358134 0.0004831690240819348 0.015581088662598077 -0.026211161866610065 -0.8860819437438142 0.04513539321530867
0.204 0.22653465504307213 -0.6250640565348463 -0.00044255022574276004 0.00048634061279941937 -0.014710642582163714 -0.013333903037453795 -0.879386952925799 0.04591846597142773
0.205 0.22721891090520352 -0.6232297885988808 -0.00039483484385699475 0.0004621053336836367 -0.0014247312463420284 0.0014814224763825385 -0.8794188127356497 0.040993214810045434
0.206 0.21915887922663943 -0.6204889117851908 -0.000396911317632224 0.00046714190012603064 -0.02294970745381576 0.015983456305082442 -0.8745045956381343 0.03692979204525385
0.207 0.21500030742583884 -0.6228123037852026 -0.000351917102735886 0.00047230864139353177 -0.003060529787870486 -0.000992949267538617 -0.8701053148774709 0.037630499444745676
0.208 0.2155708060248731 -0.6229458343276173 -0.00033660137230176023 0.00044718695889998966 -0.010833738356418711 -0.017878147720252015 -0.8750041979467704 0.028977579998818188
0.209 0.2101450826345824 -0.6254071268625634 -0.0003187748575463981 0.0004687593427457206 -0.027430839942757836 -0.0018008258808390558 -0.8757140052708932 0.029148184572107067
0.21 0.21334411476661924 -0.6206453099915119 -0.00034459477364974636 0.00043644036186495035 -0.013042273561044974 -0.013952762949915138 -0.8788427357784632 0.029330186346360934
0.211 0.20437350635158877 -0.6223898812137212 -0.0003285329014200754 0.00042382069575992774 0.010250805438845692 -0.03746912316617151 -0.8861927300072818 0.034059958542290776
0.212 0.19791722190778083 -0.6217254534291439 -0.00035312469391728097 0.0003825186864825366 0.0020915480685897584 -0.012058532394375864 -0.8940589994548364 0.03426687078653659
0.213 0.1986494592902454 -0.622950994840596 -0.00035583931039625047 0.0003616544319071171 -0.008344165649065345 -0.010967533751068403 -0.898045114169045 0.036673799694548974
0.214 0.19129313948936746 -0.6197003489184515 -0.00033379904101453104 0.0003461601876030961 -0.0013320053432099308 -0.0037213723241637316 -0.9016403992113973 0.037039164994635394
0.215 0.19463216905349867 -0.6191144156761293 -0.0003732151337390608 0.00035238419103063924 -0.009286892990970592 0.004100582857940545 -0.9055639644515434 0.048561411715598676
0.216 0.1877552621372439 -0.6217106375147977 -0.0003883209697055276 0.00037025502114412773 -0.016863531915305742 0.012894208743378743 -0.9117974647829606 0.055837294116430666
0.217 0.1843688753367264 -0.6176715425890926 -0.00041343241753952345 0.00036614654047033816 0.002563664766766565 -0.010032411658768472 -0.9113389774621377 0.06249344180205469
0.218 0.18189100109417564 -0.6185118097424948 -0.00040679577856970214 0.0003600275124089094 -0.004404719737375472 -0.012595672819900719 -0.918254210488769 0.07322462322346696
0.219 0.1769877207475392 -0.6196279870722934 -0.0004175563952382806 0.00036749571567754546 0.005120259264609422 -0.01081051180137663 -0.9177228272181711 0.07912871325921482
0.22 0.17469347351965214 -0.6183675181837881 -0.00041306049445866274 0.0003654700871991633 -0.014608528218114258 0.00269270559242405 -0.9227896025650042 0.078397097444205
0.221 0.17550011539280524 -0.6156853186761936 -0.000450866860445776 0.0003707659261855851 0.006837916031146198 0.01026042187253307 -0.9186547653226234 0.09452131692082966
0.222 0.16657411515933354 -0.6143878048417539 -0.00045867639746990485 0.00036712745904430503 0.0013011373448581186 -0.002160129879050068 -0.9217769131924077 0.09960252457073396
0.223 0.1664654730904621 -0.6127670885728127 -0.00046668024696362937 0.00036685239695376253 0.005895391826108482 -0.0015606727928482104 -0.924927207002736 0.10594349796135341
0.224 0.16014226000832846 -0.612356684689354 -0.00045595818655638646 0.0003898435567990323 -0.0024533594245631646 -0.009008201731495729 -0.9238207277628674 0.11060697002079925
0.225 0.16291743895035637 -0.6127020883935494 -0.00048573239443614147 0.00040656281705069925 -0.015588600502435795 -0.018630663932823827 -0.9185509412172903 0.1295083699260753
0.226 0.15740927576121289 -0.6082840513303714 -0.0004897041757731703 0.0004103185421265798 -0.007269202886478605 -0.007354939890624234 -0.9197873941975977 0.12857138110115093
0.227 0.15320969065255902 -0.6107741672779116 -0.000513220291035548 0.0004135470886939932 -0.008182964744168712 -0.0030237423228628504 -0.9216333158492064 0.13003717742436835
0.228 0.15183420404528067 -0.6091398044032894 -0.0005352732660590208 0.0004417121309034789 0.008403910384998166 0.005687747276550046 -0.9206177960336607 0.13608051217174702
0.229 0.14649940814282392 -0.6098776015073278 -0.0005275068298700861 0.00044585046545001005 0.01461746789283221 -0.0133988669333612 -0.9204341299877478 0.15085363411035624
0.23 0.14569728960310732 -0.6101719695940243 -0.000546741699161747 0.000431908095019508 -0.004628901505178008 -0.00966486974124909 -0.9132057752621594 0.15998984203683403
0.231 0.14233911946817523 -0.6066758918292581 -0.0005251214252082303 0.0004605312760148174 0.00954924498798562 -0.00070220200783971 -0.9142392202901627 0.16709945387189254
0.232 0.13887601114760603 -0.6072311297574234 -0.0005636119173467848 0.0004888425757468977 -0.008635884559906992 0.001448373114756119 -0.912507626689213 0.1741800433873663
0.233 0.1373105469141465 -0.6055024418829313 -0.0005584788918935464 0.0005018983038331629 0.0014930224335011216 -0.014050846936497058 -0.9165280018125613 0.17603968314015458
0.234 0.1330533661133096 -0.6054924616089093 -0.0005958363113834354 0.0004944222187576827 -0.010210170500638481 0.004313944238919923 -0.9085149130072382 0.18619397964874898
0.235 0.1315059773865945 -0.6038904547352109 -0.0005707141125689142 0.0005268885098828578 -0.0049893611560785905 -0.00567361038366023 -0.9070552414585624 0.19144375630306942
0.236 0.12683931339404986 -0.6027898992548619 -0.0005976920579768743 0.000524012823448555 0.01786477234032017 0.0038941490529060974 -0.9066646640623892 0.2042038593963497
0.237 0.12556814669191024 -0.6017253445898693 -0.0005774531711330714 0.0005502214879731393 0.004544427052120629 0.006832842943196792 -0.9064448499619275 0.19841933317571178
0.238 0.12529039578846193 -0.6012847509348644 -0.0005968043461272942 0.0005455415082083129 -0.008904174412254232 0.0036978312701548776 -0.8982692805903423 0.21051507261885882
0.239 0.11999661834591299 -0.6027998226792106 -0.0006097329632822379 0.000544085157942676 -0.00708614363005965 0.008292395557517675 -0.8981294606057613 0.2186275832575085
0.24 0.11654651387015998 -0.5981151796991983 -0.0006280299793220472 0.0005799056919671622 0.004389323980900056 0.0010030351393475485 -0.8993756337469103 0.2313850722438198
0.241 0.11465771267104881 -0.599239795375361 -0.0006289368500346102 0.000609969820630787 0.00938925355240394 -0.00015855863813985448 -0.891558763207222 0.2295153740247492
0.242 0.11118529004538151 -0.5978458362690351 -0.0006145988217600391 0.0006365365507999273 -0.001194737503217434 0.0066926388102485305 -0.8882365747835963 0.24224456978530973
0.243 0.10981058576078546 -0.592801358528835 -0.000649354370445282 0.0006324441859164009 0.010600101007078316 -0.004888756460711397 -0.8913929955597182 0.24580508847056115
