!Created with skrf (http://scikit-rf.org).
# GHz S RI R 50.0 
!freq ReS11 ImS11 ReS21 ImS21 ReS12 ImS12 ReS22 ImS22
0.13 0.5226347737305651 -0.5939494387060921 -0.00021821595047544437 6.046257348124079e-06 -0.011843966081535134 0.01073930396607974 -0.8706500414377949 -0.45733659966276763
0.131 0.5135569838080805 -0.5911133910232114 -0.00019744416164784424 -1.1085416285754513e-05 0.011650062410719005 -0.00043432725132081445 -0.8704528751927625 -0.4490308478783146
0.132 0.5155787441768049 -0.5936486663072352 -0.00022975493538673656 -1.021099305018258e-05 -0.0035752810952481627 -0.007207019546346688 -0.8757311908240969 -0.44681458874236984
0.133 0.5087951777182577 -0.5959673626686528 -0.00018439187081446993 1.6257631376356545e-05 -0.035836432864168676 -0.021297121789830356 -0.8781323842332139 -0.42992195899397595
0.134 0.5071674360845839 -0.6025243421644766 -0.0002238251860664933 -3.0022174750538656e-06 0.05986949328980338 -0.007775605182029141 -0.8851771296345283 -0.4257702340194306
0.135 0.49941532899075475 -0.5975153820134106 -0.00023720006682195326 5.601635801748335e-06 0.008395797253210251 0.04091716237749363 -0.8850795073229184 -0.42070972623487357
0.136 0.4965866323400187 -0.6028861720131377 -0.0002310445048033462 5.5670845977438164e-06 0.0015889780311427388 -0.006356453456082604 -0.8853016601446403 -0.40854142451506786
0.137 0.494100084726819 -0.6007590171274603 -0.00023049484724370722 -5.252241213863808e-06 -0.029503283794873488 0.006462164302199005 -0.8910679765174134 -0.3912152596957691
0.138 0.48993564428144504 -0.6029394382414464 -0.00022675832351091226 -1.1467729048416345e-05 0.02243243287995194 -0.020214690241843906 -0.8950393949495998 -0.38849561416507017
0.139 0.480922330008828 -0.6036496759116211 -0.0002663227978639482 1.6713837227193898e-06 -0.00244022688376959 0.010066486910930147 -0.8912022337150809 -0.3848055085196021
0.14 0.47624844133000305 -0.6060754751377115 -0.0002546916326491531 1.570827593341631e-05 -0.002877607734089093 0.048894574061174256 -0.8996119257993295 -0.3773362815269542
0.141 0.472202797258526 -0.609140339092821 -0.0002600941884683982 5.017900049936864e-06 0.05591570536201833 -0.014939581705391449 -0.8959928886031256 -0.37013898829686875
0.142 0.4677313875244475 -0.6076324220456882 -0.00025145003421417605 1.2957769853362547e-06 -0.04955894078546203 -0.025482237973718323 -0.9086778891140462 -0.3604190313491219
0.143 0.4647484512166737 -0.6084254861625309 -0.0002644396954868799 5.297001957248518e-06 -0.016735417071742635 0.019390162355749124 -0.9100608014407512 -0.349436232528545
0.144 0.4609122240885689 -0.6108654055412575 -0.0002869556516509961 -1.2899808300817836e-06 0.021512876509729054 0.01845153227001767 -0.9107100466424638 -0.3530629004066945
0.145 0.457408577322581 -0.6146282368158694 -0.0002937424299677639 1.2120596948663434e-05 0.01298921974491825 0.016580016098935977 -0.9182440518131775 -0.334123766993732
0.146 0.45352695562615614 -0.6119299414966223 -0.00027225860880826963 4.7506152265844995e-05 0.0029540987118275583 -0.017620982549742262 -0.916293269035195 -0.33334785700708053
0.147 0.4488556409922338 -0.6142608581034111 -0.0002920329702011513 4.146548519915454e-05 0.011697643019494441 0.019573354183756726 -0.914277006693106 -0.3266588414999651
0.148 0.44340266253771704 -0.6141609609246081 -0.0002943887438217306 1.8412850645916495e-05 0.009635684844222841 -0.010521619861094171 -0.9149330136481025 -0.3152194130823429
0.149 0.4386952133451667 -0.614715565341127 -0.00029571034069231385 4.642032014121279e-05 0.0481536382411519 -0.058012459625963755 -0.9242320084282524 -0.3057261746081231
0.15 0.4356727608798461 -0.6158116390761584 -0.00028869483463041424 3.8893139116993975e-05 -0.0286744045753932 -0.024276538877497256 -0.9251932698197582 -0.2999870739576858
0.151 0.4323016755716185 -0.6156704223695227 -0.0003057568507761146 6.398151249874645e-05 0.02153936063523542 -0.04922405183421754 -0.9280080730448819 -0.30025344059136205
0.152 0.4258383666699246 -0.6209532677343893 -0.0002974466071036165 2.6034819276752514e-05 -0.0039737100608813365 -0.009161225605801107 -0.9206394350128289 -0.2793540914979149
0.153 0.4264577937140087 -0.6186525000879791 -0.00029647031080482763 7.268711668402384e-05 0.03237227700132057 -0.004504395333590638 -0.9415171879370933 -0.2786740284950003
0.154 0.4168914461986077 -0.6186237989429374 -0.000311116436601522 7.386574904775255e-05 0.027022387279888715 -0.01538613234051622 -0.9276241412340573 -0.26863563714273797
0.155 0.41250985468712015 -0.6184085479046207 -0.0003686457306861797 7.664630695203429e-05 0.002276353315961731 0.01431943137396665 -0.9345734959839339 -0.26975226180449874
0.156 0.4069997521523119 -0.6229353605799803 -0.0003274217210666758 9.046623564815713e-05 -0.00775267110791871 -0.003921627794889506 -0.9344265999560762 -0.25810651591468536
0.157 0.4036507286418308 -0.6217261494813997 -0.00033934907642097607 5.216773391965659e-05 -0.011061521769332824 -0.008087975426333811 -0.9362160711653312 -0.24775551049235264
0.158 0.3992070473179394 -0.6217689298485631 -0.0003317729606252959 7.053438918661726e-05 -0.0009647552536324835 -0.006910083728562153 -0.9374172528232924 -0.23975839063723334
0.159 0.39531045265540643 -0.6271695153379981 -0.00034671746509084265 8.021233782610049e-05 -0.03558861631530367 0.00699727162986036 -0.9312960064324707 -0.2373693562259881
0.16 0.3940783965481351 -0.6250448643179901 -0.0003500495248442185 8.309541658552724e-05 0.0022911496804991507 0.008508433721415557 -0.9399424519841129 -0.2190445502296064
0.161 0.3917159494994688 -0.6240723794888212 -0.00034579624118190913 9.38097568815061e-05 0.01632441358888105 0.0019780817001999918 -0.9381413343908758 -0.22481458096491996
0.162 0.38508988684686407 -0.6247590852878039 -0.00038545765481533197 0.00010652488594772955 0.0025709106256704387 -0.0023144700229463626 -0.9380179258608676 -0.21117301070135786
0.163 0.3800394274507547 -0.6231900511467696 -0.0003647159511810521 9.596720949714814e-05 -0.005525176038103979 0.024093587442728007 -0.943876775199015 -0.20688965805120108
0.164 0.37818820828242755 -0.6242297352280246 -0.0003614100557150431 0.00011153587505989998 0.0428192144365832 0.008861194152280344 -0.9477742952983482 -0.19432129982438195
0.165 0.37383907466710564 -0.628295799595472 -0.00038451667610140403 0.00010268720921871255 0.00411901119114355 -0.008077603798293389 -0.9441729573441419 -0.18722251572749177
0.166 0.36888215429109306 -0.6294032041088047 -0.00039335792103209266 0.0001340189369809109 0.0404606054333575 -0.005083504545890161 -0.9426675159926704 -0.17888227057724526
0.167 0.36513529029091146 -0.6241924308616323 -0.00039143291075561176 0.00012977293098144255 0.02083923052284426 0.026813684739044025 -0.9420473058139944 -0.17473117803525814
0.168 0.3586975378959566 -0.6326119800951895 -0.00043218865157217953 0.0001671774422345177 -0.007842938550206192 0.01682235548374896 -0.9352158063473762 -0.16290914275930324
0.169 0.3566600646838587 -0.625584509021939 -0.0003959853061633818 0.00015765840684536968 0.019655798253653572 -0.0025890935494220814 -0.9405604347112811 -0.15907302533379342
0.17 0.3491728050439731 -0.6299252282343621 -0.00041609093670666333 0.00019618750388332987 0.017553497889054963 0.016437301055535494 -0.9415568400132553 -0.14943544075371407
0.171 0.3480454895596406 -0.6284183403227933 -0.0004058040767467164 0.00019370720115384133 -0.028780246345589754 -0.0023770069393558753 -0.9391630989356744 -0.14567385650805312
0.172 0.3462911026055375 -0.6312833176637093 -0.000414429058239513 0.00020273517123565665 0.0031476670558037265 0.015731765071084303 -0.9355842762019233 -0.13200141042164723
0.173 0.345678956401288 -0.6334395934793502 -0.0004046552530071482 0.00020677360938249877 0.002866029060035325 -0.0074312649560936885 -0.9295084020293184 -0.13463913750467119
0.174 0.3344296165473317 -0.6365934758444471 -0.0004215923348001109 0.00021591532509247435 0.01483641257124163 -0.015088889929725886 -0.9305782707508637 -0.1220319159245576
0.175 0.3291530543837158 -0.6270966199399242 -0.00039692923929413265 0.00021469248661915155 0.013149885936819587 -0.009316962863433332 -0.9257475777155695 -0.12178357726256585
0.176 0.3277133239939052 -0.6342516087899229 -0.0003999573701712403 0.00024098647721087604 -0.011636371247073616 -0.01836218208346461 -0.9290560220291709 -0.11555510925713995
0.177 0.3280798857773912 -0.6320293490695508 -0.0003954095183892385 0.00023807142795559692 -0.0011594217795347084 0.0015181131319392644 -0.9265955349744472 -0.12201051309367052
0.178 0.32567336353123233 -0.6299657371984102 -0.00038205489613034533 0.00020864758750993448 -0.016930415425201063 -0.027162742282342663 -0.9275603834178163 -0.11840598373285299
0.179 0.32157839736295024 -0.6292935889389295 -0.00039112868641188385 0.0002123494380075601 0.007709365396716525 0.026503345387352405 -0.9304614851260198 -0.11383905841562891
0.18 0.3124506198272156 -0.6295250039469132 -0.0003929482538215653 0.00019464770555445204 0.028238749301771664 0.016451197439706872 -0.9324184827501345 -0.10166475871286057
0.181 0.30804755250762966 -0.6319147525086026 -0.00039332343284256897 0.00021885699843404003 0.01213321155090622 -0.015458014435993057 -0.936684493469189 -0.09893585347136707
0.182 0.3062804569618349 -0.6308602476322541 -0.0003996661722851458 0.00021897798628308458 0.00835257226969342 0.025581219488790857 -0.9364643540780365 -0.09482969360861701
0.183 0.30233231452367765 -0.6288639707794257 -0.0004098041061442444 0.00021979219893976582 -0.019681455487994506 0.014182123076764511 -0.9330252406338467 -0.0895132982508656
0.184 0.2967206506911828 -0.6297159516177051 -0.0004209638410691662 0.0002016473032119303 -0.004392829255313924 0.012957441845850225 -0.9488316902960477 -0.07241639126440366
0.185 0.29535355261420765 -0.6304308350649571 -0.0004352098508702944 0.00022569822593133525 0.023587929735189028 0.014932878762253472 -0.9411027207293279 -0.06845076454091485
0.186 0.2914332939053676 -0.6307877813174426 -0.000456246177507253 0.00022352763983388493 0.014532642016284458 -0.01030154008532917 -0.9464815443243177 -0.06887503380828455
0.187 0.2849029002823704 -0.6307503035396241 -0.0004524613863397249 0.0002519044946159869 0.001119418964461937 0.021604273725763953 -0.9460151337329652 -0.055591661733354766
0.188 0.2824693615689247 -0.6300593674770884 -0.0004764033472344031 0.00020618289808021576 0.0121710492549333 -0.009074019649254536 -0.9413722656644626 -0.050932727441398845
0.189 0.27977519605904544 -0.6294507892990043 -0.0004783134092914093 0.0002563973550315155 -0.0036465934303785605 0.029773249857668674 -0.9458930904109599 -0.04199374284605013
0.19 0.2750861962650783 -0.630296170950277 -0.0004889887207092226 0.0002637109799472171 -0.013810721180963234 0.005043916327219925 -0.9419785547726155 -0.027861628687069928
0.191 0.27317777451364683 -0.6290825152623238 -0.00048419868385637065 0.00025797866068030226 -0.00683021600361503 0.010063917667750173 -0.943579621195054 -0.021140508519622698
0.192 0.2676044050134642 -0.6296434813416133 -0.0004939869764094648 0.00028350132111877737 0.01320673888516514 -0.006203459138410949 -0.9400044821870146 -0.01903440171334013
0.193 0.26487292801790774 -0.6305976978157559 -0.00051141027168642 0.000294368758522504 -0.007559334244088651 0.01459612287112309 -0.9372832504135635 -0.008988153611573997
0.194 0.2618500930315423 -0.6268310477106095 -0.0005296241500965611 0.00035134931735333576 -0.01817259925600686 -0.021542891627844563 -0.9344298732759054 -7.685040587208555e-06
0.195 0.257608275745009 -0.628392590417534 -0.0005016869325294546 0.00033324835577782475 -0.01467386439458374 -0.006100746729788832 -0.9358254249041339 0.008993785589998785
0.196 0.25602805871060236 -0.6272431165298483 -0.0005273238917203515 0.0003479163723323294 0.01296095602188628 -0.009744292960639653 -0.9255637826856737 0.010781146617015869
0.197 0.24998988561320284 -0.6300149705499734 -0.0005185228904733085 0.00034802675612387855 -0.008291937639494458 0.01755557124565181 -0.9238115975823029 0.014047093850547289
0.198 0.2506577943181258 -0.626554687077289 -0.0005088289160922586 0.0003887409784321139 -0.005727663160565756 -0.014355449703083582 -0.9191401324002904 0.026880743871277084
0.199 0.24054589741541796 -0.6258157552257895 -0.0005513151261851382 0.00041818661823798785 -0.01540928617003916 -0.00944381225302993 -0.9146287421537921 0.03455090540831423
0.2 0.24226390255738095 -0.6241237577156873 -0.00047965211482828247 0.00042093387421199144 -0.015291663378155365 -0.012014253290194654 -0.9070641561271018 0.0353680462187165
0.201 0.23683591157692002 -0.6252958522000718 -0.0004980006644961031 0.0004526766577497286 0.0007961962874098032 -0.004410679664713838 -0.899029902536474 0.041104151513803346
0.202 0.2342594836233378 -0.6263692514003047 -0.0004929581630470462 0.000475022567866363 0.005001500749095248 -0.012675718399738772 -0.8944951755413859 0.04604417830788627
0.203 0.22833630934767374 -0.6240242062089809 -0.0004585900655027955 0.0004579959008089953 -0.008936190574108625 -0.0027071813537277085 -0.8805840816108716 0.04848882571540829
0.204 0.2251256535207197 -0.6273495016510969 -0.00042102673916722305 0.0004957945691387635 0.0016940925452439712 0.002300674011772142 -0.8817321078756218 0.04267102996449701
0.205 0.22437742902438346 -0.6240557844511386 -0.00040328867398050017 0.0005245644364369432 -0.0068708086197802306 0.01057553754444355 -0.8776840260687416 0.043297626949409085
0.206 0.21975224572960733 -0.6202945376018139 -0.0003846222702618363 0.00048772855070855714 -0.0015205954052814321 0.009253209615420494 -0.8722847509888768 0.03770416206972329
0.207 0.2191570594497749 -0.6213284751079164 -0.0003646022080999507 0.0004706096146412067 -0.024713838030441693 0.02402584368720187 -0.8691310975776998 0.039010399543767726
0.208 0.21561152411750828 -0.6240911850910155 -0.00033633923677022366 0.00047807821237150477 0.015124307511298389 -0.00407366446091146 -0.8767000384352731 0.030943084053572753
0.209 0.210814438058211 -0.6275339740193744 -0.0003440224127262738 0.0004600411608021353 -0.01138780084238363 0.0008954586211321182 -0.8759791054018203 0.03162397755846051
0.21 0.20922912726975773 -0.6229820560045267 -0.00032961506737889403 0.00044404756709558115 -0.012723510428634306 0.01873638821404108 -0.8807807225025167 0.032499187461160504
0.211 0.20649056525928622 -0.6214661302749519 -0.000323351700840923 0.0004405838334979104 -0.015101509865466415 -0.009726930801234887 -0.8912577229590616 0.033163995277727856
0.212 0.19950636396647076 -0.6184014363736853 -0.0003444270410446098 0.0004176242769075075 0.019952586207498398 0.010592789234152746 -0.8936174678314157 0.032188291232790454
0.213 0.19866005885090965 -0.6248688294649001 -0.00034859181682400994 0.0003802143201690377 -0.007608328779898431 -0.003126351768792674 -0.8999449332006727 0.03891949387096
0.214 0.19279041215147474 -0.623629726135402 -0.00034100488027329816 0.00037328424187070043 -0.001529392157051565 0.0037638473823522352 -0.9008464647141738 0.038035656328885954
0.215 0.19408697172376213 -0.6213098412081483 -0.0003789829224211113 0.0003858012754603205 -0.015351702173485322 0.0006464359732092283 -0.9060596102372748 0.0475795005323658
0.216 0.19101140538396763 -0.6185158236982711 -0.00034570342887741247 0.00036112091736915914 0.013808090396824325 0.011655091824986192 -0.9098065573409708 0.05286842818907444
0.217 0.18162086057192206 -0.6169058835463774 -0.0003854591004452317 0.0003769193410005028 0.006044424572334296 0.008852491611563875 -0.9108452224491613 0.06079024502561996
0.218 0.18090245150837397 -0.6138574845134654 -0.0004093422041383529 0.0003283063868463849 -0.013967245656955113 -0.0020653195069913685 -0.9183284356622728 0.071819174821782
0.219 0.1778528793256504 -0.6202193745302617 -0.00043098120077854216 0.0003558973602040004 -0.021266888864066264 0.004451876513021322 -0.9177276402739507 0.08201813284281946
0.22 0.1754993372605529 -0.6145614907530956 -0.000446507231861533 0.00034943013381069025 -0.011692492911256394 0.0004476254070850674 -0.9227788507407929 0.07852268450858005
0.221 0.17388334726876387 -0.613361069067807 -0.0004527702546604732 0.00038410124620647066 -0.007386740576406473 0.00833007439138394 -0.9232605866639167 0.08796540436090478
0.222 0.17001618938925758 -0.6130804028099218 -0.0004950596148565543 0.00038639635795984065 -0.010301338412199799 -0.026550666610142253 -0.9150819721558726 0.09759820284930373
0.223 0.16594317496208064 -0.6118926559925196 -0.0004834738278945803 0.00039198687052346433 -0.021252550500318716 -0.004548106249947074 -0.9249344209729905 0.10588016871162304
0.224 0.16188203048585276 -0.6119415289019174 -0.00047856722542505736 0.00041384084178036997 0.005307073996501892 -0.00997380118388771 -0.9268873052297877 0.1095606310040689
0.225 0.16070417305053286 -0.6114445747488957 -0.0005045189322344752 0.00040691834855387964 -0.0004268277827110351 -0.02216308050580275 -0.9223154622765007 0.1216671812162082
0.226 0.15756470644873172 -0.610755486367795 -0.0005112344397754327 0.00045132131646868543 -0.007571641018097235 0.003285398889772245 -0.9156642922006446 0.127144906841726
0.227 0.15382295478369126 -0.6130726492331208 -0.0005290515825444027 0.00042967742040622996 0.0069573225031536855 -0.004215391197178813 -0.9164326766935067 0.13898323194416842
0.228 0.15129034112553594 -0.6097206331557489 -0.0005199259659186103 0.00043704196681488763 -0.005601106892910552 -0.008154463839121415 -0.9223102254053794 0.1415325375386536
0.229 0.14808794498743738 -0.6103228580104553 -0.0005509858610959458 0.00044199851853555475 0.0191427567449585 0.00818189798915608 -0.9206060794739216 0.14449470151313637
0.23 0.14583377323808525 -0.6096772068534642 -0.000543839133463874 0.000466624164809992 0.0006717371188329936 -0.0042554115304933825 -0.9198843102764367 0.15719469168546765
0.231 0.14304399722291375 -0.6077978249211733 -0.0005547613265233279 0.0004754026807740476 0.0004495021338342464 -0.005697052904324721 -0.9149138500215137 0.1615379979501566
0.232 0.13891321018530714 -0.6077547396826954 -0.0005844177274283082 0.0004710937052164784 -0.013817360858790428 -0.004175661939291691 -0.9133071788033145 0.16777279363363323
0.233 0.1378193703827794 -0.6054835610572067 -0.0005832082394097551 0.000501338513862082 0.008350206183055523 -0.009232663221551059 -0.9135772819222417 0.17585336312826827
0.234 0.13318896062254731 -0.6053374251797659 -0.0005721088907081462 0.0005087034928758808 0.009906939139751509 -0.009084874300294825 -0.9097079914288436 0.1806467848663328
0.235 0.13193791926251777 -0.6035472909450778 -0.0005918131098545617 0.0005444906763598661 -0.005379291462649069 -0.012987959016744119 -0.9064359190045114 0.1936822427765569
0.236 0.12729693445738208 -0.6029646306197678 -0.0005807583261151996 0.0005634524791594138 0.011894563749633541 -0.00298475540724732 -0.910563831964138 0.19898716649986292
0.237 0.12616913241430902 -0.6001765111665887 -0.000622496471550276 0.0005526035870720069 0.00663890096759682 -0.0015404310239056861 -0.9051208923375341 0.2006338906703916
0.238 0.1230890426580299 -0.6015865354695026 -0.0005982563452899562 0.0005442372496372795 -0.0033903453852038848 -0.015103699804349384 -0.9008251052970515 0.20901247325760844
0.239 0.12068021108364935 -0.6024460982737054 -0.0006054285839601358 0.000565725847122952 -0.0023812754048134948 -0.004250434522394889 -0.8963626775509267 0.21897871309726036
0.24 0.11844736142032412 -0.5993872628100573 -0.0006265576064428245 0.000591094015365783 0.018655251322873993 -0.01327051219083765 -0.8968296768323144 0.2275009935032943
0.241 0.11366673047501641 -0.5997083903090151 -0.0006287123933815671 0.0006035810101025348 -0.009542765420948689 0.0019410180018284433 -0.8934031357876943 0.23027488336707228
0.242 0.10946945463885904 -0.6003424340826636 -0.0006566894898288024 0.0006272474025466853 0.0020091085802752874 0.0005344674041604336 -0.8915291729263708 0.2427828181721451
0.243 0.10551152261974538 -0.5943781296827687 -0.0006414541096758531 0.0006279894703671452 0.017060085130039343 -0.004970593197879905 -0.8893607939018455 0.2449548189957513
