!Created with skrf (http://scikit-rf.org).
# GHz S RI R 50.0 
!freq ReS11 ImS11 ReS21 ImS21 ReS12 ImS12 ReS22 ImS22
0.13 0.522045288263754 -0.5920733524435766 -0.0002459259751942541 -1.1858474506270133e-05 -0.03811566138580759 0.009420043037293109 -0.8618604157491719 -0.4556922995580445
0.131 0.5161022702718451 -0.5924434414323203 -0.00022611389021549673 -4.915889838423035e-06 0.0011293840787639571 -0.004023174776891522 -0.8683410016700481 -0.4410585014535725
0.132 0.5145545213296739 -0.596353663804794 -0.0001941275489649587 -2.838097387684833e-05 0.026515244912770818 -0.0035804267643947847 -0.8767832676175994 -0.43932329048246505
0.133 0.5117046999925126 -0.6002004371660181 -0.00022426843750054874 5.290339028455873e-06 0.010054986802258541 -0.02468243168597338 -0.8818182912143248 -0.4286782352839778
0.134 0.5050030477073941 -0.6019983776261583 -0.00022114896008530241 -1.9937593174044608e-05 -0.000986223022469092 0.009590180178351905 -0.8838533832282569 -0.4255683727785603
0.135 0.5028424614415639 -0.6001676862425129 -0.00022589643909319372 8.661166540102215e-06 -0.021084051057316835 -0.022332670800895793 -0.8875617337065397 -0.4177038854316078
0.136 0.4962701014347676 -0.6023350439079779 -0.0002319837680283325 -6.7512915243453525e-06 -0.013059351647090078 0.035442593050580985 -0.8867761440265015 -0.40794837110297805
0.137 0.4938702547379103 -0.6037900157218904 -0.00024336969286470922 -2.2083544780318928e-05 0.05393288901545635 -0.029463585414818562 -0.8868562609776702 -0.3966673040424216
0.138 0.48850704013451013 -0.603153924286705 -0.00024058942038474525 1.6633772137184297e-05 0.004670379156014943 -0.008299801886239962 -0.8951490974259416 -0.38653231338435146
0.139 0.4828535121829349 -0.603587091628626 -0.00025191381917312087 2.6346332210476408e-05 -0.027771486940216056 -0.03422750687588773 -0.890310945556271 -0.38683967055224966
0.14 0.4784263940382055 -0.6093892494923312 -0.00027053336706916314 1.1144439334186938e-07 -0.03337060893969775 -0.03219588109459172 -0.8968887609620055 -0.380131160429614
0.141 0.47216116482994624 -0.6087448002741017 -0.00022405952221675538 -3.6262440404478375e-06 0.027006260674796997 0.003301564620240286 -0.8962498772608012 -0.36783461800882233
0.142 0.4705337327988171 -0.610803754275627 -0.000259408265142513 5.933504086638674e-06 0.012659179961025115 -0.044082754616938266 -0.910936239656989 -0.3604821838737622
0.143 0.4645978438670039 -0.6094200797357415 -0.000259538997659933 2.166789530040675e-05 0.0014768443515311219 0.01935381251618899 -0.9103418547370609 -0.34986102415366727
0.144 0.46084060349967243 -0.611286701261749 -0.00026658549028267536 1.4665294048760113e-05 -0.028777562655912775 -0.0011696010180669 -0.9065329080769438 -0.34970095414105035
0.145 0.4570030008220441 -0.6144243000927689 -0.0002932406180943197 2.8172695536272837e-05 -0.03760462240825271 0.0014444170705713586 -0.9158180158706327 -0.3312189220985739
0.146 0.452731299918896 -0.6118805754714022 -0.00027362336760345827 7.537631875774771e-06 0.03143316386406307 -0.02095566959724583 -0.9144809308871306 -0.33272454474709423
0.147 0.4494570794097415 -0.6138724760577147 -0.0002721115953868613 1.814502557515518e-05 -0.016693085852738758 0.019271809243584175 -0.9159883461537629 -0.32604404769825124
0.148 0.4429035649174034 -0.6141632909501251 -0.0002941187569018931 5.3770072152804e-05 0.04104761270642574 0.04179450436192882 -0.9136378587264327 -0.3134753089523522
0.149 0.4390231631494197 -0.6151825634595975 -0.00027308617995868084 2.4077842370547505e-05 0.03428415428153007 -0.0074175215531861625 -0.9237562655377771 -0.3054968497288649
0.15 0.43593715292672336 -0.6161901100902153 -0.00030418139080576063 4.303671734704745e-05 -0.021806220915994386 -0.04214945236546862 -0.9301276912611729 -0.2990142609065276
0.151 0.4326421152107226 -0.6163370211969659 -0.0002799342027205953 3.476373042355814e-05 0.010007195597840196 -0.0029374343190113196 -0.9231326150217344 -0.3024711180538578
0.152 0.42479309695144446 -0.6201329581147279 -0.00030702876154225047 3.3501722487216284e-05 0.022480408878014925 0.020162623660098515 -0.9238827462843852 -0.28436096307958414
0.153 0.4269025725408451 -0.6189419833555392 -0.00029745924561540727 2.9783263647653835e-05 0.025591634217552856 0.0014355196623472557 -0.9400965719821893 -0.277542002534162
0.154 0.41671785529647337 -0.6218293329544439 -0.0003151294782918597 5.537471614926009e-05 0.02333715593656791 -0.029267406499477816 -0.9296203433893621 -0.2722757553426899
0.155 0.4110028016812262 -0.6214268334231283 -0.00034085577256168947 3.62853172635642e-05 -0.008199842121403728 0.009694248710728232 -0.9258903881653325 -0.26196954767017094
0.156 0.4075739803378644 -0.623265290696176 -0.0003252342435475647 3.366682634177518e-05 0.009102296363350951 -0.07597049563419339 -0.9364700856234366 -0.25350740181891124
0.157 0.40415363442509433 -0.6221355726280245 -0.0003372889535146181 4.764446410562024e-05 0.009362848155242362 0.009312495224999112 -0.9340435845967728 -0.25301708825527836
0.158 0.4014947153041165 -0.6221711375647302 -0.0003226678330578827 8.98997849445314e-05 0.006946564874726467 0.011844852569563262 -0.9359715238148139 -0.23950965230311447
0.159 0.39504592060990923 -0.6276979414621016 -0.00034375001428139907 6.68323770206836e-05 -0.021082816457407897 0.035095807264290964 -0.9361930708430921 -0.23174736478496002
0.16 0.3934154850812442 -0.6259798040630282 -0.0003447890686316326 6.749237337271158e-05 0.03104392126987659 0.016696130769306473 -0.9371738366772445 -0.22408926119271336
0.161 0.3925165863226319 -0.6259333638957519 -0.0003635743455013986 8.681244804522739e-05 0.011047876728651497 -0.0034483024848301585 -0.9415419645016716 -0.2175908212918843
0.162 0.3855419319618015 -0.6234864982765633 -0.00038020559409617823 9.06902133716597e-05 -0.028497601977968023 0.00010187052055422741 -0.9401243814153502 -0.21426014170493451
0.163 0.3844468734706043 -0.6280143463370675 -0.0003574625696303608 9.672966464250319e-05 0.014162278788718686 -0.02499301829598219 -0.9423299769924017 -0.203678755376071
0.164 0.3773921407350176 -0.6198582817084985 -0.0003616557518268912 7.499062728862514e-05 -0.008884267379944065 -0.036731476285308845 -0.9424595576768322 -0.19657489017869775
0.165 0.3759364126610933 -0.6295380412234854 -0.0003952434371343488 0.00011136777688012053 -0.006913586806684532 0.015579633276777477 -0.9413136192307214 -0.18933507957629403
0.166 0.36848426760941544 -0.6244698871307939 -0.00038805357883781537 0.00012182669375127388 0.01646405530594946 0.01999101965168989 -0.9431714684592554 -0.17871209739651844
0.167 0.36469814128085587 -0.6294938475942959 -0.0003737305136980686 0.00010789548415596423 -0.01832699361229211 0.010098885391160163 -0.9431268033985101 -0.17548005902132432
0.168 0.35842014509693815 -0.6265249729765575 -0.0003981356809870335 0.00011279314094989079 0.006610664270757192 -0.007994007044636126 -0.9395583057853225 -0.16276252363656457
0.169 0.3537388591563346 -0.6252617439055523 -0.00040921262136168026 0.0001389546742640458 0.01696525947465886 -0.01463195235675963 -0.9426811482581254 -0.16077480261482763
0.17 0.34958911262168235 -0.6290273406559767 -0.00040693002881816287 0.0001578018854443939 0.000577998112956535 -0.0008490332866923772 -0.9397529546304978 -0.14927768591913684
0.171 0.3438707160792521 -0.6308537686320722 -0.0004080336263872827 0.00016302770598962141 0.0012760021380286662 0.023835861942049192 -0.9400831399620306 -0.14595321619355997
0.172 0.343446361240393 -0.6356652000272304 -0.0004063306758695696 0.00018771362838477097 0.0242874744257682 0.01137352550229134 -0.9336074730984131 -0.1321068085511831
0.173 0.3376774290803187 -0.633971659015925 -0.00045159979934242153 0.0001957181408507624 3.745588302758081e-05 -0.0027345350073750075 -0.9320422781150692 -0.13567105978151875
0.174 0.3329294398920585 -0.6283603099943449 -0.00039204504064137307 0.00019100134486416362 0.0010517323412875378 -0.006029733473118247 -0.9328622033089533 -0.12363159185834194
0.175 0.3299971115020608 -0.6307409250760281 -0.00039481657423243714 0.00020880380300914697 -0.0054362188006794885 0.011584137486757561 -0.9249707513868636 -0.1214252435879904
0.176 0.32504680128453256 -0.6302978249706205 -0.00040131874400600417 0.00021330973879304488 -0.0068111778049818345 0.0018995145438814609 -0.9302505819805957 -0.11699797029509626
0.177 0.3222007261482028 -0.6300430333628242 -0.0003906464715415644 0.0001947559046460927 0.01028502387250635 0.01137008217455842 -0.926380744770858 -0.12198200936599154
0.178 0.3253878778305029 -0.6314619710378224 -0.00037106240802633003 0.00020520609465379485 0.012582950569556488 0.020702722708946002 -0.9271464748698216 -0.11565477017723123
0.179 0.31919438460863125 -0.6293180250418591 -0.000364618704264138 0.0002157129463727054 -0.0070073611466777656 0.002579519053363329 -0.9306485254757394 -0.10986763460048102
0.18 0.3139199300898488 -0.6290739266949685 -0.00037954681228959813 0.00019602342111021254 0.0033964946421414935 -0.008864223611306265 -0.9348169567261531 -0.1011376024638985
0.181 0.3069770546609044 -0.6275943153322983 -0.0003747337946325716 0.00020376868953721815 0.00766221620875276 -0.0018801660433003912 -0.9364631036664338 -0.09955726361666103
0.182 0.30629611592960804 -0.6306129114248809 -0.0004000688668823033 0.0001976903093228887 0.006731543426053431 0.015115725599400677 -0.9393516988773178 -0.09859284661652194
0.183 0.30173470589758355 -0.6297255544701615 -0.0004127572575301791 0.00021157724571538026 0.005663333067191141 0.022515541013132252 -0.9341674403266951 -0.08884899069137762
0.184 0.2930796135830351 -0.6288049924302475 -0.00040141538770515495 0.0001969692417712479 0.006153759504879417 -0.01068562871488182 -0.9416495572457192 -0.07367452488151309
0.185 0.2936917898967849 -0.6311081138988811 -0.00045799346665824467 0.00022896042143833616 -0.011349005846211582 0.018759067314128266 -0.9423938375257069 -0.06410472595104684
0.186 0.2905495545596528 -0.6299058253066637 -0.00044071106535307017 0.00023857705414984286 -1.637049718635394e-05 0.013914557329184021 -0.9490759172290203 -0.06768642236908042
0.187 0.2861503722553697 -0.6303171581109354 -0.00044127309780847784 0.0002208915613186453 -0.02375953296997782 0.0015237558892207666 -0.9445685046409903 -0.056223792324050566
0.188 0.2819979187711772 -0.6294597264171994 -0.0004531908079661551 0.00022604956934540104 0.004862774371544329 -0.0005832659602838018 -0.9412493728698542 -0.05251433078383682
0.189 0.28027710075605194 -0.6292588088997502 -0.00048174004223430224 0.00023558731459803154 -0.0161619108447797 0.012358711296668825 -0.946385084221592 -0.04067147707543836
0.19 0.27462251470200655 -0.6294463871240417 -0.000453912801693259 0.00023726417746761737 -0.0012718063823671678 0.011526575275430434 -0.9417973344197547 -0.03152868838498431
0.191 0.27292720492208117 -0.6288428354916611 -0.0004898390289892152 0.0002809535858445357 -0.007005858576119011 0.016085096452359723 -0.9389820718609823 -0.017430508792241187
0.192 0.267908003030441 -0.628883604120411 -0.0004950855938447986 0.0002749419539781508 0.00413568532106322 0.007320770056510847 -0.9378981275350278 -0.01889070410002513
0.193 0.26489773279853457 -0.6308682410917392 -0.0004986405296748721 0.00031758740205988596 0.015363690511358843 0.0001516005943596199 -0.9373173117544502 -0.004594535217842171
0.194 0.26116990861613615 -0.6268729776077993 -0.0005035006361802119 0.00034255222452328894 -0.008205666968478034 -0.005472683089403872 -0.9313769658538581 -0.004940066320694826
0.195 0.2581667999744013 -0.6300026175499092 -0.0005039723497001132 0.00029710256212755754 -0.01274833866520431 0.02634196654791373 -0.9302438924014687 0.006859620443944013
0.196 0.25912611499074706 -0.6270150535140682 -0.000527358629273215 0.00034255229246173726 -0.014666781883287993 -0.0048489413805332384 -0.9273354314325597 0.012741212425257989
0.197 0.24909262375622662 -0.6292866659032693 -0.0004993323890059207 0.00038064173531762404 -0.004830163329304875 0.001555693447244398 -0.9241910568553826 0.019222717468623064
0.198 0.2518655241027062 -0.6254247165812109 -0.0005039019693517785 0.0003815381310036187 0.008224086234774766 0.002633667149144635 -0.9133461570806157 0.02665397673723622
0.199 0.24372574575518233 -0.6258835155455552 -0.000513318400252148 0.0004024706612192102 0.01663127421154732 -0.03213254701071517 -0.9121026670493224 0.03211374508367992
0.2 0.24166909259158295 -0.6266387784100409 -0.0004897578078326709 0.000419507067825056 -0.017747149229393668 -0.0023826423436823954 -0.9067030033528919 0.03604774717820991
0.201 0.23629708168450356 -0.6254784904320806 -0.00048776922789225133 0.0004581661570456432 -0.006147419612893148 0.02269157673580743 -0.9003173363172343 0.04141252668052511
0.202 0.23629408605230884 -0.6276239492834508 -0.00045257209417131673 0.0004434470551372492 0.008596438045684291 0.004738599098376177 -0.8942329333911685 0.04577381878005679
0.203 0.22955542007456034 -0.6226042746732268 -0.0004783098874729135 0.0004553356856698247 -0.003735808938222853 0.002228287142813684 -0.8797463557603488 0.045786441695029996
0.204 0.22448599260660776 -0.6239066193595336 -0.0004473414462363329 0.00048726564233799385 -0.019131072268637517 -0.003269643647225888 -0.88122372145776 0.04751501174095208
0.205 0.22548121608664945 -0.6239814426982163 -0.0003962556282356308 0.0004881827996639332 -0.016932282607692032 0.011479097287889635 -0.8780865153063393 0.04009524193437243
0.206 0.21931492262807906 -0.62179570203808 -0.000408825503060926 0.00048690153107598113 0.018353074191696343 -0.0046996793245178145 -0.8743398134030425 0.038461188765448885
0.207 0.21534209927013603 -0.6267384835389808 -0.0003790221911390047 0.0004812892021226357 -0.011380204820148484 0.018941038263342903 -0.8729691311709434 0.03639986873286291
0.208 0.21852544199830248 -0.6232112734951146 -0.00034848269453671807 0.0004702471631420194 -0.02560714959707991 0.007641832966276447 -0.8754101504725631 0.032543270717527155
0.209 0.21310169631358 -0.6221900369845503 -0.0003400319526735058 0.000450617405553098 -0.01668554459560476 -0.00961542994937599 -0.8770485803397603 0.03092312081777777
0.21 0.20708103856897428 -0.621986822125186 -0.0003265127018083074 0.00045147332409349947 -0.0073372443815046245 -0.008771048686745242 -0.8799037614080097 0.031982641271743634
0.211 0.20144158511421276 -0.6217980098247805 -0.0003274138665873027 0.00037890525479816745 0.00966283400329465 -0.0015138802278684862 -0.8882114842935126 0.035073852541588374
0.212 0.19744128092496663 -0.6229142335345461 -0.0003220496852053503 0.00039836859933835983 -0.015766237774314563 -0.01481262399672966 -0.8925735184449513 0.03248623808465054
0.213 0.19703250414934873 -0.6228711082239164 -0.0003396632395575428 0.00038048891929199946 0.004198602715160786 -0.0005343408973038875 -0.8982741872382024 0.0384630092543807
0.214 0.19146076399520082 -0.615678152484831 -0.0003354666346538089 0.00035251307394975056 -0.018383509264171503 -0.00285827802457592 -0.8988902013421011 0.037285234410698455
0.215 0.19254184735516447 -0.6230446387475952 -0.00039177541478287344 0.00038274754489651724 -0.014597358532198096 -0.007767318956684637 -0.9025992812781835 0.04861091014800519
0.216 0.18925277315988026 -0.6146234361765222 -0.00037574855196394804 0.00035931388775893694 -0.0145421206043088 0.0035967679570013704 -0.9098955833546434 0.05358387751447239
0.217 0.1814603155073039 -0.614848146037155 -0.0003797634559534929 0.0003675029288645088 -0.013096734187097657 0.004899031379531098 -0.9122774730320441 0.06352084528808412
0.218 0.18290339569433817 -0.6148627788051134 -0.0004320251832362626 0.00038124113968304957 0.0018950936229411154 -0.024657249917178964 -0.916223801909153 0.07208162747548276
0.219 0.17764442043176445 -0.6189668422878121 -0.00043513554739299477 0.00036206296923086095 -0.016846920503160997 -0.01083457629917797 -0.9203535936738045 0.08125016751160906
0.22 0.1760409884274866 -0.616158935677775 -0.00043820972917001273 0.00036643560927046256 -0.01611313138019735 0.0031902075918796135 -0.9210796838852036 0.07673627940610979
0.221 0.16944591204203563 -0.613463018835347 -0.00044246041768553085 0.0003645941066179825 0.0009023762038328519 0.007754283787416185 -0.9182567954298807 0.09372172079943906
0.222 0.16722236792118256 -0.6153863594174055 -0.0004451045365926893 0.00039305447314093604 -0.020804208022485907 -0.0028854853638926497 -0.9228184336241717 0.09563904786130235
0.223 0.16573524003675708 -0.6136125509551963 -0.000478327930603693 0.00038892117836335444 0.003317946974456492 0.001871151428821017 -0.9270807680690925 0.10317834343556227
0.224 0.1634588778291891 -0.6118823597117017 -0.0004814444371400164 0.00036121709122016927 -0.0063485913321409265 -0.005855385619819136 -0.9249460517650254 0.1125431476866327
0.225 0.16060080493412213 -0.6101394032230294 -0.0004985282131186594 0.00040342558408784906 -0.00720864132754428 -0.0012130685214997998 -0.9238694172605955 0.12381035858670704
0.226 0.15715203123832308 -0.6095730020457462 -0.0004951084188589552 0.0004040994924916977 0.0013648886460021043 0.00699163302515911 -0.9189981129162599 0.12362787968024067
0.227 0.15144918180140085 -0.6110594518429415 -0.0004994881055095767 0.0004310961542817858 0.0002161407261977515 0.02122972277224137 -0.9216318284018178 0.13340839295524576
0.228 0.1528745854370565 -0.6091220937869235 -0.0005141070040607663 0.0004306369055227589 -0.007892941151739696 -0.012027660501880363 -0.917556636183554 0.14072810948562772
0.229 0.14782445073210781 -0.6103128648413604 -0.0005245127136744018 0.0004440895730848962 -0.008479228707359551 -0.003909098411283349 -0.9162541163227779 0.15008911585897977
0.23 0.14587256774922713 -0.6101791015001674 -0.0005362484730010795 0.0004321620137267753 -0.005511233949303661 0.013790166210904944 -0.9194522204474175 0.15816618599022778
0.231 0.14298970390832458 -0.6068720797869217 -0.0005340833538819106 0.0004373020722249619 0.0057569168004533095 -0.0030283865060699443 -0.9086852422271917 0.1704855154436721
0.232 0.13794745233241365 -0.6080315562530199 -0.0005651013702739983 0.0004827764492237523 0.0010597378401369284 0.003287941002690393 -0.9085784445376391 0.17072990761243154
0.233 0.13784158856439171 -0.6055782868025597 -0.0005393940562630885 0.0004942746529889042 0.005109270496614677 0.014292850924555036 -0.9125578471734491 0.17354978536219556
0.234 0.13269281883592796 -0.6053972342621382 -0.0005883936871601809 0.0005042467213509199 0.006612044050903837 0.00040399631651767497 -0.9115013026943215 0.17929911520296798
0.235 0.1319042632710321 -0.6037776262468675 -0.0005714633900059413 0.0004989924145540107 -0.010214917361156735 0.0031184297062074214 -0.904808915138436 0.1955640399195583
0.236 0.12744862425646533 -0.6024887438290011 -0.0006086237581708477 0.0005120337045732844 -0.010785905045120203 -0.008525552775683188 -0.9092025240355501 0.20000617296278445
0.237 0.12517559817201637 -0.6010455583127912 -0.0006164571899360649 0.0005249684705258279 -0.015504319231819361 -0.007480766330222896 -0.9047637136865219 0.20068443289951618
0.238 0.12369003817536586 -0.6012444345870726 -0.0006171173190889746 0.0005363007857236126 0.002282327061688579 0.004073835442841477 -0.9013472891141969 0.21219088746229997
0.239 0.12026800065399577 -0.6024783800062089 -0.0006190038399546501 0.0005424559153986307 -0.019670471168449184 -0.016042040636953456 -0.895078725175265 0.21706744651621246
0.24 0.11661771104640148 -0.5971875522922252 -0.0006060883202543969 0.0005518381696519787 0.0012486503626878904 -0.007563670485527191 -0.8970998474929648 0.22663869697266226
0.241 0.11244615838012675 -0.5975346640242394 -0.0006057852843599464 0.0005980620902253329 -0.004044749833274984 0.0013196013171883742 -0.8855366419791814 0.2300153528080081
0.242 0.11066187725405452 -0.5986307484477246 -0.0006400461346010326 0.000629008095304215 0.006647739707842351 -0.0030304433916190695 -0.8884886580196623 0.2427184077015875
0.243 0.10563544926708276 -0.5936504685848476 -0.000626385341507029 0.0006062421182338753 0.008676094031040821 -0.008873605426995508 -0.8912716402738318 0.2432189016807699
