!Created with skrf (http://scikit-rf.org).
# GHz S RI R 50.0 
!freq ReS11 ImS11 ReS21 ImS21 ReS12 ImS12 ReS22 ImS22
0.13 0.5245368638671428 -0.5924913423906026 -0.00019163199832472911 -1.5006331347743742e-05 0.01586306710561888 -0.014187082970704345 -0.8674558265100633 -0.44823359942304425
0.131 0.5117751971955073 -0.5951612612233922 -0.00019940430035583813 -2.146259100926636e-05 0.02275787479509865 0.015074797771450283 -0.8683338641637868 -0.44336620866772425
0.132 0.5169749307833188 -0.5940436091899818 -0.00019752640412936114 -9.089040112734193e-06 0.022734594889272135 -0.07149810858809709 -0.8774543520931539 -0.4463569584327749
0.133 0.505625911866456 -0.5949935219166305 -0.00022458189528682667 -1.5947587608443777e-05 0.020821919921004302 0.046752819755005344 -0.8819880609551908 -0.4313972792167295
0.134 0.5025741449533808 -0.6006523943404759 -0.00023466821231995353 -2.0149243427390105e-05 0.0298864044890742 0.024738243558483655 -0.8820176334984389 -0.42228308775572304
0.135 0.4998085083481728 -0.5979081078150917 -0.00023091261244486547 -1.0993172853147219e-05 -0.008197473541835653 -0.003355387523196124 -0.8839431465903408 -0.4200336226541372
0.136 0.4956187925605226 -0.6053474775336494 -0.00023146817068572415 -1.5334860604637327e-05 -0.04144758545549328 -0.0191873270978659 -0.8887951341396726 -0.41148243378690574
0.137 0.493999740238334 -0.6027875277150555 -0.00022236356897774412 -4.027129233769626e-06 0.0375510563536578 0.014459975370582008 -0.8852176104086111 -0.3945197396290061
0.138 0.48539411546714634 -0.6009309356765355 -0.00024407662140468227 2.5366863786382166e-06 0.018656129745399878 0.02260469028944851 -0.8923253233621559 -0.3865061637198979
0.139 0.48602580072881013 -0.6042437328416812 -0.00023716240742730046 4.592985693669541e-06 -0.004322686331929893 0.03034732286128401 -0.893400295114858 -0.3835924979048565
0.14 0.4798945726788546 -0.6077170635312689 -0.00023926476722807818 1.6371425327831812e-05 -0.021318142644594203 0.009346686108265733 -0.9010871848541872 -0.38141575393857385
0.141 0.4733928935665244 -0.6089899904502359 -0.00023763418476321617 3.808604221370345e-05 -0.00381874938455095 0.018824862746724843 -0.8964501718727373 -0.3704517671006353
0.142 0.47373008796123706 -0.6083562862623774 -0.0002711875102261824 -7.064437211438907e-06 -0.012458024427171255 0.014546598249981717 -0.9081707178737009 -0.35977297399051084
0.143 0.46493465696639036 -0.6083313623946268 -0.000257448854827298 3.289108110041793e-05 -0.0018953611777428108 -0.01121295045391712 -0.9118791722275554 -0.3513657932792419
0.144 0.46149531159227497 -0.6119976251863529 -0.0002844375761045743 -8.997893723703361e-06 0.009921599449375446 0.017416521888382924 -0.9086535168828703 -0.3520832918063432
0.145 0.4575619676896105 -0.6130993791481424 -0.00028508901625918446 -1.0906467760852432e-05 -0.02541042280721393 0.009200032975964414 -0.9147313259619729 -0.332021513819477
0.146 0.45296722867752254 -0.6122038712162774 -0.0002593166598868811 3.041020344275205e-05 -0.024688423270655197 0.007782420078356253 -0.9136914741255849 -0.33561951389622247
0.147 0.4489565381455507 -0.6138764619542428 -0.0002787391964458901 4.508662867889586e-05 0.0008747690188843857 0.005075211772672703 -0.915582674993339 -0.31995795110785374
0.148 0.4439423442913315 -0.6138641431292965 -0.0002917374094141056 4.2870321432158845e-05 0.03302026674399747 0.0037622266803439544 -0.9172183675457135 -0.31619179186468516
0.149 0.4385914539820975 -0.6147448724216921 -0.0002868152315840665 3.033968161396441e-05 0.016918187853480177 -0.00221462369638592 -0.9250709454035758 -0.30719884712150247
0.15 0.43465456607664416 -0.6163050664198746 -0.00028981671217724093 4.517009212148348e-05 -0.020869703568949457 0.028280491245764008 -0.9274741615309984 -0.29947726064606983
0.151 0.43231149415771514 -0.6163951311146201 -0.0002984060386496032 2.8693853414113694e-05 -0.0017013101234985666 -0.032394064553880636 -0.9240334642876453 -0.30046543938220965
0.152 0.42437450087858875 -0.6196949949433413 -0.00033773248765453344 6.211528560126898e-05 -0.0146673697434889 -0.010775936079413738 -0.9264535920092024 -0.287317306595368
0.153 0.4265217560874301 -0.6185662875718653 -0.00032675485148886315 5.791942883980882e-05 -0.0007338751354196382 -0.014758563761324651 -0.936772046197808 -0.2781508246662676
0.154 0.4166246942504726 -0.6211399258697967 -0.0003240809248557568 5.326113935773078e-05 0.00351448199066102 -0.004657404713689265 -0.9319192005984442 -0.27082031742513496
0.155 0.4127460756730441 -0.6185833539044024 -0.0003275297558988669 4.310286542770748e-05 0.008362800225561292 0.02489098637942212 -0.9315905957488552 -0.2655565691753723
0.156 0.4073260557820116 -0.6240016644765551 -0.00034630865142750886 6.517355147387145e-05 0.0160334614428164 -0.01728669660490336 -0.9388060655404228 -0.2574112960470535
0.157 0.4041555660057421 -0.6217674601056669 -0.0003197834085041695 4.903858808877569e-05 0.020953456474366812 0.022113471633876374 -0.938447524049554 -0.2509261132664968
0.158 0.40091762198976005 -0.6255794016353283 -0.0003077830343825856 5.020023181862355e-05 0.024696209511751305 -0.0031910077363415798 -0.9341251712694021 -0.23682358948732893
0.159 0.39735514611951617 -0.6251147532396304 -0.00036471960967005755 6.675885768157551e-05 0.015849917226877765 -0.004692254429186547 -0.9442368899318134 -0.23747259217822073
0.16 0.39376296339487965 -0.6212365108694674 -0.0003458988990742374 5.369066557139529e-05 0.03802594135460491 -0.021656402890168888 -0.9449329398466192 -0.2180029209384987
0.161 0.39216203608754113 -0.6286302730216472 -0.00036234085483459965 7.706188440360249e-05 0.03224791798195321 0.006049236801233791 -0.9460163199887816 -0.21482684010048805
0.162 0.38312982198303436 -0.6265632535993121 -0.0003770443339639995 0.00010404770730535277 0.016014795418243532 -0.027816972794547784 -0.938695272808952 -0.20643536170031215
0.163 0.38064483190946274 -0.6236080580876707 -0.0003542761995808963 7.988197631961709e-05 -0.008016479415570339 -0.037942838384439036 -0.9459452435002875 -0.2051786242134
0.164 0.37406389639238957 -0.6231961351844468 -0.0003771419041033421 0.00010560383106309686 0.009395520591199327 -0.007277942316349458 -0.9398443097505917 -0.19925531839980015
0.165 0.3736868537069129 -0.6333761317464024 -0.00041152821329187926 0.00011386382900331207 0.03093579096120084 -0.001559004951106392 -0.9453794566360553 -0.18652198534975098
0.166 0.37606645902498365 -0.6320335670754621 -0.00037084626024159686 0.0001201113612369961 0.013765630589386298 -0.0036054580684203898 -0.9417688861860124 -0.18395823831172436
0.167 0.367064083288981 -0.6263894330233181 -0.0004060780165225141 0.00011155320231205842 0.03938067025684849 0.007844390999368964 -0.9439001851058645 -0.17954115606743548
0.168 0.35903152161650187 -0.6303433334844222 -0.0003910960536172222 0.0001430923045050469 -0.005880331953250482 -0.023500554319522624 -0.9366839150919397 -0.1671589335373939
0.169 0.3537518328628761 -0.6213719850884443 -0.000410509679961199 0.00013096495584935425 0.01821400065058532 -0.008765979051680325 -0.9411283943193738 -0.16077079460343519
0.17 0.3502887582153299 -0.63258277855537 -0.0004206052092784806 0.00014486078032593762 0.01078134784746421 -0.00277147764827753 -0.9408882099379391 -0.1493278387153579
0.171 0.341648088017084 -0.626142504952513 -0.00039752043921036296 0.00016896033267366743 0.02000050517801525 -0.009822710885738696 -0.9377976284963198 -0.1442683548019096
0.172 0.3425345372414447 -0.6298129025356156 -0.0003901543314924948 0.00018215321639370043 0.019275695276772108 0.03787087166134542 -0.9347600034996213 -0.13227408781191832
0.173 0.33941651736197775 -0.6318341565487876 -0.00043650806799128475 0.00019713492997037066 0.0011960463280004405 -0.005683003933812404 -0.9314826675977063 -0.13453916457026746
0.174 0.334403090566213 -0.6314789445680601 -0.00039095911226373284 0.00019045683906402817 0.002213316175939624 -0.013032500477769215 -0.9300833835488688 -0.12157814324219238
0.175 0.33159446436885126 -0.6320939553412465 -0.0004034952918168207 0.00019621490700170261 -0.031483529726918834 0.03207034802875007 -0.9284109991367763 -0.12071104841214021
0.176 0.32469247652932687 -0.6320490629113268 -0.00039979407072162314 0.00024413898298096732 0.014234507467022602 0.0041347876315805665 -0.9296486032747908 -0.11653423491495435
0.177 0.32175928736011056 -0.6323900926098603 -0.00038882906910007255 0.00021276637890674629 -0.01931984098264158 0.0014578586235593797 -0.9242107270929634 -0.12349846520624307
0.178 0.32531042409901073 -0.6294789137055045 -0.00039202495816426916 0.00023075936244893003 -0.013737436888261595 -0.016786088310412155 -0.9279399723021552 -0.11536708952288165
0.179 0.31668393446214876 -0.63055005880496 -0.0003630872493362357 0.00022562950418943066 0.018839750623732714 0.010855311088288919 -0.9305670399329667 -0.11153248871156643
0.18 0.31337943914766214 -0.6302431734238401 -0.00038733825303107833 0.00020090950633037496 -0.009039670946559563 0.0017006499710612002 -0.933751005406726 -0.10270097117403205
0.181 0.30760801117622916 -0.6306177988826471 -0.0003917920895304158 0.00020901793440977068 -0.021583885944748357 0.0003791801199356538 -0.9367254319480548 -0.09958351986616458
0.182 0.3066458590234154 -0.6319497281868125 -0.00040498250566518607 0.00022728432044791187 0.0011241409865022532 0.003521178110591488 -0.9385585441561115 -0.0959997433910115
0.183 0.30142478978744924 -0.6306854011207895 -0.0004031031711771641 0.00021098295018647615 0.014973372039248376 0.0003842064917473842 -0.9325282302271455 -0.08813117277417659
0.184 0.2955234699319122 -0.6306128608686604 -0.00039146224508827305 0.00020281880435541914 -0.0072303291003326595 -0.007597184968685229 -0.9452388993644991 -0.0734667106490577
0.185 0.2933909884598981 -0.6299481249840503 -0.00044875017746749945 0.00019145454614429496 -0.014074823310735412 0.01705035967565608 -0.9413129611319595 -0.06416943394825089
0.186 0.2889062477071832 -0.6335629989161706 -0.0004453308458130423 0.00018767942635891877 -0.01180821526600706 0.010075742786380036 -0.9529589432559109 -0.068841623368282
0.187 0.2854739901157417 -0.6301331656028668 -0.0004336342596208749 0.00023046991648995876 -0.004725108910426392 0.023314738932566068 -0.9482957608952832 -0.054419916094755626
0.188 0.2827713910333303 -0.6285288877728155 -0.00047372381072675966 0.00023048824347294137 -0.005776016179710704 0.01754837461881354 -0.9385292301447343 -0.05289328817736604
0.189 0.28027525174115114 -0.6291305580717208 -0.0004743722992316701 0.0002480504294197019 -0.016663712245200735 -0.007665124328858517 -0.9449969868085654 -0.037252999390652686
0.19 0.2749585761425693 -0.6297139806866213 -0.00046649936128060775 0.00025299543219956894 -0.007346233078835135 0.019873881061788074 -0.938976141312961 -0.037014187191769195
0.191 0.27296763330320656 -0.6286025609355135 -0.0004906889942374603 0.00027489819135958447 -0.017823333281899147 -0.008179914883790386 -0.9435860713945209 -0.020505949563264694
0.192 0.2676044996985111 -0.6296435095061853 -0.0004755639085988802 0.00028907449426519404 0.0016866995801486878 0.0030413578384100594 -0.9365494529277162 -0.01523476626499589
0.193 0.2642174255413816 -0.6305315345583904 -0.0004959880979799961 0.00028889576514409696 -0.009156782698493012 0.0049030755883311735 -0.9361102068007696 -0.005353472644268651
0.194 0.2609175058501788 -0.6265170734311237 -0.0004833127391042892 0.00034530145170577034 -0.0005845686683574959 0.0036717171779565363 -0.9291467974975942 -0.004425579016807256
0.195 0.25793380787780146 -0.6288095251128426 -0.0005057450440910135 0.00031481564930061737 0.021020472592795547 0.008327369214131842 -0.9290289761384527 0.007646916908004489
0.196 0.2568883696668052 -0.6271590353329247 -0.0004978259851549856 0.0003524918111366313 -0.018050499401949693 -0.03257965910767163 -0.9264182408435173 0.014979337636233707
0.197 0.2507179092722409 -0.6282915968661765 -0.0005218827752588464 0.0003742479765546389 -0.004981051256487641 0.000891880509455946 -0.9245318268805267 0.02195700617667624
0.198 0.25028698617533507 -0.6258343514440359 -0.0005003847049827329 0.0003925650745723148 -0.010666206268034571 0.010689945115118182 -0.9167903305096019 0.028992676523325277
0.199 0.24378805568081402 -0.6259777338644232 -0.000492996054402823 0.00037588326419712515 -0.006833825851434236 0.012208882569003036 -0.9166586539019819 0.0354429357073571
0.2 0.239443422486189 -0.625248269406147 -0.0004845722525313358 0.000401267244487533 -0.01231377933669137 0.01531073493224907 -0.905152214177731 0.035184416422831676
0.201 0.23773716622947003 -0.6253509628340626 -0.00047539389685950946 0.0004118852775000585 -0.005461836725556107 0.008512773318859143 -0.9024466045888392 0.03894754738710556
0.202 0.23430049046875306 -0.6249160793161274 -0.00047128889660524127 0.0004363859227908525 0.014141605092116438 -0.02145888659157432 -0.8943770062086457 0.04569282780738308
0.203 0.2266846974404191 -0.6210134105486944 -0.00044170724801748985 0.00048950308586593 0.00240492880994847 -0.007963082705767746 -0.8810481079967307 0.047638447814682065
0.204 0.22553196141214835 -0.6245782112434952 -0.000445257259049284 0.00047334350195800515 0.009724619798086582 0.005295422389643199 -0.8819776794025923 0.047981032558374805
0.205 0.22466254368774052 -0.6206381922180974 -0.0004119717004575601 0.0004654463644131488 -0.02817633139401475 0.006348333278251364 -0.8755189189326877 0.04082662565970607
0.206 0.21777203511692705 -0.6222573785747166 -0.000381622785897004 0.0004791826681757228 -0.016369407716747855 -0.0021420060270611403 -0.8710425687553297 0.037993094429533934
0.207 0.215349702059225 -0.6235060162096057 -0.00034325290798426145 0.0004794912099848263 -0.012250288693136253 0.02048983427974058 -0.8705818448960955 0.03982086860723503
0.208 0.2148464538130289 -0.6207209328475873 -0.0003235729300080216 0.00047600856402620377 0.026111220794393954 -0.017538090169154117 -0.8750896573300967 0.03261128603574525
0.209 0.2100033312060827 -0.6259369216682986 -0.00034737989889558685 0.00046312791266304456 0.0006115731037760617 0.007294788849163704 -0.8744777628576912 0.02831543859082153
0.21 0.20423011015504874 -0.6212349356554411 -0.0003238859614991858 0.0004372971060322207 -0.009004489987804972 0.004545836190996343 -0.8792946611088843 0.03463361865457109
0.211 0.20058665905534812 -0.6247280576550739 -0.00032633524016930705 0.0004210575326972004 -0.0003353364578168148 0.017559819206099503 -0.8885038906307539 0.035549255736561515
0.212 0.19980214054460635 -0.6234026086718745 -0.00033242928570907356 0.00040518249325042035 -0.012482873200877952 -0.008134179659473667 -0.892856359387477 0.03315936465963367
0.213 0.19896327109059442 -0.62696323325578 -0.00033051980634575534 0.00039436363720623006 -0.01707291095775049 0.003833846969652744 -0.8980457835086065 0.035664145184600864
0.214 0.18777625757788521 -0.617259770173216 -0.00036152071826964254 0.00038331043370927654 0.002544995061419473 0.0037989535961893235 -0.8989772451045601 0.03731931383218476
0.215 0.19092740425897742 -0.621830669611279 -0.0003746921929723058 0.00036228042555238194 -0.0014189132220841232 0.002469804947501369 -0.9043841282146603 0.048313140868040665
0.216 0.18943126332205648 -0.6196938544024526 -0.0003837804923774466 0.0003538649685036914 -0.008888858214245397 0.011076962179950064 -0.9114914282112738 0.05219850731314648
0.217 0.1808721361154239 -0.6154148038556654 -0.0003640140140829488 0.0003549706359962422 0.005142608061971364 0.017587389469867543 -0.9117980781954967 0.062248947000958905
0.218 0.17985833215653554 -0.6162693359524898 -0.00039897245628250634 0.00035469192023907247 0.005956151479153215 0.00825430055234752 -0.9157863428551325 0.07461057035931881
0.219 0.176789739215419 -0.6179690847918659 -0.0004406906697998357 0.0003448057073195159 -0.004844054672911084 0.004870309488156156 -0.9161694059803239 0.08024525846751576
0.22 0.17492443311237252 -0.6170664625630645 -0.00043867031133563734 0.0003499321483724096 -0.004071996215514338 0.005243047065762595 -0.9190501182037861 0.07832961275059554
0.221 0.1735060475239048 -0.6173919646894819 -0.00043696003267875376 0.00036654209489286925 -0.008928871819884658 -0.005428407760951977 -0.91713392393058 0.0910199281141112
0.222 0.16964828585679378 -0.6136394347718573 -0.00045986248248278025 0.000373066090610642 0.005732757648289443 -0.012789249612022836 -0.9188663772385542 0.10252011789086252
0.223 0.16668965920701984 -0.6168897990477182 -0.00047284552692397505 0.0003833425164843369 -0.005733949592929125 0.025055722343195534 -0.9255694844161401 0.10531299809539292
0.224 0.1606404076005999 -0.6122420197311973 -0.0004830999892080909 0.00040320117729295154 0.0006699024457193522 -0.0055965550995368185 -0.9263736817001025 0.11271840409532208
0.225 0.1611615104881822 -0.6124404521027867 -0.0005000508868410004 0.00041096584272074367 0.009554650129774765 -0.009099126914892636 -0.9274197387667712 0.12286850707528936
0.226 0.15774162013368842 -0.6094885120737724 -0.0005184117235089169 0.0004083203369285738 -0.0015118338370605638 -0.005564353655469626 -0.9189060302121911 0.12831608036032008
0.227 0.15439884013200986 -0.6099889042135964 -0.000521043073150764 0.00043841167777367495 -0.014383136699067626 0.00250377310904299 -0.9188131386440883 0.1286699998565701
0.228 0.1507509493335569 -0.6096562018070085 -0.000547707701258933 0.00041240449051101424 -0.011099548777038386 -0.005172608350025648 -0.9228837309728511 0.13836952564524863
0.229 0.14952475993942765 -0.6101618338974839 -0.0005276971498762689 0.00041939532381900035 -0.0023628895081975088 -0.010254379516446657 -0.9152380852469725 0.15069778229719039
0.23 0.14545570356364104 -0.6098995379904891 -0.0005524752630304495 0.000443346390739895 -0.01378573177153311 0.00693045602245621 -0.9215643763446464 0.15604685261553727
0.231 0.1422635485185454 -0.6067196910616424 -0.0005583709171489078 0.00045382605109641486 -0.009992753352067013 -0.0010791925929923643 -0.9095614427571509 0.16303867875102382
0.232 0.13854570676328928 -0.6080183620375479 -0.0005711491369006616 0.00046943001512753926 0.0034763443200361397 0.0024612001553045736 -0.9134150622344002 0.17107341801881784
0.233 0.13733262718053169 -0.6055973491565818 -0.0005496776738640272 0.0004822385966074361 -0.008219473264854638 -0.007754709742342383 -0.9120575498600273 0.17345198313653903
0.234 0.13338242603969452 -0.6054444532203076 -0.0005706222301475797 0.0005066266040897093 -0.009057991308754646 0.0004995204750500636 -0.913908628432904 0.1817682485495061
0.235 0.13202384453171567 -0.6035528053541612 -0.0005895290666746016 0.0005049705604179324 -0.006537329203762327 0.012031671472580115 -0.9056114310367854 0.19350093471688226
0.236 0.12730196049535672 -0.6029882227295404 -0.0006050718551174041 0.0005349092639886784 0.015428123119320559 -0.0017741333458635084 -0.9060584125168064 0.20658699823259252
0.237 0.12484994102553254 -0.6023154085536641 -0.000613044904053359 0.0005420466066164536 0.010457277382789742 -0.004032735134989312 -0.9108521521985679 0.19821702711432912
0.238 0.12394256281374205 -0.600017599714196 -0.0005844690786407149 0.0005501670938455891 -0.0068009537428819775 0.014315380098844784 -0.9021718136448543 0.20787612297213529
0.239 0.11950465266302157 -0.6011398839784808 -0.0006183639372153749 0.0005810327442721055 0.002969776823843288 -0.017772096394377542 -0.8950586147667128 0.2185175397026028
0.24 0.11804069460137596 -0.5959998375991565 -0.0006070718058947041 0.0005597009902491736 0.0033372047660076226 -0.012898055936873718 -0.8977142504930451 0.2262664506586626
0.241 0.11313073538185753 -0.5967640397499355 -0.0006229077372129916 0.0006016292001483829 0.007702077774742027 -0.012450652240347047 -0.8856450022154796 0.226746563503614
0.242 0.10894137732254776 -0.5996673538261139 -0.0006499728482060816 0.0006336345595877197 0.0067438174685328705 0.004410805348316324 -0.885378293653914 0.24289602557455026
0.243 0.10733293232553949 -0.5940505363995248 -0.0006243638363564494 0.000616198025065193 0.03220657009402093 0.01266457237091941 -0.8892200888561668 0.24303903567202628
