!Created with skrf (http://scikit-rf.org).
# GHz S RI R 50.0 
!freq ReS11 ImS11 ReS21 ImS21 ReS12 ImS12 ReS22 ImS22
0.13 0.5186405297833006 -0.5949441687716726 -0.0003713182668350794 -0.00013990907665288986 0.0664816222552736 -0.02143089868622884 -0.8674832478923187 -0.4550450783333516
0.131 0.5157536663024685 -0.5955843828505888 -0.00040470116630856565 -0.00010695850298512964 0.015408110155050834 0.0007615762993287362 -0.8648124994089984 -0.4490219744205762
0.132 0.516019141881366 -0.5910122774868379 -0.0003961627688548253 -0.0001081092003878857 0.04318455058086139 -0.04390776172169858 -0.8746314856021999 -0.44013081562076845
0.133 0.5118697027359415 -0.5975417618110649 -0.0004088078925101412 -0.0001009171286172354 -0.010863202410551564 -0.06482406530200514 -0.8819553846408493 -0.42992754508839787
0.134 0.5074187112255271 -0.599866244181712 -0.0003955365370687297 -0.00011533803938774124 -0.043987294799953745 0.04684054529514742 -0.880992530074079 -0.4271438456046905
0.135 0.5040543103349103 -0.5997260792235716 -0.0004195840465259818 -9.605151798053725e-05 -0.03097877764925767 -0.051858909908927144 -0.8902902630858346 -0.41788902555765955
0.136 0.4950933650683476 -0.6087020190820838 -0.0004185694844535366 -8.702724437203272e-05 -0.005540474710962267 -0.017681736500847194 -0.8873928956261284 -0.4083755840395867
0.137 0.4923564518469817 -0.6009282897868549 -0.0004410368819007335 -0.00010144892806403068 0.031368798170626336 -0.03321921054749559 -0.8867668884624825 -0.39110100073370396
0.138 0.4847841961245138 -0.6021556785052495 -0.00043860726670630985 -9.179422165212795e-05 0.029075428654916677 0.022988229582771306 -0.8936405991465214 -0.38368009921308277
0.139 0.484907430014895 -0.6028367796539574 -0.0004326498760317892 -7.609306853369823e-05 -0.03480824054892774 -0.04865242377967258 -0.8929720603584879 -0.3865489137681217
0.14 0.4800235074284777 -0.6066995889170538 -0.0004336451991720827 -9.06817036324757e-05 0.03941360063346138 -0.017536251211232232 -0.8973249541889367 -0.38195690566987456
0.141 0.4739949577481377 -0.6102872982197639 -0.00047701612395792143 -6.83447596657215e-05 -0.00052302471359908 -0.06963220404828216 -0.8967343400199975 -0.3679972501535923
0.142 0.471026344671088 -0.6104282727630346 -0.00047463707021529205 -7.015330768275971e-05 0.0009142454572579948 -0.030984477809031456 -0.9092666236160356 -0.3604176773155843
0.143 0.4644800467034523 -0.6085809903200954 -0.000453120887947169 -4.943901145753909e-05 0.08377077045518856 -0.0065941079249985214 -0.9092838374264257 -0.35094363555570085
0.144 0.46199706729315015 -0.6118096390918691 -0.00046484202505785686 -5.745913972352961e-05 -0.0016965957165674692 -0.012646074844531507 -0.9076810476139034 -0.34996973294676337
0.145 0.4582473701585522 -0.6135079388820159 -0.0004889816574782905 -3.433308765485897e-05 -0.0032779200589738056 -0.044941624163567416 -0.911202460864191 -0.33579093954099765
0.146 0.45339489945960054 -0.611576059740124 -0.0005123523061456834 -5.696143962186581e-05 -0.02785118193027837 -0.027939867322949438 -0.9161696132207384 -0.3343301910813467
0.147 0.4490149490330691 -0.6134331377689956 -0.0004963030362305215 -2.152103787330907e-05 0.03359927487143045 -0.03959893831247463 -0.9179726864436112 -0.3257703875386306
0.148 0.4434221540087723 -0.6136616766132665 -0.0005283200894030762 -3.440781770842223e-05 -0.05810736717699717 -0.010156317527219051 -0.9170678335354018 -0.31596432744432146
0.149 0.43883636028828366 -0.6152702320686727 -0.0005198783136779441 -2.249042314518918e-05 0.01417731230420136 -0.018783955281282 -0.9243908519073853 -0.306900024741245
0.15 0.434973823608389 -0.6155199098152876 -0.0005226126964291367 1.3122828666057989e-05 -0.00774888189687645 -0.012786678357665067 -0.9246904167061287 -0.29786220814059705
0.151 0.4316903226515721 -0.6165687068754013 -0.0005236982976134405 -1.2585299902241803e-05 0.019943368950632902 0.005433929636160758 -0.9277520903687501 -0.30150159862728293
0.152 0.42561170132273 -0.6188139946093366 -0.0005640365103497742 2.1939123540435373e-05 -0.05593263051026587 0.013365820448014093 -0.924705024005379 -0.2880124072558378
0.153 0.42595516168476155 -0.6189968910424833 -0.0005303109995029771 7.257664409057308e-06 -0.0012919841624604654 -0.03543886000336401 -0.940310973994097 -0.27725547516267895
0.154 0.4180763249574885 -0.619673382466561 -0.0005597623022471978 5.44894245039588e-06 0.024471444876219488 -0.05519616387512756 -0.9290127042864231 -0.27188462274190794
0.155 0.4123956291688838 -0.6182359212759864 -0.0005491894397961533 2.741262574664507e-05 -0.01745115762763545 -0.007720290917337316 -0.9307711423324899 -0.26139652100709293
0.156 0.40767649889128144 -0.6236108863006835 -0.0005517771814863237 3.0361328359487617e-05 0.013461313017308463 -0.0057985014050768256 -0.9315991300134954 -0.2575091061679499
0.157 0.4032862632579966 -0.6217162102085328 -0.0005690007844767761 1.8648845428484467e-05 0.04619097356332449 -0.020681112564144188 -0.9326748360646397 -0.25290909616409646
0.158 0.39797610267122235 -0.620771235672296 -0.0006106148905833705 6.82192671066233e-05 0.018680778197875347 -0.010832467647430502 -0.9340615501268075 -0.24270517431423824
0.159 0.3986089539393992 -0.6269076462344777 -0.0006118348451101789 2.645971865300372e-05 -0.002347594800447145 -0.00910973500800022 -0.9371688838562371 -0.23590267676556628
0.16 0.39242871413953784 -0.6256356166193897 -0.0006058425247241311 5.54216604863577e-05 -0.010582081700953719 0.032176239186650045 -0.9409248751324567 -0.22441312034931443
0.161 0.3898663646592318 -0.6264566883257315 -0.0006181437460306516 7.925667567186139e-05 -0.013195329680840808 0.015070281016349208 -0.9450950510911217 -0.21255927531399646
0.162 0.3833983586488917 -0.6253684671688798 -0.0006272328310730191 8.37724716401692e-05 0.020213213091821943 -0.004504328527477886 -0.9407355331492244 -0.20567822369139066
0.163 0.3837838767196136 -0.6249965637345269 -0.0006232010346208382 0.00010092320866229627 0.052531392138824975 0.002924826912894968 -0.9428605606927348 -0.21101941589167253
0.164 0.3723569397293837 -0.6232539280929881 -0.0006538336659951136 8.508219786801827e-05 -0.007563744164640861 -0.009410737087039558 -0.9418049135111691 -0.19656823094279666
0.165 0.37728795817549976 -0.6278646304739832 -0.0006408688306495587 0.00013061240989862421 0.013302051237726037 -0.004083739716026269 -0.9386355818393323 -0.18514233010814798
0.166 0.36772963788699975 -0.6314237488816273 -0.000661481538760703 0.0001349842070324174 0.018483018733802883 -0.003053373282672482 -0.9397519525104641 -0.18287604328383983
0.167 0.36708820575267515 -0.6282125057226766 -0.0006742702377324338 0.00012561758084314923 -0.011070827097904884 -0.006177516155509326 -0.9389276614336989 -0.17546291131765127
0.168 0.36330297679166806 -0.6291242969910997 -0.0006744745198623976 0.00015981158107275682 -0.005608750684807125 -0.0002701918895381935 -0.9393721603757358 -0.16219687528307697
0.169 0.3536234723010485 -0.6211461984852108 -0.0006705478754799439 0.00017741638656565564 0.02064399624167412 -0.027310707818411623 -0.9427538323540313 -0.1553171485142154
0.17 0.34678014265133755 -0.6285612105075188 -0.0006600582237055477 0.00023492779179853373 -0.017528890450692402 0.005569331514948338 -0.9387755823849219 -0.14753040336944476
0.171 0.3463288262425596 -0.6308832761020915 -0.0006899929170485578 0.000206798549723003 0.024208593753520614 0.004262730087517137 -0.9413395354302232 -0.14907033991227955
0.172 0.3481890039304238 -0.6294611103806407 -0.0006804001878545858 0.00023924935762258907 -0.030180451072447254 0.0010639990439244586 -0.9347426455374254 -0.13201003336468098
0.173 0.3378003269002324 -0.6343084879716039 -0.0007017387668293538 0.0002507686656311021 -0.014896445898648282 0.025337261491187365 -0.9289313053174787 -0.13625258842471974
0.174 0.334237241472359 -0.6330947588319067 -0.000675864209512222 0.0002774129231680845 0.03996626064638349 -0.005642049927044372 -0.9293746858547715 -0.12316948025978236
0.175 0.3287984965523385 -0.632293552815464 -0.0006666599345155378 0.00027674472814068874 0.02147483949286351 0.004774829389069111 -0.926207426961518 -0.12120002056670869
0.176 0.3284481487629865 -0.6303698439487997 -0.000661499094798657 0.0003167798614787173 -0.012201270771984933 -0.019590005494723044 -0.9310891327464296 -0.11645591013886995
0.177 0.32006490148070377 -0.6319377760843091 -0.0006485975149877406 0.00030628631405757103 -0.0073426560378868 -0.021906867053673954 -0.9245388118849237 -0.1218661092410769
0.178 0.32390167727648206 -0.629602279235883 -0.0006409383429608529 0.00029038859673173687 -0.014474696753562655 -0.013420836611829383 -0.9246672666496957 -0.11381087986329706
0.179 0.3190998430242002 -0.6312519872434409 -0.000622187326193334 0.00030556812894403854 -0.007786609477804553 -0.012717318102676366 -0.9307752250698155 -0.11065455921889851
0.18 0.3139876414633174 -0.6295949980048612 -0.000667887568547756 0.00030044549416244923 -0.012977590289526443 0.013073037055882964 -0.9319448991023573 -0.10315623583009423
0.181 0.3050397746056003 -0.6328870014206674 -0.0006627871715250797 0.00028206185314384166 -0.007279964081758555 0.016066196405454803 -0.934169361651656 -0.09650232548008252
0.182 0.3050702034319191 -0.6330193917652733 -0.0006576231022652356 0.0002854011531135672 0.03553826003848728 0.015241204350010003 -0.9393773903449114 -0.09569387593989812
0.183 0.30242205972860386 -0.6288547070900578 -0.0006852303854546592 0.00027252724901670483 -0.01580445734956498 -0.0024505366519979063 -0.9329971753568449 -0.09097739366089928
0.184 0.2967903029012191 -0.6297504769800879 -0.0007262738607445623 0.00029248773787975905 0.01843100114500776 0.016543680699230186 -0.9440213222434759 -0.07229365510710978
0.185 0.29336704374547223 -0.629525816386787 -0.0007231529265551061 0.0003176821870368992 0.006085581524118098 -0.0032079439514754167 -0.9379908058986055 -0.0639739674434832
0.186 0.2907024649458344 -0.6316529012424278 -0.0007371883123968944 0.0003145120056386424 0.00670513497148627 0.012733952445631828 -0.9471603060417977 -0.07027409139115534
0.187 0.2844084917231393 -0.6306464384039245 -0.0007425150538797323 0.0003514660384370829 -0.0032236170059538704 0.018236361628416378 -0.9470076629469317 -0.05897119596222113
0.188 0.2828024788964536 -0.6296181744805209 -0.0007419316448884694 0.0003237398327473031 -0.015313727815782241 0.01584516350848167 -0.9436035513998347 -0.053515664897063636
0.189 0.28012604464209434 -0.6304865928643397 -0.0007830567495706108 0.0003530277246821222 -0.006235130649289865 0.015223369714756331 -0.9387411785169771 -0.03997981433987869
0.19 0.27540881234542564 -0.6298671921228178 -0.0007729602317629534 0.0003939148667994161 -0.006337508673498585 -0.013193541650235665 -0.942386685625323 -0.03363309521385642
0.191 0.2731942896006712 -0.628662189169706 -0.000775321889497791 0.000378153158574689 -0.007903521654526024 0.0019305824111731358 -0.9411569404958886 -0.022001094436160756
0.192 0.26797208762366465 -0.6297062797503744 -0.0008006695561311394 0.0003753132782990876 0.01343656677259753 0.016463223619840036 -0.9362910613702063 -0.01755814169518203
0.193 0.264394634877901 -0.6302690716526969 -0.0008171530236375069 0.00042093117258891184 -0.026775806504063502 -0.004457859304075983 -0.935386856992794 -0.01362510136503568
0.194 0.2617463563487028 -0.6272148673509518 -0.0008196345797503983 0.00047362422525767424 0.0019159004409234025 -0.0021023910487140765 -0.9349215132534167 -0.0069520568007268085
0.195 0.2588228054891564 -0.6295129167985466 -0.0008261771464217693 0.0004709965886186653 0.00988828702772128 -0.00043005893063736717 -0.9315869698746578 0.00953378452637256
0.196 0.25604995921997786 -0.6252759983634197 -0.0008234019252406766 0.0005127959550861458 -0.0030792225533786168 -0.005737494658034293 -0.9246183341531273 0.005138201913622025
0.197 0.25094433386871584 -0.6304160163794089 -0.0008192762610373825 0.0005333184681648905 -0.01703981012137786 0.019863396498664095 -0.9189212567860792 0.015123257595722119
0.198 0.25181226405250356 -0.6254165785592956 -0.0008382270430644763 0.0005714999131359129 0.0026665638015499447 -0.0024871776499503606 -0.9116343609061401 0.02320906163921615
0.199 0.24077797628059028 -0.6229375866210694 -0.0008214745462922159 0.0005894014955659934 0.008274716589195968 0.025102148300165335 -0.911231036580078 0.030489362098221385
0.2 0.24003106617007697 -0.6247492399578495 -0.0008195189189074836 0.0006479226803017935 0.0029967930664862447 0.012244026489495873 -0.9047446196505318 0.03586045085784946
0.201 0.2354556401997137 -0.6260712191449057 -0.0008015284959917868 0.0006402741230706908 -0.007712308219432743 -0.015962566147340946 -0.8985038358646191 0.03477348551832826
0.202 0.23346278501222217 -0.6272080814824378 -0.0007807959112677486 0.000670795033182255 -0.0018256330923166139 0.004545527808421219 -0.8940174245676942 0.04390539130834398
0.203 0.22865078055973254 -0.6222573150090157 -0.0007555932710531575 0.0007017421186922338 -0.01659558153454464 0.0009963007809056848 -0.8820757510393035 0.04943422877370979
0.204 0.22438492774926228 -0.6232537406544006 -0.0007261738156005757 0.0007327834610812335 -0.0027815732917497375 0.0006801056592882005 -0.8863422425814111 0.04571743433685734
0.205 0.22444423915299028 -0.6223331274752545 -0.0006957142936151789 0.0007184087645667077 -0.006722924164373175 0.023133870920709385 -0.8795572917544352 0.03737348763267617
0.206 0.2247054087909874 -0.6246590406170877 -0.0006621556448785637 0.000730012559442585 -0.00877673454345023 0.006293672691557356 -0.873006416475702 0.036878816646164304
0.207 0.21606315751167157 -0.6210597580577668 -0.0006195798216591865 0.0007154177278539393 0.01655497948934503 0.02182678928857244 -0.8742251111971465 0.038450618627778065
0.208 0.2175367527318594 -0.6264680325263033 -0.0005977301095453095 0.0007209612486986506 -0.007411169032341945 -0.003407349073078207 -0.8712109176435175 0.027176695810164606
0.209 0.20799364555228617 -0.6242897012987635 -0.0005835583455511615 0.000687794619358203 -0.009534804343106716 -0.001338956395757817 -0.8731831996435655 0.03244216143971838
0.21 0.20530758929073226 -0.6230913809595177 -0.0005536673245888404 0.0006547299192733041 -0.004712861189577191 -0.003820689128477173 -0.8788477254121277 0.0325205775294612
0.211 0.19897200340118518 -0.6259017194755905 -0.0005625022814918104 0.0006279318288239398 0.0013923205981747754 -0.0032791214166418797 -0.8868888353967634 0.03455214206934568
0.212 0.19902270871627273 -0.6196794922645392 -0.000582569622819059 0.0005936866990545335 0.01462499419877866 0.002066917067140042 -0.8932175985723472 0.03110457537595605
0.213 0.20064529114556565 -0.6237023140640743 -0.0005735989931931267 0.0005920981639639265 0.008466608231516636 0.014428778065906646 -0.8988910791685032 0.035686476455385564
0.214 0.19158056968384088 -0.6226389608186668 -0.0005981672592761456 0.0005791270451921755 0.0001717565934370331 -0.0013403086666562796 -0.8980010246593777 0.03842526833041158
0.215 0.1938331955618276 -0.6186727873581327 -0.0006292744808335836 0.0005827499038224814 0.016535673048055484 0.006765138681214742 -0.9055243441508606 0.04767303595947845
0.216 0.18683545020949238 -0.618624362967276 -0.0006356347219043405 0.0005770201678227932 -0.006535296810906822 -0.0039154033645772465 -0.9112682596352667 0.05147401772163463
0.217 0.18246712662906772 -0.6179870127299042 -0.0006224394892667452 0.0005716979318210679 -0.0012393810378969962 -0.0001250522898976271 -0.9130687011139533 0.06175381146854881
0.218 0.18136768944324475 -0.617301288380807 -0.0006515233875745939 0.000596154377413121 -0.008110401268536602 0.011254607601420934 -0.9147824932242602 0.07077293997274901
0.219 0.17691999083370205 -0.6197028593095444 -0.0006571385493826424 0.0005720914691630039 -0.010033053568987923 -0.0023209554885829727 -0.9186001434075609 0.07867181176275378
0.22 0.1750616075485715 -0.6192699668011321 -0.0007235680167738933 0.0005576376172925996 -0.0026096135551660913 0.0044221619413966 -0.9206452027371161 0.07770926335136459
0.221 0.17432557841119983 -0.6145032275939163 -0.0007042924197722529 0.0005801730615362814 0.0018690788881665446 0.012274485933215217 -0.9180037572671932 0.0884603166127019
0.222 0.1692191064254887 -0.614295977218836 -0.0007258633318878603 0.0005877625153601732 -0.024886818278380195 -0.010881525567427629 -0.9208757007034717 0.09943908252878123
0.223 0.16589893320433588 -0.6135649697816017 -0.0007647516402965467 0.0006063958643381528 -0.011252604875124254 0.0007520304770962158 -0.9210441032467488 0.10690030296772858
0.224 0.1647565479980491 -0.6139182930585537 -0.0007740108710657974 0.0006246241035309321 -0.014642103661288224 0.0024093465161064967 -0.9239048775596761 0.1142143638102709
0.225 0.16129112571132032 -0.6122727868318223 -0.0007849683336855486 0.0006198138843350345 0.017456191743796392 0.012086219886350266 -0.921111137353216 0.1227921439007948
0.226 0.15692102848408274 -0.6106470615291306 -0.0008067834384159249 0.0006324136917134509 -0.012909091535886342 0.010210915005712936 -0.9194774573100861 0.1261416841790039
0.227 0.15320319399932142 -0.6117347760905564 -0.0008120226838545155 0.0006343705070865488 0.0012154547505621005 -0.005191184065127667 -0.922651543512581 0.13147865368999
0.228 0.15144192542799562 -0.6102981534257861 -0.0007938222674937913 0.0006503396809144208 -0.00535818960238984 0.012995503378602537 -0.9183810304751597 0.14130983755786666
0.229 0.14801829315358012 -0.6093652348783309 -0.0008506732919824821 0.000714557284555896 0.010080114778817347 -0.009727670966786882 -0.9152502351036053 0.14616104450644787
0.23 0.1456371586716767 -0.6099309029956611 -0.0008682566341170913 0.0007046521779543432 0.005028844756888106 0.008574037077952856 -0.9159979465413058 0.15553465305287648
0.231 0.14262948530010192 -0.6068079537987235 -0.000851220911298345 0.0007027584811692194 -0.0015318238593212308 -0.00035246908547032255 -0.9105394112363772 0.16100744763863212
0.232 0.1382338916202904 -0.6077872169687131 -0.0008415206829467155 0.0007475350520710297 0.0014567465787659135 0.004951469090924986 -0.9120572669384104 0.17113980332283016
0.233 0.13786679793284723 -0.6053221029994917 -0.0008751886546071713 0.000762335871842915 -0.011880251485232238 -0.00441622231329599 -0.9117411182691973 0.1735213956935721
0.234 0.13294626067295406 -0.6053910744748776 -0.0008863367541755348 0.0007736456410408785 0.010091637719751594 0.007560737650058135 -0.9092826305741751 0.18187597453325827
0.235 0.13165934850426037 -0.6034350583420882 -0.0009032256475278999 0.0008269434321851615 -0.0077802953759459085 0.012114507604305087 -0.9003049963101318 0.1940370383461912
0.236 0.12730699596531037 -0.6030116606105445 -0.0009300849641430739 0.0008349513363628896 0.010381672550426041 0.009245419798054972 -0.9074615076367372 0.20040358034236208
0.237 0.12583792260027352 -0.600196551337356 -0.0009268138498087935 0.0008253391701117074 -0.0018316156646556588 -0.015730591007021545 -0.9007995773268405 0.19740768418834448
0.238 0.1227338013360893 -0.6006546909091811 -0.0009094395574719682 0.0008741231568454644 0.004927529722940754 -0.011538586874418765 -0.8985712371206567 0.2092649701075493
0.239 0.12144233132614944 -0.6024909875805728 -0.0009354275031827759 0.0008656321965957843 0.0073121443260905 -0.01874175321764287 -0.8946332289736633 0.21695592778426714
0.24 0.11718056902495677 -0.5984031557910039 -0.0009401710359360884 0.0008870566689031509 -0.005224911426861526 -0.002686965635613256 -0.894636779946475 0.22519411529594968
0.241 0.11241236734927226 -0.597804264608554 -0.000948215680082391 0.0009149549063963466 0.0011304771318893458 -0.001223131488111898 -0.8883992226663903 0.2276119922404422
0.242 0.11009991065856603 -0.6001625153374992 -0.0009607369882960921 0.0009548728295800046 -0.016052925607513178 -0.004508043508810875 -0.8853250678057746 0.2412786151778349
0.243 0.10820363751387935 -0.5929356517558326 -0.0009665199355059479 0.0009503188201729881 -0.00025141937968689825 0.006723326072997477 -0.8850971345050089 0.24440228925843877
