!Created with skrf (http://scikit-rf.org).
# GHz S RI R 50.0 
!freq ReS11 ImS11 ReS21 ImS21 ReS12 ImS12 ReS22 ImS22
0.13 0.5183904097842992 -0.5927228728745638 -0.00021892843635149074 -1.3587354369605978e-05 -0.016827002250388405 0.012241348218847753 -0.8693651495618064 -0.4559856337654802
0.131 0.520380981812439 -0.5946241945539434 -0.0002202632075421823 -2.62953394840344e-06 0.03699615444908589 0.027186641272391912 -0.8703054130548611 -0.44335483526551717
0.132 0.5159256328721908 -0.5905033458891236 -0.00021891755253924331 -1.3104656361477617e-05 0.02482575601562018 0.009316967622847358 -0.8780293835411276 -0.4431906318274724
0.133 0.5106081218419635 -0.5972019013510572 -0.00020548306681581296 -3.922636836623003e-07 0.03932822212827327 -0.030788382749945876 -0.8838844052404479 -0.4287099205481151
0.134 0.5033929036454156 -0.600072598455608 -0.00023998376857445135 -1.1216848634475354e-05 -0.025754670403813264 0.021451082394570685 -0.8831081896226796 -0.42411781618930966
0.135 0.4966027393491206 -0.599217421792292 -0.00021866215097601704 -1.6966035151987045e-06 0.03141397887902862 -0.030560728779833558 -0.8881087097951883 -0.41861918428402406
0.136 0.49875962849592403 -0.6033831563947851 -0.00020905550992894337 6.7518643413354105e-06 0.02348090226884477 -0.022937674380183223 -0.8905156097981995 -0.4097644362419605
0.137 0.4911422467250459 -0.6024096225294125 -0.00021587643387396217 -1.3377310139350573e-05 0.005839159320784722 -0.056257969204277954 -0.8884909922900929 -0.3949615964282475
0.138 0.48714795971601593 -0.6026218383788604 -0.00022843479476857643 -1.1400830102558066e-05 0.027519602948554652 -0.014274809571641253 -0.895450775708754 -0.38776498797054765
0.139 0.48416562029505605 -0.6035722885406248 -0.0002196493332368147 2.8757256842708674e-06 -0.025466312966903455 -0.08350803191841132 -0.8944659063740483 -0.38458195527141315
0.14 0.4807140125003645 -0.6064007194457476 -0.00023010298576120285 1.8166177839625928e-05 -0.030950769759262902 -0.04245397632327909 -0.8981593316684793 -0.37643946615528673
0.141 0.4710819992379463 -0.6093787424132545 -0.0002406536148839027 1.3090036097164371e-05 0.011489624322997983 -0.047368494474206636 -0.8943879057833516 -0.370434043646436
0.142 0.4703583411097432 -0.6102331145273101 -0.0002606867632497821 1.9552291604965447e-05 -0.007542900619083683 0.0031283495792260654 -0.9066684069589105 -0.36279121641142026
0.143 0.4649118225484596 -0.6088125641955103 -0.00026422095173717465 5.5804601036787055e-06 -0.007039924278779034 -0.00733396712813861 -0.9102923840492099 -0.34945327715917845
0.144 0.46129725922456677 -0.6117303508733617 -0.000270722477542241 2.728936200523122e-05 0.0007515301061923888 0.021211882075489432 -0.9113880277535306 -0.34878253466351367
0.145 0.4573198776815034 -0.6153780408188951 -0.0002694258682609765 4.3298782326724254e-05 0.025937297413913984 -0.029529975433709697 -0.9147320065148558 -0.33461601550374587
0.146 0.45317852413372484 -0.6123198604537035 -0.00027359344104080927 7.2434354963347355e-06 -0.04158763620525037 0.011995877140461561 -0.9125709770242588 -0.3336540457908406
0.147 0.4485389251690682 -0.6138205063848639 -0.0002749095468540658 2.3722659851214583e-05 0.02346423789672559 0.01350476343666758 -0.9152210661698343 -0.3249580588545742
0.148 0.4438824049763081 -0.6146579285312954 -0.0002924006958666112 5.028521162365064e-05 -0.017647839317381696 -0.06260418912718428 -0.9158212529971113 -0.3142688277976561
0.149 0.43935579630759986 -0.6149489085674322 -0.00029257549382780254 4.194543393374671e-06 -0.04261259921383907 0.011128922048061863 -0.9216778052746698 -0.3070361761714297
0.15 0.4367885478660413 -0.6158112363283031 -0.0002945046646075839 6.854498506317475e-05 -0.004371726143908969 0.012757193295869024 -0.9256740474883751 -0.29783510732538016
0.151 0.4324858016245157 -0.6157574179532317 -0.0002982399148008844 3.282387562089665e-05 -0.021062530700480194 -0.03261205041360247 -0.9262521769554947 -0.2977773708933082
0.152 0.4240912319123091 -0.6209042964482988 -0.00030708880066143533 4.0841953264750764e-05 -0.012796601860524224 -0.036358895949954284 -0.9287068003656427 -0.2864299692112547
0.153 0.4261028653882456 -0.6188532282045167 -0.00031025201262964804 4.6440623056623976e-05 0.011027801077911967 -0.009586368312656662 -0.9356515523991547 -0.27410585457885356
0.154 0.4176751783107081 -0.6199824841380958 -0.00031290333081549653 4.3806277433821996e-05 0.005911898705720701 -0.025031579786279557 -0.933674033946343 -0.26884832427472716
0.155 0.4129782068414126 -0.6192989890884887 -0.00032409891614561135 4.883597073466013e-05 0.004228441604523768 0.018529318958369328 -0.9346915716741684 -0.26840250040525965
0.156 0.40696072119531584 -0.6253068948939402 -0.00033714294015100096 8.00392710959067e-05 -0.046650088133781055 0.005653130994270635 -0.9354886896549637 -0.25378498261069055
0.157 0.40531268457014236 -0.6224476398082162 -0.0003282451074442196 0.00010062357643073401 -0.02069837100198542 0.040804110412793235 -0.9354740413137389 -0.2544550429036381
0.158 0.398780531578999 -0.6214737145523734 -0.00031929357405682324 6.248874152896305e-05 0.008057226915503606 -0.001260265880111932 -0.9363054863330074 -0.23953018717556143
0.159 0.3947064155306855 -0.6260166412776268 -0.00031534736258604994 6.369153555399838e-05 -0.0030176691331213696 -0.02176256724837662 -0.9380777538941636 -0.23758187983934412
0.16 0.39584261350910527 -0.6255797470423659 -0.00036073078327550736 6.589527855668943e-05 0.0011194548289428015 0.009671472062802155 -0.9369893637406507 -0.22506629180389673
0.161 0.390119902766974 -0.6227459773550857 -0.00032415722326925453 0.00011027931104513628 0.027498011572121277 0.02522943891829802 -0.9424416232614374 -0.21303008885458688
0.162 0.38756397921471697 -0.6268345775476202 -0.0003468757143623819 8.28595786743965e-05 -0.003623498590891112 -0.028162529831166766 -0.9408308436710567 -0.20815126179170718
0.163 0.38257021767854027 -0.6199518809597052 -0.00036833164167745467 9.014679599862327e-05 -0.004085344507338553 -0.00517340406878428 -0.9441837278846092 -0.21023584495494313
0.164 0.37703848458949274 -0.6234914373399938 -0.00037418048340314645 0.00011332259092296998 0.00804207679796826 0.06097552154325591 -0.9441699605871408 -0.1916527120544264
0.165 0.3786306212682103 -0.6256021397780954 -0.0003855882651054352 0.00011230205679131438 0.023761226672707022 0.019333121221398398 -0.943676061508611 -0.19131803107919243
0.166 0.36854560553165583 -0.630023892809013 -0.00037538357928372827 0.000137979143716344 0.022050889420931332 -0.013575473921743682 -0.9441112799673929 -0.17781869693648025
0.167 0.3674223494868767 -0.6302737589369666 -0.00037759560548049305 0.00011511230479908128 -0.009214058850432834 0.0028249387232074557 -0.9424829800541904 -0.18020113206221156
0.168 0.3572571635318488 -0.6359115922620987 -0.0004105447458576066 0.00014924202656591134 0.01719193761139978 0.025736482325040288 -0.9416193848625266 -0.16473389045380252
0.169 0.3573260106945955 -0.6262518341480546 -0.00040380984590072537 0.000145606562504129 -0.008288707760438977 -0.0076087491994388246 -0.9436548436418113 -0.15880631132425818
0.17 0.34986827439757945 -0.6308811860472555 -0.00041611863664483645 0.0001769585275179057 -0.0045560450783292015 -0.0005860876023553855 -0.9425206483032552 -0.15265207224272845
0.171 0.3459540141042048 -0.6323845413296888 -0.0004315032109672894 0.00015573554895213608 0.011966397945426383 -0.0026977868951265365 -0.9365555838462307 -0.14776235226485207
0.172 0.3435843613670348 -0.626260749508952 -0.00038465455665696933 0.00018927742229295734 -0.0025701622609752956 0.014596888743404824 -0.9381071671449633 -0.13315360670420862
0.173 0.34173141646541466 -0.6316142902563172 -0.0004122063410597504 0.0001485417768943126 -0.01153555589343935 0.011401994042845167 -0.9301198138646221 -0.1361695414842353
0.174 0.3311502242805995 -0.6305297980376188 -0.00042673438737733123 0.00019699703947790803 -0.0035037305573397894 -0.011189925385162329 -0.9319697181233173 -0.12325344698186377
0.175 0.32988239397336216 -0.6288662084119642 -0.0003649013585329379 0.00018545996485285575 0.016048822451913157 0.01149667130723564 -0.9262450556997233 -0.12133348870447663
0.176 0.32558710925707773 -0.6281634279643772 -0.0004008668520544103 0.00019396856855605704 0.020431583022770664 0.014950768759144263 -0.9307667886863444 -0.11550937629476071
0.177 0.32484335311633905 -0.6306068996309763 -0.00037638588237761213 0.0002122000805451606 -0.003666601101380283 0.03138682580895244 -0.9263540058735412 -0.12094500557312084
0.178 0.32369705769950713 -0.6257694825716839 -0.0003853554990212406 0.00020975583495233194 0.0062014776734098265 0.00855058416772451 -0.9275018245971681 -0.11274393475094938
0.179 0.3168652198701016 -0.6305286238559437 -0.00039794737480159043 0.00022300595080832755 0.0062246441799772186 -0.019633509244452056 -0.9311475778177085 -0.11211448662200547
0.18 0.3119210124163322 -0.62933616754029 -0.00037724785558725506 0.00022344080739212014 -0.009796057006317313 -0.001180956012449003 -0.9318221120427301 -0.10019235363389838
0.181 0.3096234372210518 -0.6300128120656033 -0.00036582245156736924 0.00019329984648169175 -0.0008097599844630061 -0.00033407225947651426 -0.934989031994979 -0.09786692357688322
0.182 0.30832187267864397 -0.6320940424759582 -0.00041159973815383766 0.00019230824550177072 0.0037501535349833775 0.005726002195558716 -0.9377613131483833 -0.09392660518548158
0.183 0.29899249919305715 -0.6328849820565423 -0.00041163683424338255 0.0001944024502992357 0.006470427865126261 -0.002369029050140148 -0.9318170533398482 -0.08800524420201512
0.184 0.29480791700931164 -0.6295398892926659 -0.00042399405699873464 0.00018820896131147344 0.012573989846387894 0.00018292336604144367 -0.9465369132923243 -0.07419783192275553
0.185 0.29302925284586895 -0.6321828982644186 -0.0004382385064275068 0.00020137051953640904 -0.0013916058838189993 0.0010930132222960497 -0.9409185015442963 -0.06811845962784978
0.186 0.29137530197652 -0.6307482913363033 -0.00041901583158236955 0.0002523565228198309 0.0010384579915378009 -0.02189613168502891 -0.9472007831868141 -0.06808310056668244
0.187 0.2846950378715546 -0.6302887425952742 -0.00044224183087354397 0.0002323991375087487 -0.02748523500153564 0.027694976417880875 -0.9448542185788787 -0.05119077167880009
0.188 0.2827338397741855 -0.6297136710179806 -0.0004322306439041112 0.00023749695037336333 -0.0157617225208257 -0.01299885398574704 -0.942906892582456 -0.0490306308317238
0.189 0.2790519253267213 -0.6296437772349571 -0.0004500739792054745 0.00027162026923711804 0.009066553917164313 -0.010168560563328419 -0.9411824413982677 -0.03663546774416187
0.19 0.2744672137306929 -0.6302163074074014 -0.0005052442983782596 0.0002620969670567007 0.03659383372884987 0.009975593691578286 -0.9430793731473887 -0.03168697884109975
0.191 0.2727998232396865 -0.6293430601541662 -0.00044373265915711784 0.0002645105760950607 -0.007858727680400693 -0.0096668340048574 -0.9443197916029998 -0.012196346491532879
0.192 0.26760123856672396 -0.6297708499468266 -0.00047576066630648415 0.0002913609363011516 0.003032771835303877 0.009349477907356499 -0.9383375794021382 -0.019083282270579746
0.193 0.2650585742605021 -0.6301750410630155 -0.0004648827861453534 0.00029894898461764344 0.01924726476339808 -0.007741910346296763 -0.9369393425657754 -0.00666704428422572
0.194 0.26101056351738494 -0.6271255676984505 -0.0005125419903200696 0.0002955195431367949 -0.0031840460654157707 -0.018126066877959365 -0.9339131186979837 -0.00142110381458613
0.195 0.25770973826309274 -0.6292716576027635 -0.0005192696564163661 0.00031750286522446027 0.013842006182586127 -0.0031574534603182026 -0.9319743198924443 0.011632030128096962
0.196 0.25714759063701964 -0.6273873127736218 -0.000497500331371541 0.00032058997742981897 0.015470535000162475 -0.0013185409355998875 -0.9314193848725099 0.01741499658350442
0.197 0.2494800550147645 -0.6306765410860337 -0.000505169635592596 0.0003484273417874915 0.00024524398197299556 -0.008041285433901493 -0.9220000960620627 0.020667727416628433
0.198 0.2503293958095658 -0.6259372390056719 -0.00048783324184414374 0.00037087118878514 -0.01999609308384583 -0.007668995989933651 -0.9178149275274023 0.024500148683202914
0.199 0.24402076932654737 -0.6241623706637932 -0.0004909810812429334 0.0003995316002670032 -0.008884511981375994 0.020342261572173136 -0.9141735632946608 0.03318332874669165
0.2 0.23866205009213737 -0.6253209380394869 -0.0005081364179707863 0.00040001471460055795 0.008021747048189892 0.022249019794925145 -0.9094168705648383 0.03978515877248925
0.201 0.2366443784913706 -0.6243752003174702 -0.0004789160363693223 0.0004379847388656376 0.007379028178484183 -0.0039111565046332985 -0.8979061227709322 0.03850972676124243
0.202 0.2374739070801526 -0.6246613779490705 -0.0004432100802482308 0.00044273235247999624 -0.016889636491994105 0.012333420437419886 -0.8920739568959292 0.04843807472397165
0.203 0.22889894844663028 -0.6226535236637798 -0.0004569244748694632 0.0004630910629180207 -0.012835221368277267 -0.01821991557444463 -0.880613671075817 0.049458144185394945
0.204 0.22903647056971843 -0.6233341105048871 -0.0004466903181177496 0.0004776573910914849 0.0009050546100640011 0.0017877340075337918 -0.8822259968151225 0.04612880730316423
0.205 0.22462776333732185 -0.622435772863826 -0.00043043318114510096 0.000490432036023158 -0.0006377160248915751 0.0015857664108926172 -0.8816747326935915 0.042648660354797106
0.206 0.22007850071247215 -0.6223064590398851 -0.0004114746198948045 0.0004915906436644728 0.0047204277822112395 0.008965153504431507 -0.87169658674024 0.036692949673772846
0.207 0.2162119768086867 -0.6265051733088074 -0.0004019348124479143 0.00046665442070296644 -0.008875021814156111 -0.018008875827459272 -0.8720605882514783 0.04008296456560258
0.208 0.21074338379501442 -0.62139797960581 -0.0003627322054071443 0.000458115929505568 -0.021699596385697597 0.016518463211631217 -0.8753966584287066 0.03175757365533216
0.209 0.2135751263983511 -0.6254339657886737 -0.000316617512974821 0.0004509101412607201 0.002094988351907556 0.006556413641168997 -0.8756198822298621 0.029247746797609057
0.21 0.20743560763152571 -0.6207402775660644 -0.00031950255570665207 0.0004299405662502868 0.007987489509471491 0.015008256290287387 -0.8801678152962774 0.03211913902993788
0.211 0.20570926861673125 -0.6273571112917465 -0.0003503620743258767 0.00043526038754062305 -0.003649818952737197 0.007670234784341209 -0.8880150833646603 0.03640596564446567
0.212 0.19969093336925395 -0.6198634086872739 -0.0003265224797777601 0.00039448276833555304 -0.013748112228099772 -0.008825207477781755 -0.8922257098200085 0.03323527784189259
0.213 0.19862309504402512 -0.6254384071991353 -0.0003204828258894585 0.000376291052997632 0.008056727721985955 -0.009736065524616002 -0.8984738220980565 0.0380050365171861
0.214 0.19170647341627342 -0.6199722783250488 -0.00034294133502424 0.00034873147299450545 0.017454088648640193 -0.004335622234914096 -0.8993657608542016 0.03854614150065439
0.215 0.1926980664790726 -0.618730696684176 -0.00037115660336155466 0.0003717500784112411 0.004938776018013272 0.007357447282348581 -0.9040501527380289 0.04631147351784038
0.216 0.18798291006285406 -0.6167009942457629 -0.00035285951998772347 0.0003553475991259993 -0.007967555764559448 -0.014314538246696118 -0.9099868532717496 0.05633855811990815
0.217 0.18366876094161283 -0.615651497778747 -0.00038748023747914133 0.0003440991883898017 -0.004981951793779219 0.003424330086137282 -0.9125913682499162 0.06345145191883653
0.218 0.1822573612848019 -0.6182324424917204 -0.0003929848225064402 0.000370548175155251 -0.00926671221114281 0.02297643696630122 -0.9163171072003847 0.07043062064493563
0.219 0.1778594162994046 -0.6199483150811071 -0.0003904578543762769 0.0003649774590309562 -0.005071106809890447 0.009293707747220036 -0.9186285351392905 0.08228925480264823
0.22 0.17680848757866807 -0.6161605463413259 -0.00044155076307912937 0.0003832080837802751 0.011795280499889881 -0.012791969592126536 -0.9200353020075657 0.07967554970262246
0.221 0.17235162172364776 -0.6136186316884593 -0.0004600496616453434 0.00035779667925587427 0.007916910057039029 0.0011841257439524834 -0.9157446659701363 0.09175961366063769
0.222 0.16774315258441944 -0.6147316313014848 -0.0004264935136364845 0.0003915318632763188 -0.024227586780150794 0.0180215394522267 -0.9217969534500776 0.09782174622156437
0.223 0.16664489180557548 -0.6149013043387807 -0.0004946611582228826 0.0003829859611851713 -0.01523282778575244 0.0003096189931520375 -0.9291343706461204 0.10520373953884185
0.224 0.1613741593612438 -0.6110914584933583 -0.0005072131630232023 0.00037394380726688936 -0.013998496624920493 0.02202927153226491 -0.9215566086042942 0.1150756251403421
0.225 0.16298950964776157 -0.6117126646727732 -0.0004954792068554505 0.0004117305799907769 -0.021152459166834676 0.001334342652983597 -0.9234000054876601 0.12110341581246056
0.226 0.15787947737158592 -0.6103059387400118 -0.000525068677485905 0.0004140159854698825 0.0006508724612002088 -0.003395207625437039 -0.924742029794545 0.1262998943117999
0.227 0.15025292580835595 -0.610493722117537 -0.0005382677122927802 0.0004335394878927602 0.0073114398734484415 -0.005357313763107641 -0.9208602447807889 0.13569582446258463
0.228 0.1510900845860706 -0.6099532300265152 -0.0005098583971803441 0.0004196474197086713 -0.001512674386714748 -0.0017718344275156387 -0.9222168008805466 0.1426889164566035
0.229 0.14819392588217717 -0.6103986916699486 -0.00053972138167736 0.0004344370290986293 -0.0006611256773522683 0.0047532521453062 -0.916423463706795 0.15037738850606203
0.23 0.1466435604157363 -0.6094482703990072 -0.000540114044906728 0.000448517249777406 0.01664585771338595 9.088528422211239e-05 -0.9169564610925862 0.1592274107712936
0.231 0.14324498717978185 -0.606860120544076 -0.0005710842419666148 0.00043542430972454463 -0.013066161013625118 0.006682968816989418 -0.9191043969146329 0.1638040082794746
0.232 0.13839674597360596 -0.6077491479209998 -0.000552197718603655 0.00046733324224178426 0.004703248099418002 0.0029907287144562778 -0.9135578879783132 0.1687384261584733
0.233 0.13752597734324623 -0.6053268257764279 -0.0005959651684243595 0.0004865651814448945 -0.005748614565136327 -0.006681407607985657 -0.9065281393935932 0.17185085625349056
0.234 0.13312214637436232 -0.6058027612649954 -0.0005759438507413666 0.0005053317100792363 -0.008754851580953458 -0.016044214148144883 -0.9155965528242506 0.18158310799466051
0.235 0.13153463770996326 -0.6036363373460103 -0.0005945245985339489 0.0004906562462160866 0.0020796509745690736 -0.00415571855338555 -0.9058595202722163 0.19197408416691084
0.236 0.12799716424966145 -0.6026929319179621 -0.0005916903062273928 0.0005371128666441957 0.0026183225111896338 0.002724784528233325 -0.9062680041113479 0.20716897236702062
0.237 0.1257093013552395 -0.6007876391821343 -0.0006096385830612657 0.0005510386991838712 -0.013049203294635383 0.00645447241965712 -0.9089393701066946 0.1988495801565175
0.238 0.12202857180672022 -0.6017259114783269 -0.0006033907971242683 0.0005382906871092623 -0.0012239010468387752 0.012698646947499108 -0.8969695546278035 0.21284450646869052
0.239 0.12004733637264049 -0.6030583797192157 -0.0006369581220869626 0.0005621889081288419 0.006289524415545361 0.0042431664003718455 -0.8955205199432615 0.21770749706881506
0.24 0.11899149199437303 -0.5970670086189082 -0.0006274516143621094 0.0005900208996281079 0.006794427272901878 -0.009608259908099869 -0.9005193099186987 0.22967964967212826
0.241 0.11242961240901005 -0.5965317604889417 -0.0006456058863367682 0.0006000801786245815 -0.009176062071020868 0.0025114418343250866 -0.88927575318863 0.22348328678905605
0.242 0.11008064686797352 -0.597654598987302 -0.0006240273529689042 0.0006205342890625807 -0.025902589475504244 -0.003964141790281765 -0.8906876600423829 0.24120075731900512
0.243 0.10874450890605246 -0.5937162411878768 -0.0006305435549160674 0.0006387043190394323 7.945065922493265e-08 -1.5256332962485572e-07 -0.8898598270922506 0.24456112839836655
