!Created with skrf (http://scikit-rf.org).
# GHz S RI R 50.0 
!freq ReS11 ImS11 ReS21 ImS21 ReS12 ImS12 ReS22 ImS22
0.13 0.5208832307043746 -0.5941263241463525 -0.000188514872773676 -2.037592665328807e-05 0.02482706159522315 0.018938236514854722 -0.8658102000222481 -0.4495083319366579
0.131 0.5169244252638278 -0.5924260975648382 -0.00021743007127504054 -4.7257951058136337e-05 0.054352957982053536 -0.0409727298964685 -0.8653625755731146 -0.4466639087660915
0.132 0.5160192140985668 -0.5964255917047677 -0.0002097479760213102 -1.571177935493422e-05 0.04048868804977719 -0.015579097215755277 -0.8769544078664852 -0.44398410181582176
0.133 0.5113254395623081 -0.5985313271994261 -0.00023902033110901068 -1.8180673892135147e-05 0.0014359663660565302 0.0007014704587277493 -0.8832388734432922 -0.43188130879427605
0.134 0.5067948184135644 -0.5994538797297013 -0.00021003328789882526 -2.832240998828554e-05 -0.002887988600791938 0.0267441721502603 -0.8803881893557571 -0.4248360292968561
0.135 0.5030939453237798 -0.5977488172863453 -0.00023659334561804024 4.940703984779477e-06 0.028469601425255064 0.030729722299730693 -0.8853043923750921 -0.4202188361898396
0.136 0.4965746417969006 -0.6025412159900357 -0.000240951086481888 -9.600744405453868e-06 0.026276384948876973 -0.0030911880466040938 -0.8857584715504553 -0.4121940221301823
0.137 0.4940683620381418 -0.5980845500066397 -0.0002556181580223415 -2.7993769919734647e-05 0.0018006021180364416 0.0013731608093973638 -0.8896169500370088 -0.39235352132743073
0.138 0.4875067097146474 -0.6017437413283308 -0.0002427468023815271 1.6322209693301497e-06 -0.0046481456257404935 0.05977979954819698 -0.8931091158652688 -0.38726095695680907
0.139 0.48559055183702443 -0.6021952234205974 -0.00022880322120217008 7.434643058349777e-06 -0.009805450331870882 0.01589346602440624 -0.8938460943807607 -0.3868181869533069
0.14 0.476502719861157 -0.607417536949528 -0.00025301897677307804 -5.938600195882502e-06 0.01671175184383643 -0.046513422425092744 -0.8980052330596685 -0.37903634819758425
0.141 0.4718320846915408 -0.6089963605741274 -0.0002628462753076938 9.116927368979378e-06 0.0060198683601067225 0.003893642097037463 -0.8950687724565204 -0.36667932242691226
0.142 0.4694332544645278 -0.6095289976740538 -0.00027376275691621735 2.121684149675861e-06 0.029827576790115662 0.012134656021198528 -0.9100613328550378 -0.36209154138039495
0.143 0.4656463675922209 -0.6102996464911215 -0.00024383024603914463 1.7917578796544673e-05 0.044506533702095626 -0.011577353051092571 -0.9119956572977513 -0.3531127779152145
0.144 0.46189754335656136 -0.6120215598316432 -0.00027436371536327655 1.0554992956349313e-05 0.007383180950949702 0.0538644860206798 -0.9084937796615838 -0.3501435305798392
0.145 0.4570465125433631 -0.6144834880636062 -0.00024931505087012295 1.5604351494067293e-05 0.005230062268741706 -0.007071912861854383 -0.9180317748197422 -0.33341456660838165
0.146 0.452896265034601 -0.6117600981183039 -0.00027010698622943605 2.0109212361643495e-05 0.031236834667439307 0.016018656280197118 -0.9137218132925297 -0.3317778771666152
0.147 0.44939541920977366 -0.613961470991494 -0.00027040583404733 4.587093651075348e-05 -0.007930794685177645 -0.015447647003236626 -0.9145591910584705 -0.32514220059785187
0.148 0.4442989565637573 -0.6148905701241418 -0.00029072532162587175 3.347757507829506e-05 0.009786483960922512 -0.0031216706542976577 -0.9181949373184186 -0.31176372626444276
0.149 0.4381924509184422 -0.6155914446047119 -0.000277921725709712 3.4428958226779516e-05 -0.045196188249582096 -0.0200680643987601 -0.9245319976233974 -0.3087004443681411
0.15 0.4355566011616573 -0.616888591067393 -0.0002892079074212592 3.1394267911454225e-07 -0.02059294104825734 -0.009559365614924702 -0.9260846415381502 -0.2979697781807585
0.151 0.4318824440010327 -0.6147141739214822 -0.00031546448106998116 5.327411428437961e-05 0.030639129837452265 -0.018689659193062712 -0.9271172878046944 -0.29701401269338723
0.152 0.4258173039943146 -0.6216465811313129 -0.0003157353775238396 5.9456565691738435e-05 -0.0036462958015352123 -0.010634746402144016 -0.9229395875612797 -0.28745209557414475
0.153 0.42493575034454434 -0.6171483769965634 -0.00029006780398534767 2.6008259749372706e-05 -0.026694510314022948 -0.0411441530952122 -0.9356361836233069 -0.2774567024218363
0.154 0.41682687412656544 -0.6207135263978861 -0.00031888717570293214 3.207896447844303e-05 0.026602413099422507 -0.001035519318705307 -0.9296315681577149 -0.26951199944324106
0.155 0.41387479654247333 -0.618829397066866 -0.00031822036132762084 7.031876982040756e-05 0.013363058372582157 0.0019470477791151382 -0.9351892543448191 -0.26046554215006995
0.156 0.4100736532057736 -0.621355219445174 -0.00034063090367988805 4.947509479739869e-05 -0.012240638995251985 -9.26746037823386e-05 -0.9395491279476966 -0.25498868794538054
0.157 0.4042951123829638 -0.6234706811190115 -0.0003165340538328972 6.42115826099864e-05 -0.02544685166836685 -0.03522062238507444 -0.9390594502992592 -0.24915740247628665
0.158 0.4001426547820495 -0.6208064683019234 -0.00032869800101777705 9.394608025253365e-05 -0.005789245603539161 -0.01913870477873186 -0.9394748351078485 -0.2414115543319131
0.159 0.39568886476032195 -0.6270126766021644 -0.0003437098705282961 4.65227080196609e-05 -0.005599747614837832 -0.0038019163241351473 -0.9388157344522227 -0.2316674974593692
0.16 0.39194166368339867 -0.6236201012146262 -0.0003427812316196303 9.870443661915614e-05 0.025630806658997262 0.02489259389628764 -0.9440768293524151 -0.22101514609408
0.161 0.38557756214237576 -0.6255444440382003 -0.0003553262234230777 8.342710131915444e-05 -0.010990664548376926 -0.014253096293825481 -0.9468427373701364 -0.21543278731170398
0.162 0.3841920656336137 -0.627809838461124 -0.0003499036543789089 5.967336260936903e-05 -0.025116851140626815 0.007470720182759821 -0.9466142078231105 -0.21360271186790536
0.163 0.3805793973125502 -0.6267889092790188 -0.0003624711697049055 9.933956010922336e-05 0.011707547347486719 0.007137978419820985 -0.9443689408080933 -0.20604779171205861
0.164 0.37409153818235596 -0.6209317796471054 -0.0003687445267106944 0.00010047175477459655 0.011240817210239756 0.010551640507506952 -0.9477564817480736 -0.19745217263015455
0.165 0.37612730717946385 -0.6317273694798715 -0.00036215735364902217 0.00010949256358375322 0.034379309056391145 0.045675643816939934 -0.9457327726681132 -0.19052791721852727
0.166 0.36719443528262435 -0.6264233334347149 -0.0003822857434073772 0.00011396075804539306 -0.018687656355743352 -0.010257938318388355 -0.9408475795404454 -0.17946407336316042
0.167 0.36371023500195643 -0.629991069121083 -0.00039238548183120024 0.00015723234970866574 -0.013107997415101385 0.0217572149696234 -0.9411309694081351 -0.179660443702351
0.168 0.35647736837426386 -0.6338943375591762 -0.0003593783428362001 0.00016037805240212927 -0.0029688738495417017 0.01729514711601466 -0.9408024687886848 -0.1619203037783593
0.169 0.3556995138931873 -0.6245986786249051 -0.0004155311662460092 0.0001470870449567007 -0.006593015172891875 0.0024299524120423694 -0.9399440504762056 -0.1569707673269131
0.17 0.34944950554676313 -0.6270214647096777 -0.00043046765637808646 0.00015456782438496346 -0.008242209772236738 0.009313577074489182 -0.9426292133103797 -0.14880982702357443
0.171 0.3506422064340139 -0.6281681202309441 -0.00041692957013111606 0.00016279396062196316 -0.005528791631937838 0.01607740330313729 -0.9395847505600816 -0.1479898972793405
0.172 0.3467990500855315 -0.6265465684872651 -0.0003788722609065289 0.0001867477474358795 0.030955551057292054 -0.00838366862441691 -0.9355076777365106 -0.13329849363741347
0.173 0.33989903343879974 -0.6332609716582176 -0.0003976117971532482 0.00021182322689164413 0.010796612775256712 -0.017107337804846075 -0.9286355228795597 -0.14039397971221745
0.174 0.33238591475456214 -0.6325731733683371 -0.00040423822165478986 0.00020944050475488164 -0.012037815992170535 -0.024067562581080757 -0.9331062798094787 -0.12262347830006114
0.175 0.32617171409156004 -0.6305381874244592 -0.00041430682393974583 0.0002005776941093847 0.009520301134888233 0.007685381693626739 -0.9261253378388223 -0.1218327078100897
0.176 0.3255115899149539 -0.636944718541471 -0.0003973808565592184 0.00021895171490331002 -0.0014564031440468998 -8.77986726578305e-05 -0.929112243189404 -0.11465766327153028
0.177 0.32443067544289694 -0.6290453088706617 -0.00038905762773576083 0.00020905422568987238 -0.010998514685585593 0.011604434340560986 -0.926211171028541 -0.12325136834777235
0.178 0.32498625125950054 -0.6301432865325218 -0.0003783131008969635 0.00022652661763882906 -0.010362956788031057 0.015425426853848418 -0.9262902083725595 -0.11336746775846876
0.179 0.3184131894612975 -0.6271286697759147 -0.0003677090945492374 0.00021127947078020479 0.0028002017321573716 0.025965097366620622 -0.9305718776396046 -0.11101785573921127
0.18 0.31446203080418594 -0.6303302870658158 -0.0003765844294583509 0.00020176770737890892 0.027778888918052417 -0.004606073998732899 -0.9316125573971258 -0.10068443999822975
0.181 0.30737335187162845 -0.6305259786350084 -0.00039693736946203636 0.00021043830135024485 0.0028225127410256333 0.018350458220325862 -0.938649532476736 -0.09835823218300285
0.182 0.3066763609238471 -0.6319006054205163 -0.00041193373152799146 0.00019607957580524183 -0.004656594793569738 -0.01615531338015222 -0.9383528834084615 -0.09379039601088925
0.183 0.3005861944184675 -0.6292919188934429 -0.00043284890585895886 0.00022736184262800915 0.004290258915047219 -0.009804051245084612 -0.9305334825142473 -0.08674883587222496
0.184 0.29508750297508474 -0.6318554120094457 -0.00041448118570821933 0.00021474649095347544 0.010041737025638984 0.010856264619333969 -0.9470906245935581 -0.07049877357833641
0.185 0.2951215559582922 -0.6295380260353896 -0.00043776248025095317 0.00022846171731353301 -0.013050855109130248 -0.024789394183265447 -0.9417252557730988 -0.06752780194677355
0.186 0.2903797248431221 -0.6307768811368283 -0.000451656239286055 0.00021745353354221645 0.014004156529887499 -0.0018216124747920846 -0.9491842971035134 -0.06840435116102785
0.187 0.28545764914396576 -0.6301405448445395 -0.0004364170056738491 0.00023640966985091216 -0.01821934557361651 0.027313237583969054 -0.9452017282425756 -0.051333925217676775
0.188 0.2834478691602727 -0.6301070137239531 -0.00045536445545408914 0.0002498447972051599 0.013168394512481876 0.002560890957888508 -0.9396254761100233 -0.0560518995623052
0.189 0.28043471157756755 -0.6295751699457164 -0.00047004335674614577 0.0002469189590981547 -0.002213138151235379 0.0026296513130061394 -0.9412359385005371 -0.039806433678978154
0.19 0.27543829773436573 -0.629726728394846 -0.00047545292240288445 0.0002594087889404317 -0.0026541888804954912 0.0018601489310535518 -0.9437460299388086 -0.030688226900405666
0.191 0.272796135706227 -0.6287093106517632 -0.0004935338926803313 0.0002841046355245369 -0.02797842394222368 -0.02133598145017804 -0.9435816127897559 -0.011497809261204956
0.192 0.2677831259842187 -0.6298502519259495 -0.0004757425864101794 0.00027717390881007794 0.011348426669285986 0.015109713344561806 -0.9396299629664184 -0.01657257551975229
0.193 0.2658378476808204 -0.6296875475354139 -0.000500089580778799 0.0002622550803712034 -0.002493346139827651 0.014807497287573697 -0.9345796386420842 -0.0012306739049452052
0.194 0.26129017828378753 -0.6270071682990972 -0.0005115965124767957 0.00031456958009526106 -0.001313707132328573 -0.0037249633499442897 -0.9353672089679391 0.0023522875379962745
0.195 0.2571040412778469 -0.6289100828328126 -0.0004909709614297536 0.0003160154377824549 0.014823281776024988 0.006761918002193028 -0.937239291458035 0.007923396673623566
0.196 0.256497132857617 -0.6264355361337595 -0.0005001701981029521 0.00035087098977974436 0.006338515824221012 0.014690138347120513 -0.9316870421800776 0.012721200686646908
0.197 0.24958019340310517 -0.6284212094247053 -0.0005069320540603814 0.0003809579374894617 0.027739369907329642 0.01284476717653537 -0.9253711788585113 0.023875238603218614
0.198 0.25153365506958264 -0.6262545632506125 -0.000496861176390847 0.0003674824736579517 -0.009290066769036645 -0.004084323321199946 -0.9218320406239885 0.025570348598624237
0.199 0.2427698732633508 -0.6254056574927578 -0.0004940687856994191 0.00039176932203330034 0.023679164671873948 0.006465993477457877 -0.9202236071236005 0.03157814757915098
0.2 0.24038603986634874 -0.6256421962356238 -0.0004799464321965758 0.0004477254350710691 -0.004379314828203331 -0.002718051737222687 -0.9122191979660688 0.037234357343857855
0.201 0.23730882366291095 -0.6252561081538245 -0.000497414734246116 0.0004297634717916701 -0.0021318172809286808 -0.006904244209891466 -0.8999976928506005 0.03950128531935208
0.202 0.2325366379985761 -0.6263965664274019 -0.00046257356718432753 0.0004621195763115007 -0.007822773678557568 0.018354504993846575 -0.8956903935191187 0.0422178866083587
0.203 0.2266100889811681 -0.6248810214418005 -0.00045215594257696015 0.00044785866569736044 -0.001557108548927253 -0.016316845467045676 -0.8800363247767707 0.049919188087334046
0.204 0.2272199401154472 -0.6263028189302456 -0.00042731259655135053 0.00045184041924200625 -0.01109938263945722 0.006937343298245252 -0.8830992194896097 0.046135553114824014
0.205 0.22592572630451654 -0.6250208585436264 -0.0004130916535085179 0.0004892386121772725 -0.025368146620321375 0.003947742819090483 -0.8805081531297472 0.04125728360800577
0.206 0.2209895390981776 -0.6219355870387139 -0.00037166949370220356 0.00046855086613768016 0.00032095068598515157 0.00241451853717982 -0.8718378631602308 0.03754056957996045
0.207 0.2180068382969362 -0.6259293983041255 -0.0003897649363757269 0.00046063486791829514 -0.020562819389192195 0.003524472277588859 -0.8711142719866314 0.03825316722793743
0.208 0.21358581928022552 -0.6227112478182041 -0.0003482431797802397 0.0004699275945349623 0.02064312950590041 0.0017162021305681062 -0.8735646034211038 0.029850508498972184
0.209 0.20609232677497039 -0.6204052533364556 -0.00034880321278599766 0.0004433260796344381 -0.0004646968345271781 -0.04212555713298998 -0.8763650044368902 0.029880028267420592
0.21 0.20917327940977784 -0.619555481183147 -0.00033439156543455293 0.00042383704683391797 -0.013318084127440264 -0.01689854409343572 -0.8788377291789825 0.031687516295360395
0.211 0.20369836597607527 -0.6268892563220138 -0.0003277779314205677 0.0004122236579658426 -0.010149729190615351 -0.0048712615593451275 -0.8891345585583912 0.03739887089821948
0.212 0.20073630236378134 -0.620858174831533 -0.00034595844452692037 0.0003785143209589995 -0.0059463838791888905 0.009057611664980113 -0.8923937640576692 0.0315032281561363
0.213 0.20121897511381245 -0.6284346202136618 -0.00034754062013977376 0.00037277259958953785 -0.007539541105697951 0.007782671704383908 -0.9007147443096754 0.0377014408922359
0.214 0.19164149363372526 -0.619365083040233 -0.0003592647507643031 0.00037289435009925 0.007942604396031522 -0.00240954438568704 -0.8988240642287622 0.0377965166772292
0.215 0.1958172976238524 -0.6212114635021769 -0.0003542164709524299 0.00035090691407169003 -0.012052381088439819 0.026303016548294998 -0.9049148452650045 0.045837893783598316
0.216 0.1831636781302625 -0.6177054379529345 -0.0003815985207948243 0.00035588838544066653 0.002319381374121052 -0.02365466711094083 -0.9130346253050033 0.05455360916427532
0.217 0.18423067482643166 -0.6182305128902131 -0.00038571477529757234 0.0003580600479772779 0.0007066787852150446 0.011913631339772973 -0.9133809440065309 0.06351014503240227
0.218 0.18080484675760422 -0.6198292062342032 -0.0004145282037052804 0.0003595006839100385 0.005545868574222389 0.009897966918278697 -0.91595224110129 0.07215258016421629
0.219 0.17982521105898241 -0.6179594722208548 -0.0004188381125751353 0.0003512963098479731 -0.01138471445779399 0.01109907898724377 -0.917478139922294 0.08039394741323319
0.22 0.1746438448621785 -0.6171797769957653 -0.00043977401497788924 0.0003332030258001728 0.0007989071766955988 -0.007818389216959435 -0.918979412710799 0.07863853031893082
0.221 0.1724837970396128 -0.6163998494550036 -0.0004397330801738738 0.00036367257640413194 -0.00261500300551859 -0.007024828018831663 -0.9194984080046513 0.0914500130649485
0.222 0.16894162967204024 -0.614562947921683 -0.0004610112124215899 0.00035996649683132085 -0.009323795167024291 0.001960714396876465 -0.9201610112215974 0.10114084553603146
0.223 0.1657609309007227 -0.6158434513171867 -0.0004755664633306392 0.0003832556208493076 -0.002324643431517202 -0.009314746802729772 -0.9251287731374727 0.1068620499226354
0.224 0.1636680351358855 -0.6095425460241031 -0.00046924776121707 0.0003981012608847729 -0.0077310191877133 -0.006353044021070177 -0.9252890856836241 0.11921825680996508
0.225 0.16158235168349194 -0.6108039247373624 -0.0005019188829882145 0.00039543741113535623 -0.0070650816672474205 -0.00554203982656546 -0.9203258393253387 0.12210726744838597
0.226 0.15755549935508262 -0.6088141491923321 -0.000491731225599063 0.00042101252752304013 -0.014982883577470983 -0.01916036848142775 -0.9233083639040399 0.1265517427474393
0.227 0.15312333819180332 -0.6134142493898701 -0.0005215471368157635 0.00041862175474238436 -0.006205686291901851 0.004433901095232299 -0.923213396244421 0.13604267050700708
0.228 0.15189658330948572 -0.6090462729744947 -0.0005137648485687702 0.00044008886601707326 0.005316069070008701 -0.009132490104494274 -0.9178979648624308 0.13851679684796137
0.229 0.1486577063888945 -0.6105117594635321 -0.0005324758207891717 0.0004270357092888963 0.02564917209349065 0.00047520197274430825 -0.9158255718705943 0.147162795789582
0.23 0.14432064267690084 -0.6105653247586698 -0.0005377442821411445 0.0004514432915261299 -0.006618149504314236 -0.0018057981381972119 -0.9187791258182332 0.1647948006946241
0.231 0.14242107113149738 -0.6070112068335938 -0.0005332973657101836 0.00046875269172493055 0.022177667356756033 -0.008059068496686885 -0.9136128622903232 0.168813127490341
0.232 0.13806539028075251 -0.6078014999474269 -0.0005817869127569612 0.00047022697610392205 -0.005819890151451429 -0.014294494353579226 -0.9096415086884507 0.1710660109437082
0.233 0.13733827081897168 -0.6056209501696118 -0.0005513011695539206 0.0004738374282050567 0.002328423722085343 0.007148613375284746 -0.9127585315908651 0.17385164818509777
0.234 0.13326960577497082 -0.6053193167112529 -0.0005903184571713513 0.00048210643080205966 -0.017187817935798308 0.00289595602996794 -0.9153602482290287 0.18484781645646295
0.235 0.1312119998445902 -0.6037073802040112 -0.0005931386719709034 0.0005233257796103113 0.011509192149405486 0.0031396380984234917 -0.9106304336432778 0.19288314244905608
0.236 0.128032809755698 -0.6020688886993183 -0.0005886197058200128 0.0005204011642993766 0.002681943166394195 -0.000316624569806045 -0.9086327886188874 0.20599836449844802
0.237 0.12575059894593058 -0.600582758007948 -0.000600936085641707 0.0005588995724199273 -0.009606661151534834 -0.0031347931603850476 -0.9104117905647774 0.19997966210188467
0.238 0.1226108582317692 -0.6017070867456513 -0.000605966640191269 0.0005576474069782719 -0.008429397923825997 0.006410780551573847 -0.8981754455103077 0.20930192806586057
0.239 0.12041462599413026 -0.6015223494722662 -0.0006147076038894283 0.0005638354751622025 -0.0012554189414807058 -0.006051024333246367 -0.8964166088423087 0.2197877216081405
0.24 0.11552184858080437 -0.5957600006647481 -0.0006295632072361423 0.0005781187447440718 0.002184572285174783 0.008657092352117684 -0.8956876631577817 0.22839900097104696
0.241 0.11119705827608545 -0.5979266461296288 -0.0006252132293451762 0.0005778482981139376 0.003947551901793894 -0.008952583730047835 -0.8894549946302638 0.22829033249181202
0.242 0.1092075346333232 -0.5988089441628864 -0.0006074703567851621 0.000616720490468974 -0.015545932699260679 -7.478342064879794e-05 -0.8917398453991171 0.2458019564737326
0.243 0.10819859714835593 -0.5957906220140358 -0.000633547828610256 0.0006129893719293948 -0.010800440680608333 -0.007059135049042219 -0.889316758004448 0.24239684825025667
