!Created with skrf (http://scikit-rf.org).
# GHz S RI R 50.0 
!freq ReS11 ImS11 ReS21 ImS21 ReS12 ImS12 ReS22 ImS22
0.13 0.519951043773942 -0.5949949089226194 -0.0001991412680834539 -2.3814335756701677e-05 0.028116399951602762 -0.014288938365733377 -0.8634269268840403 -0.4542942714378491
0.131 0.5144952892990137 -0.5905136840712043 -0.00022743726154437314 -1.8913471421751425e-05 0.06600608385903302 -0.028432846756722006 -0.8694194117599234 -0.4472105789217552
0.132 0.5142780454557503 -0.592795011549361 -0.0002347765005677323 -2.1458142516562442e-05 -0.018181086534851086 0.009315841069484715 -0.8788945215594784 -0.44259038407882584
0.133 0.5097840356375551 -0.5959111120124659 -0.0002301541509261165 -4.85914435189496e-06 -0.01586836168773452 -0.03535244696875159 -0.8794567045941852 -0.4325099040994948
0.134 0.5065511242319147 -0.5979389540626235 -0.00022607497996814354 7.973332189262237e-06 0.02386626281727041 -0.02755808157252879 -0.8821623111299719 -0.4259162435098963
0.135 0.49984175446422674 -0.6010063650972881 -0.00022716994693299644 -3.065441162693504e-05 -0.06979616514257472 -0.008768735949942033 -0.8862005403686987 -0.42052833549038177
0.136 0.4972581068922057 -0.6004063506621257 -0.00022174520210653227 5.4079069613539e-06 0.030432441343949786 0.00625886960157314 -0.8937371115185494 -0.41068304513252823
0.137 0.49239462130710243 -0.6001489537274475 -0.00024002119210016787 -1.6221721714630214e-05 -0.0026239423316319855 -0.06337696602153697 -0.8876960774343776 -0.3939108952092959
0.138 0.48772935049812544 -0.6023518893015452 -0.00024440716569235153 -6.862878431755273e-06 0.043270195495953574 0.004060931864171724 -0.895619959816929 -0.3849706652908373
0.139 0.48280762881607486 -0.6050362772740965 -0.0002548853165397362 1.531136221777839e-05 0.0007974067316281439 -0.04411396888156437 -0.8922576146616873 -0.3846409891330445
0.14 0.47968375311086886 -0.6057592312279875 -0.0002458503530509904 -3.171171503862599e-05 -0.05913356718639907 0.013104235733540267 -0.8966507325548162 -0.38248282776724774
0.141 0.4717944340841551 -0.6082652108961157 -0.00024376364588014047 1.0126534528494874e-05 0.014788029735118629 0.0019617044459921624 -0.8962617111891562 -0.37065792651581636
0.142 0.47092156093714455 -0.6104612639461219 -0.0002605316283506447 1.767303993992389e-05 0.006718242852167437 -0.013382550776919732 -0.9102375722723837 -0.35961761742287884
0.143 0.4649261429513038 -0.6091729196916204 -0.0002440433330765472 2.2760191086114273e-05 -0.032875358874086866 0.017120959564906724 -0.9107009549015821 -0.35293694988008123
0.144 0.46139591423723064 -0.6122093216889086 -0.00026558335649436957 2.7845697101280087e-05 -0.014204320610276351 -0.007376693793385253 -0.9086615590339999 -0.3533634199667259
0.145 0.45748356440843463 -0.6133398126173328 -0.00027508542392437705 1.2333302652758526e-05 0.017842635404152842 -0.028044879737925438 -0.9154451827870967 -0.333469462362741
0.146 0.45275923953727454 -0.6122655661788226 -0.0002614420017167345 2.9378350522793814e-05 -0.002919788180295051 -0.027203876312270895 -0.9176922019786606 -0.33003089219311954
0.147 0.44882802662082105 -0.6135233582800828 -0.0002675737328747479 3.494620653995214e-05 0.014378431957962044 0.027738056420015356 -0.9142634716175199 -0.32651317133667274
0.148 0.4440483963899531 -0.6145394288392448 -0.0002896462602748988 1.5534756185020536e-05 -0.002361791371237365 -0.0009519892938459523 -0.9193091977556238 -0.3184695435699071
0.149 0.43844438857198587 -0.6150659951775711 -0.0003125318863907514 3.128858148815317e-05 0.006366267743288789 0.046294188298959135 -0.926294163313356 -0.30529508611540196
0.15 0.4356484985738286 -0.6161317331654439 -0.000301478843880725 1.9686969831217712e-05 -0.008643685343778408 -0.03951382071937778 -0.9220134615038912 -0.2962170757318158
0.151 0.4315474651066969 -0.6151196303089087 -0.00027483150443464316 2.4567567830358624e-05 0.022989283856406213 -0.014280012788811223 -0.9282236914696806 -0.29941303900439115
0.152 0.4255132065327978 -0.6201121048332375 -0.00031311539809202716 4.543621306970405e-05 -0.007670799594783317 0.07628863479369155 -0.9275578430172178 -0.28724925467190726
0.153 0.42430635056167704 -0.6176633704575827 -0.0003052879741088838 4.9771907914553544e-05 0.01597624482895811 0.010142279298435228 -0.9363330519183791 -0.2790685552834174
0.154 0.41881082052344104 -0.6202285097163307 -0.0003170155048608663 6.584449433968047e-05 -0.017918858544258977 0.01839717207012028 -0.9287248367426669 -0.2691717873202286
0.155 0.4109034004458552 -0.6170703377398737 -0.0003150435795838527 5.2975566623989455e-05 0.018734754371338976 0.004020339382254225 -0.9320046847788306 -0.2613400792920751
0.156 0.4097892386877787 -0.6242643851131106 -0.00035601296456021133 5.279580303222512e-05 0.03821191081363443 -0.037555245736523836 -0.9303975590769507 -0.2532542016974544
0.157 0.4050219486552177 -0.6225539199844262 -0.00031892420315979487 3.7146858859222924e-05 -0.002889615836101655 0.004091164358961328 -0.9297695057569373 -0.25285021131658275
0.158 0.3988149007334111 -0.625660144616941 -0.00033409571780763393 9.02552725742033e-05 0.014620703858473007 0.0021906460777111215 -0.9406119736241625 -0.23454566322645412
0.159 0.39978584569950637 -0.6255543095460782 -0.0003216107724291977 7.654911857861932e-05 -0.019511716139404937 0.0063090103260143105 -0.943824812048544 -0.23481192825655628
0.16 0.3950476310522297 -0.6229933266480876 -0.00036558428468668006 8.721469989843886e-05 0.01086128117252943 0.009272799580910361 -0.9363341906445031 -0.22135894110595827
0.161 0.3906908496410575 -0.6253882322019283 -0.0003632521351841041 7.865687519587802e-05 0.016243288285634074 -3.943983414828483e-05 -0.9377596231619574 -0.21464636252744562
0.162 0.3848470998615077 -0.6252266089451861 -0.00037441637999220277 7.959447429692445e-05 0.013316547185490335 0.016040541718809708 -0.9396979932487614 -0.2140223364157417
0.163 0.38337344711061777 -0.627803466459226 -0.0003785756131050582 9.895631728150209e-05 0.03317373007534106 -0.024641207749695724 -0.9459781428452668 -0.20450356702739375
0.164 0.37221813222944455 -0.6210925539729035 -0.0003612415654907245 0.0001075899481363332 0.003642749656341772 -0.017385184811134765 -0.9424883527439797 -0.19671672194681963
0.165 0.37379017820867944 -0.62703711007336 -0.0003892475696805678 0.00011856417476623855 -0.0009978105110118366 -0.015819813930062022 -0.9398521693407648 -0.18525653670819558
0.166 0.3721970597340315 -0.627990484929227 -0.0003812636640006617 0.0001320672493062679 0.04367424211005734 -0.016844297681182546 -0.943561286530208 -0.1814867037226332
0.167 0.3637192092630634 -0.6258242387043685 -0.00040869071813860643 0.00013338647288890784 -0.015528750515092974 -0.02846619042674122 -0.9435614598686901 -0.17354603782161696
0.168 0.3596667691953815 -0.6328979373770195 -0.00039995283446526004 0.00014078153700019448 0.014302666790988463 -0.037417789849157966 -0.9387786170278889 -0.16036300834072328
0.169 0.3580737331248699 -0.6236549422446741 -0.0004014459920780415 0.00013516238473880313 0.0348445369653515 0.0004516229201606173 -0.9412758774233752 -0.15453576272743422
0.17 0.3482844054626353 -0.627068224055669 -0.0004266463200157401 0.00016738526745080793 -0.012376110183474377 0.016596521463241296 -0.9400176446670975 -0.15011647775422832
0.171 0.34576671903559614 -0.6298566994082877 -0.00039191635585021845 0.00017059893892824393 -0.016064762577934922 -0.02237973105339379 -0.9401597931862896 -0.14689190220744985
0.172 0.3407145267740957 -0.6307289494567684 -0.0004228800018913782 0.00016286615221785533 0.0063857987830686315 -0.022760473869303296 -0.9321184702594757 -0.1342370499810872
0.173 0.3399777914773425 -0.6326690800864335 -0.00040254076553672164 0.00016303353518276988 0.022084189996608633 0.0027621077950356464 -0.931685607790042 -0.13692919189154878
0.174 0.33421867853304754 -0.6325221255975486 -0.0003925709983824925 0.00021652251531209462 0.004485339976827344 -0.00470223780733088 -0.9306111944422856 -0.12346289943394874
0.175 0.33072891779215347 -0.6275631518590629 -0.0004017822476582478 0.0002053636424451017 0.03521774834267237 -0.015897325903140528 -0.9264610559409536 -0.12136163898749303
0.176 0.3264011615929396 -0.6297455576105099 -0.0004029302995577267 0.00021471387106882393 0.0019373816399589647 -0.005820211033063616 -0.9289408745112617 -0.11515323136560889
0.177 0.3232577896206979 -0.6279446902594418 -0.00038114475620745536 0.00020836905422538058 0.02160413629108056 0.01470598749135013 -0.9262196675923376 -0.12196064804358635
0.178 0.32551018981090146 -0.6287366143758623 -0.00039493949791324245 0.0002161794033592417 0.0063304844892922785 0.015442176467524688 -0.9277819955670286 -0.11444797303996043
0.179 0.3145955471429431 -0.6284596443616103 -0.0003880042848687016 0.00021522396098285613 -0.02060295034864742 0.021029423948024036 -0.9321680767238663 -0.11261907326858184
0.18 0.31432223190891984 -0.6294982174923381 -0.0003850966495451837 0.0002123112637632459 0.014549327457721705 0.011846733984308262 -0.9334853661347113 -0.10113113994668442
0.181 0.30682179655012115 -0.6286656738507272 -0.0003829013756820968 0.00018869839236477124 0.013470430549285397 -0.005180882459473692 -0.9378411490445462 -0.10008272125081355
0.182 0.30623843292968866 -0.6295449418354416 -0.00038340854215730436 0.00021017694919268993 -0.001131127469788692 0.000728094349568676 -0.9390515851349909 -0.09791763571843975
0.183 0.29950994619383586 -0.6275382558807283 -0.0004219891441052122 0.00021564713314058706 0.012619327354520458 -0.0024867895158231946 -0.9305340090720294 -0.0891010761279216
0.184 0.29546521103971796 -0.6307742337538328 -0.0004210196994256399 0.00020069804502932423 0.007077687980948657 -0.006781175677835516 -0.9455355272058904 -0.07367967339028283
0.185 0.2929853960267899 -0.62873680080452 -0.0004338370980210282 0.00020688235303407967 -0.029452764226919077 -0.0200693362415887 -0.9379512839225183 -0.06716441655701742
0.186 0.29065841820843064 -0.631904122641486 -0.0004105078956082092 0.00022673741208270872 -0.013421635965992452 -0.0121010053939149 -0.9498682034052314 -0.06974208098514902
0.187 0.2853242495461678 -0.6293511481722752 -0.00046723723382799664 0.0002056764191368511 0.01360658453129999 -0.004977703913417865 -0.9444736373014585 -0.05711371238188319
0.188 0.2823999100318996 -0.6298310586144142 -0.00046029211506268416 0.00026149679262101066 0.0029636477643514574 0.0029615292732792157 -0.9427809103207807 -0.055003095868170336
0.189 0.27969976641667804 -0.6290331769410472 -0.0004627445307367344 0.00025594275781998265 0.004292111603993124 0.014784168052664767 -0.9411434602705098 -0.03796537643367393
0.19 0.2745966236764304 -0.6295531978354304 -0.0004690311764154011 0.00025186282850500613 -0.030296387531194242 -0.022840957851936614 -0.9452691079302683 -0.031104768613423667
0.191 0.27263899332342184 -0.6286829314436286 -0.00047873751390493734 0.00027455205873613456 -0.017963848061843535 -0.0019468799951915523 -0.9449149791495145 -0.020582474587810415
0.192 0.2679183092370821 -0.6294460109515873 -0.0004763578289992901 0.0002804098542403536 0.0013527870092760509 0.02357671466971856 -0.938340672741927 -0.018705634742799352
0.193 0.2650439221118781 -0.6307439353150549 -0.0004650421846810663 0.00029317507548912825 -0.02027171432932219 0.015787559174631677 -0.9337111383850313 -0.0016137443555424688
0.194 0.2617191000943974 -0.6276587222438859 -0.0004960188190701564 0.0002854225079622161 -0.02521233462666976 0.0024569210323531292 -0.9317150581975071 -0.004844291086212388
0.195 0.2590043177874671 -0.6291602908467504 -0.0004904384721873199 0.000319946146224674 -0.0024819637765629006 0.002512402010182194 -0.931185989855416 0.005099569093765442
0.196 0.2560603757941905 -0.6272296906084738 -0.0005075278105531099 0.000336130184598562 -0.001946298211498467 -0.00894845552164962 -0.9270087337210261 0.014344164506739083
0.197 0.24969200177041853 -0.629559414658656 -0.0005051909324964851 0.0003761740372188218 -0.008331346419747244 0.016058748494501625 -0.9233317763187274 0.015981853981827263
0.198 0.25151205923129843 -0.6263238491485579 -0.0004945719135429558 0.0003702041373928611 -0.0036321659230573572 0.02144830359547524 -0.9211143843344903 0.029387532722003607
0.199 0.24389981215319614 -0.6245967757555263 -0.0004967921736761742 0.0004198903710730268 0.005822036425098488 -0.005076798209769955 -0.9103558134741224 0.0352964562931449
0.2 0.24004663878325022 -0.625097385806883 -0.0004926953811065551 0.0004123680434886025 0.013924534619541427 -0.0011598081662338793 -0.9054879812695351 0.04137884762204133
0.201 0.23679335665061294 -0.6242580743295152 -0.0004671126476571742 0.00040657667176436204 -0.004559346167954841 0.0053201658324054015 -0.9020779836155182 0.04069223313321548
0.202 0.23429128515968903 -0.628643402285458 -0.000464942858763873 0.00043654523274379195 0.00410791479854725 0.0098400733384105 -0.8908995093827172 0.04717100068691003
0.203 0.22877625015752212 -0.6261963031167767 -0.00044641318141355095 0.00047316655151934665 -0.01804671469466483 0.0014133846167792 -0.8829266593720756 0.04897436276277255
0.204 0.22637128487957614 -0.624376763382503 -0.00042841071021860414 0.00045947904228088045 0.0029891634887499207 -0.014089241914226752 -0.8792926278356281 0.04517016684527656
0.205 0.22814494415485972 -0.6224406256269621 -0.00040119652224560796 0.0004968811277751283 -0.0030947714098971926 0.019098225466831084 -0.8786410254669527 0.042625975519289434
0.206 0.2207277353406971 -0.6214934434286883 -0.00038201453500076913 0.0004807645773401093 -0.022816317797325385 -0.018838494846832917 -0.8691462275741615 0.039533833970225675
0.207 0.2145054517289776 -0.6214635419171636 -0.00036342235361460187 0.00046750155552417565 -0.005254627182495602 0.0017652708735761888 -0.8686763085456622 0.036335920348024506
0.208 0.21582527550519043 -0.6263618374288202 -0.0003510185021320733 0.0004697729951327218 -0.02839801630651173 -0.012095970398221917 -0.8755285899489695 0.030709966877603835
0.209 0.20991047520133804 -0.6259421072969398 -0.00034370969556195876 0.0004338087885191807 -0.0013032532825536037 -0.013959812455673666 -0.8761795058970558 0.029997848706864564
0.21 0.20803150666257145 -0.6199106637344644 -0.0003226979098783358 0.0004142144147230626 -0.007858643493360308 0.005879022519131334 -0.878798228868912 0.03156056151393105
0.211 0.20311445335191355 -0.6236199389737569 -0.00032275142433456675 0.00040854425234834155 -0.0006897362141422094 0.00845128143943457 -0.8894522469172202 0.03638414004736596
0.212 0.20230788999561003 -0.622944709214218 -0.0003290258941520055 0.0003819632838969429 0.0062837183124909435 0.005201413862347095 -0.8952692994353707 0.03230758420554689
0.213 0.19941893340438105 -0.6251621515205835 -0.0003553963846446213 0.0003844772890766616 -0.015088869331836709 -0.005787165752717666 -0.8982533748457742 0.03889915361623082
0.214 0.19038845711903765 -0.6203022223899562 -0.00034450107356205075 0.00037088103582725136 -0.0044377104566366895 0.015057280685315666 -0.8987919549722099 0.039518353394920464
0.215 0.19273951011425122 -0.6187166111684587 -0.00036420887265039713 0.0003767174925369838 0.005107319138591168 -0.0021053720106853275 -0.9047617131076606 0.04622698618540454
0.216 0.19239288849711264 -0.6145991004702811 -0.00038446391720656713 0.00038268662350370594 -0.002135192189263482 0.008332174390429284 -0.9111756240788558 0.0537252934006381
0.217 0.18292568511195495 -0.6161622450724454 -0.00038052135871767534 0.0003432464778616131 0.0026562519261839166 0.007039027607532973 -0.9120168372834001 0.06405811508444574
0.218 0.18217545891808257 -0.6215539059703062 -0.00038369997562093776 0.0003446761153285869 -0.009217357665755344 -0.015446992900598781 -0.9144026356222148 0.07420906076776707
0.219 0.17807613366873468 -0.6180251173461904 -0.0004378210344869022 0.00035140770657496936 -0.010970868914255392 -0.006897236832711572 -0.9168328920161497 0.07669832211266825
0.22 0.17780798370398967 -0.615606560126056 -0.0004823976388395817 0.00034308138314515353 -0.0010701803222949353 -0.004361698728555263 -0.9217251628876324 0.08298323635359188
0.221 0.17339453105343672 -0.6146835822126304 -0.00044011401288247473 0.0003869244530001122 -0.0011505580649541782 -0.003483150158584207 -0.9184245207574532 0.08818660104811495
0.222 0.16905396006149476 -0.6152433231941993 -0.00044697954695834024 0.00036195647291907426 -0.005899762177293536 -0.01780981711118764 -0.9188393837230997 0.10003981094087427
0.223 0.16812768953497156 -0.6132797682164574 -0.00047503222279376647 0.000372679813253873 0.00011756907386219362 -0.013873911879193736 -0.9292644092098384 0.10978145312489106
0.224 0.1610551155863582 -0.6115225194575091 -0.00047480139404840416 0.00039642355207849194 -0.004942762384897463 0.007065637478915728 -0.9225228034238515 0.1104501092226362
0.225 0.1614571561090322 -0.6097401542023468 -0.0004781467665454361 0.00042030296194159664 -0.00238086266251532 0.0011138969517923473 -0.9185039437862859 0.12064361691384932
0.226 0.1583318137841105 -0.6106736133831516 -0.0005115835974093799 0.00041266826225874303 -0.0017853862954750198 0.0018762615199792204 -0.920415639433916 0.12537102704060188
0.227 0.153366612305151 -0.6116910519013435 -0.0005065219519147402 0.00041964121365486144 -0.006943164741386902 0.01431998031753451 -0.9196173853518266 0.13253397554628055
0.228 0.15223217656522745 -0.6099873041512834 -0.000511305519770559 0.00043901175219038274 0.007420909842527792 -0.007330308563254902 -0.9166404150927501 0.13619368130135623
0.229 0.1483529175667504 -0.6099989338357775 -0.0005390703353730875 0.00044559050739396224 -0.007295072745623347 -0.006226485762904032 -0.9152194733749229 0.14635023608587763
0.23 0.1463714088190044 -0.6104380541114663 -0.0005704994487154364 0.00045415458731395486 -0.008876204430421298 0.006003405863512451 -0.911845495523314 0.1578605615080677
0.231 0.14308757791748009 -0.6065690115947568 -0.0005472411983673139 0.00045189080613158665 0.0030161092028179737 -0.0142679222107151 -0.9174700720160974 0.15840093596719654
0.232 0.13808210864477308 -0.6071387719867165 -0.000548865912451739 0.00046909699891533826 -0.003785181956987823 -0.015489805382819636 -0.9113512057327761 0.1668800992787882
0.233 0.1377716339382052 -0.6056449536102506 -0.0005656878643992102 0.0004778981415326628 0.008435988296889846 -0.005706920131131386 -0.9114818573904164 0.17833017559006187
0.234 0.13275589163094473 -0.6056836378509552 -0.0005667998370874417 0.0004958286588775894 -0.017423554822368507 -0.013834732927974491 -0.9098141933813801 0.1822483181195192
0.235 0.13148252568095006 -0.6034000619808478 -0.0005719436321482876 0.0004701128434738842 0.004353129759603237 -0.007921516539311637 -0.9062766819166803 0.1882465006415769
0.236 0.12761902699418115 -0.602896453562879 -0.0005916796354626547 0.0005266310003017271 -0.0173093880556254 -0.0111715630363698 -0.9060141596585324 0.20046764739024148
0.237 0.1256290474233737 -0.6008043930847237 -0.000605006787567396 0.0005451398479131247 0.0015030301707746625 0.0031054828988923747 -0.9066787832339581 0.19833967245231995
0.238 0.12264876758860127 -0.6014793927510752 -0.0005885364857644348 0.0005620421939381969 -0.0021843689225731584 -0.011512499182303047 -0.8978228825631145 0.21093589296138582
0.239 0.12157088682895253 -0.6022942293341091 -0.0005998114991391751 0.0005350523857132384 0.004959681658537453 0.00744932379646599 -0.8965102520325634 0.22060734950752162
0.24 0.11721595923422415 -0.5985888352829506 -0.0005752516291051622 0.0005598834937949235 -0.018180457562626942 -0.009958895158449804 -0.8999458403063089 0.2285904250346702
0.241 0.11212701431778864 -0.5971374124120359 -0.0006263564431969764 0.0006018029901546016 -0.0023068459572566204 -0.017166435899174996 -0.887903579805078 0.22866957601324417
0.242 0.11023336055535933 -0.5985375453648292 -0.0006034208594098106 0.0006329139375974218 0.02150305461348619 -0.0008783806119434773 -0.8876080953732722 0.2423325005787986
