!Created with skrf (http://scikit-rf.org).
# GHz S RI R 50.0 
!freq ReS11 ImS11 ReS21 ImS21 ReS12 ImS12 ReS22 ImS22
0.13 0.002516427747374514 -0.0006963858145035952 -0.8213576718625653 0.5450329504359145 -0.8372372496446111 0.5331066332994873 0.006161250751842721 -0.0018895443049803228
0.131 0.003044332809375253 -0.0004888284975480545 -0.8018398668366498 0.5633852947519176 -0.7750098743738763 0.5530781578983089 0.009325301469575654 -0.00299444635556286
0.132 0.0022088935980710506 0.00011841172615103607 -0.7897422367445234 0.582243760574702 -0.8149604260192014 0.4958979622382395 0.006018811324177993 -0.0007023225831659233
0.133 0.0017235985873398586 -0.0007014373058391861 -0.7670064689313497 0.6097203806435874 -0.7578156640706979 0.6138938342606484 0.0056652144221691625 -0.0034608525319034153
0.134 0.0019747236642553363 -0.0003269423832498974 -0.7502358426726038 0.6305750492961136 -0.7314962220818956 0.5840973063511735 0.004865572327724402 -0.0028609816924677367
0.135 0.002779455512717444 -0.001102092519241116 -0.7349828047939785 0.651174580211841 -0.7179267659768136 0.6479402582871464 0.0043997110615370495 -0.0006170296056573864
0.136 0.0017228364417404655 0.0002816227830005401 -0.7129164697357685 0.674593373864958 -0.6671520591282051 0.6852986006626955 0.006955987392206721 -0.000966364982511122
0.137 0.0029680666643807155 -0.0007430735723574254 -0.6916354650784993 0.6920502335703795 -0.6919453197755051 0.6912670875419854 0.006529972161950695 0.0010369656634111421
0.138 0.003074116418840391 -0.00031333331036496995 -0.6752876867296521 0.7127617342748579 -0.6969035062238433 0.6374438441312802 0.003945819241474147 -0.001181493746404397
0.139 0.0022084459248497127 -0.0008424354893957748 -0.6551017547415118 0.7332643474047439 -0.6621381740582495 0.756772085080888 0.005265655121573677 -0.004397853535803014
0.14 0.0033911961785140035 -0.0011437634975435154 -0.6336831959034425 0.752257392933917 -0.6428274147864653 0.6911682806562259 0.005465384934260225 -0.003709789098875314
0.141 0.0023935299694912977 -0.0013156558676158578 -0.6161044744761254 0.7666517149211226 -0.6151036661132472 0.7293478562506724 0.00584128887340584 -0.0027227871284056637
0.142 0.0032391352800144367 -0.0017740775857030544 -0.587817816857434 0.7816899870482873 -0.5951053465821055 0.7256143095785063 0.004346610909329652 -0.0017983157182982254
0.143 0.003017045091933753 -0.0011484479231469568 -0.566838530852698 0.799803963242771 -0.5956538247553845 0.8037278386222432 0.0034604423373469193 -0.00372908462371044
0.144 0.003571555898931301 -0.002240629139775982 -0.5419628725352666 0.8186640441184638 -0.5995157904750833 0.7573240017980837 0.005566481943075521 -0.000997468537398292
0.145 0.003102250637199809 -0.0016419145891643473 -0.5214189293657976 0.8302113894554282 -0.48149290109301623 0.832075366029524 0.0076843802988435005 -0.0026594572901158754
0.146 0.0031944183640771505 -0.0020031288034050632 -0.4977201457976226 0.8478887653405054 -0.5066364243642872 0.7801726616451703 0.0067935427135578175 -0.00587717995519015
0.147 0.003324347065058978 -0.0031537301210638343 -0.47372417565644237 0.8579943345727244 -0.4859831834779108 0.803198945217771 0.006507469602245965 -0.008100611421353328
0.148 0.003956992195334554 -0.002337216490968319 -0.4472823638246252 0.8742648319347274 -0.4325253492555585 0.83775934294011 0.005568537050061591 -0.005273164179780323
0.149 0.0034234434713594076 -0.0017257899085294309 -0.4192531441078868 0.8829480202810522 -0.48082918609862796 0.8594372645574263 0.005341652902002179 -0.0029949761844267338
0.15 0.003596567983070063 -0.0025056587556390843 -0.38797863893488854 0.8973866250779369 -0.3822895752367073 0.8748684222487171 0.0043431842300361585 -0.0012921415385010939
0.151 0.0023920854636138808 -0.0034388835557229856 -0.37079694268791324 0.9071946280586071 -0.4082941765512452 0.8947409385645482 0.004794554046381615 -0.005447515067249273
0.152 0.0027759874130635054 -0.0034409201785042436 -0.3456694955310794 0.9124761246508659 -0.35504693678908306 0.8887502919476173 0.002386124594554453 -0.006240735336779372
0.153 0.0025904447267225076 -0.0026263926688648424 -0.31950017012083926 0.9303501227593742 -0.2879041390498722 0.9378070839459681 0.004954433711560248 -0.004319117333945716
0.154 0.002185311610269725 -0.0036047915004793884 -0.2952427222468145 0.9350184777748769 -0.3188811783386726 0.8912471756990448 0.0030003675856455463 -0.0037666370138747267
0.155 0.0019510607483214926 -0.003986342792244525 -0.2531548656890483 0.9492094464648528 -0.2657062154474601 0.9009785921284088 0.0035693173687190716 -0.007377894847754556
0.156 0.001908551030965029 -0.00399693416332125 -0.23948097130183754 0.9432169549650817 -0.2324046931815312 0.9362338388507232 0.0042384092929545515 -0.006298219302944439
0.157 0.0005328181406533446 -0.0033195931842867547 -0.2129330754162974 0.9595358378943432 -0.25140880327481324 1.0031800524924972 0.001521768812436507 -0.004740858181269276
0.158 0.002391134472664594 -0.003575847667196493 -0.17882119134338334 0.9718586748239509 -0.1263723811795706 0.9657661782717144 0.0022616548021389656 -0.003550693093133124
0.159 0.0025607595535843772 -0.003224066852128525 -0.15549424740643933 0.9664898294803067 -0.1185384046059296 0.9980404025041815 0.005374853481733877 -0.008306119227571162
0.16 0.0009787456374537123 -0.002455695410357613 -0.12779720841105466 0.9736728745492652 -0.1594911844240482 0.9593349403754129 0.001206101407395999 -0.0020333294766683944
0.161 0.0016239718958003628 -0.003963176004293064 -0.09826367119343613 0.9755186849359007 -0.08670628143658257 0.9344958919071292 0.0015750366267827576 -0.006989349291200023
0.162 0.0015967415298351318 -0.003835823352841552 -0.06763884960709662 0.9782805215824527 -0.08957137664802056 1.0032254024208793 0.0036012977366925427 -0.005948031670304239
0.163 0.00017238091756773176 -0.0030748542752990025 -0.04287482373916769 0.9806615026655279 -0.10246075895781934 0.9897087690538485 0.0020985066104935606 -0.006395091514538808
0.164 0.0014569946312111123 -0.0038840553544221526 -0.017668260717433895 0.9770937677046582 0.015834766083340075 0.9951399627770259 0.0005604040910946902 -0.006316922397290811
0.165 0.0006678730486482493 -0.003915801721908033 0.011700341290838873 0.9802148436028991 0.007928621620276376 1.0027713187238558 0.0008770329702585061 -0.005059751711889692
0.166 -0.00022284038186314712 -0.003282504264161931 0.04586754803174407 0.9789459164997639 0.026596382795276385 0.9619623529229963 0.004217524696233283 -0.005220019611734206
0.167 -0.00043071750232045206 -0.0037878806777944768 0.07097663476510187 0.9757318040673877 0.06909469300278358 0.9625913173868469 -0.0007735068197507669 -0.006720026275700383
0.168 -0.0002230617628865272 -0.003258179025491506 0.09506492233147426 0.9743444665949199 0.11771358889272632 0.9679753723586795 -0.0017020572897213297 -0.004337973284682094
0.169 -0.00013762055760469915 -0.0028928925642305848 0.12625132718117754 0.9653921215627187 0.1062003377603786 0.9465213961964525 0.0004770575605840075 -0.004990294864164894
0.17 5.190239460372611e-05 -0.003420455528922981 0.15506236223584677 0.9665429520961138 0.17020848845365646 0.9817412034045319 -0.00015306638353240924 -0.0020448818988498575
0.171 -0.00047586237431295657 -0.0029854102513552764 0.1782736912190876 0.9612232493767479 0.1785183053666055 0.9833470959524723 0.0003579919176128692 -0.006486519151339792
0.172 -0.0004914706884419687 -0.004081750292647279 0.20679504409913377 0.9547362841265561 0.2581546912986144 0.9692940254496909 0.0005291806784199714 -0.0036895820322852013
0.173 -0.000775912589557258 -0.0032413656886589692 0.23358743340653915 0.9521828069520706 0.27061239789018465 0.9331848105610071 0.0008285006279966316 -0.0026393015865051393
0.174 -0.0011070399975085996 -0.0031211680130722873 0.26305749217264124 0.9388343637045145 0.28499056778876314 0.9477496361398372 0.001823445588770032 -0.005054654731392729
0.175 -0.0015079329093434925 -0.0034844585103331366 0.29504953748849594 0.9273815168973103 0.31910714332080486 0.9913635619022122 -0.0013631763613868872 -0.0054841194595695066
0.176 -0.00021053467610585106 -0.0027300057064615006 0.3148701035194557 0.9325092059366115 0.32327395828725564 0.9574539269553839 0.0030901633971813108 -0.005023658543235339
0.177 0.00026466842780763976 -0.002613222053410091 0.33864941501046736 0.9108845820065652 0.31330583141694807 0.9012664936707321 -0.0008084748511953316 -0.003523895403809149
0.178 -0.0013689597093747051 -0.0011845963077085234 0.36332342256032696 0.9131837874950506 0.428896824348274 0.908455845374651 -0.0004165533113910003 -0.006655678733834493
0.179 -0.00040139869287179815 -0.002719800477490539 0.3990144212393329 0.89715753782744 0.39374301314490434 0.8913301189114939 0.001081840355049613 -0.0012237829106044843
0.18 -0.0005584636401918275 -0.0025315395445229504 0.41529831300662434 0.8866714980547755 0.4539105626109845 0.9114156249518197 -0.0009804623063017185 -0.005396020757116406
0.181 5.7159019244633305e-05 -0.002698168578754768 0.4480212461562019 0.8732864488667379 0.43173754315511165 0.8724571605879313 0.00019198065324286279 -0.0044334555127683375
0.182 -0.0011644557358445045 -0.0017142941050173686 0.4640896058842388 0.8552060995170708 0.5065785075879444 0.8724011901112644 -0.001926524260218599 -0.00417914946263873
0.183 -0.0023837397715488987 -0.002425070255604436 0.4975862570693733 0.8442854951780856 0.48873897630289254 0.8820918514323708 0.000732811001045868 -0.0044025814696675375
0.184 -0.0007146778166786123 -0.0022565762304763847 0.5106598414220779 0.8295533981001638 0.539029005501105 0.8374714532564161 -0.003008250442945629 -0.005514135711823509
0.185 -0.00011858857993668506 -0.003302803812439172 0.5383183765708209 0.8105016055084506 0.5246805210251654 0.8251251754303464 0.0003510436856001254 -0.0014724796981334556
0.186 -5.280544040277585e-05 -0.0024068104624062007 0.5640302442284838 0.7958148965732038 0.5982099373612062 0.8170779188498825 0.0016278388618126151 -0.0010986889032862347
0.187 0.0004905211850379657 -0.002670484656653365 0.5850545874233929 0.7829636143144725 0.5837021004424043 0.8196563997072133 0.0006578965346022418 -0.0037253800647121496
0.188 0.0011401218951680168 -0.0027679346505994334 0.6116995246767866 0.7680331763353213 0.5980836375621466 0.7664010304999654 -0.0010803649420970765 -0.005181515115742718
0.189 0.0004101226112421257 -0.0020541618392507593 0.6342450118221501 0.7525183670883058 0.6075526619393206 0.7833053963060537 0.0011799667645363266 -0.0037866122878977126
0.19 0.0003562655323080964 -0.0015272562408142384 0.6542827072184904 0.7248645110627708 0.6718121146312059 0.7229459278507419 0.0006530156338546986 -0.0020735535153700566
0.191 -0.00046428238510052845 -0.0018889925889882526 0.6769758494092074 0.7125376260600614 0.6823733214702679 0.7044519588035549 0.0018159431781629817 -0.002414637539191625
0.192 -0.00015485754628323322 -0.003164275986585378 0.6895537113994217 0.6940182361253121 0.6769399747260981 0.6879439852260484 0.0024528654705328486 0.000980733386390157
0.193 -3.712420336347964e-05 -0.0035697439388876085 0.7165237435978805 0.666111997577999 0.7362958568888306 0.7136131618847507 -0.0002353726767089984 -0.001345744681459202
0.194 -0.0010930557415748453 -0.0016492053658763895 0.7309225295757854 0.6506470827533413 0.7483726217838748 0.6797597226778124 0.003182401506678241 -0.0015865651443260976
0.195 -0.0003281113086465772 -0.0033969365311068305 0.7459000450498318 0.6322242674718951 0.7332230200799114 0.6956540062090636 -0.0015948162296579116 -0.0014677105586164505
0.196 -0.000758271699480894 -0.0036127601144761196 0.7686772469406419 0.6062776094515268 0.768476400515799 0.6388995540105782 0.0008202150788264099 -0.0010648317388591674
0.197 0.00045594278247546423 -0.0032676015328959216 0.7843826705740994 0.5865557375021409 0.8001130156087712 0.6020873833507088 0.0006598057005445616 -0.004455544968858143
0.198 -0.00038365328956807337 -0.0024605837846305616 0.800311275416515 0.5659333458440646 0.8049601550156226 0.5501629895511181 0.00041541093634566556 -0.005023730323980501
0.199 0.0002763266671602214 -0.00268149585032396 0.8180073226057222 0.5390141813164498 0.7936291230949394 0.5593947421839359 0.004468699413568459 -0.0013864169665179866
0.2 0.00026685842811186163 -0.003443136850410161 0.8285956524577325 0.5192241365092363 0.8453274426932724 0.5046339723760543 0.0028261624789738347 -0.0027914541035728544
0.201 0.0003672004634169221 -0.004169433969159337 0.8440242038604704 0.48919991908985355 0.8189983862012933 0.47655386030451574 0.005029901784249681 -0.001691091921198233
0.202 -0.0009838091282887295 -0.004739691284015739 0.857517224318247 0.47663928341004963 0.8644763131995367 0.44913423345488757 0.001891203867542879 -0.0008337557046865047
0.203 -8.736487894186577e-05 -0.0033096357418030396 0.869873391134319 0.4434534967113099 0.8788473081903727 0.47446190810626737 0.004314582518411139 -0.00143208278878363
0.204 -0.0013358462045711017 -0.0032672529028666473 0.8810844698907546 0.41932209072482024 0.8792906601451725 0.41297343327567554 0.0022216526498688056 -0.002526317225664417
0.205 -0.00236786793676535 -0.004572638461191106 0.8939195850401948 0.39208372939017894 0.8590932119964421 0.3878764449368479 0.0035171817365789934 -0.005737103157517042
0.206 -0.001845141379164311 -0.004270676119707805 0.906186281473744 0.3742717106313035 0.8712274121473259 0.3659415663129692 0.003007050746038732 -0.0038487006084036188
0.207 -0.0011290113988965088 -0.003365234381890264 0.9142166875808365 0.3383455501740707 0.9220887640347126 0.34384916494343265 0.0003647062422604671 -0.0031415989235943596
0.208 -0.002415251522111543 -0.0035335464662471813 0.9190069125053446 0.3207411517534878 0.9082698652128928 0.304372878682795 0.005027068447369373 -0.0033902591665929066
0.209 -0.0022413731506943264 -0.00457342506156567 0.9339884583085988 0.2825443837727668 0.9288054302940223 0.27926466014645906 0.0038611250372857595 -0.0026659353825378854
0.21 -0.0017427179729971967 -0.003788130350704625 0.9359652044777937 0.2526679678494926 0.9192586605719777 0.2542337744493258 0.005145078293360671 -0.005813658600923055
0.211 -0.0013401961804103272 -0.004975232164867063 0.9486169470496352 0.23196794860854955 0.9693375287434215 0.2111784106308948 0.005185122504265063 -0.0038713736192804633
0.212 -0.002306412303518142 -0.00389480001856791 0.9597759067686107 0.20273113836249537 0.9470404206911618 0.21588137949337705 0.00477000804410412 -0.00433492972828284
0.213 -0.0021872160131627106 -0.0040466571193938615 0.9598399937675728 0.17720198461033587 0.975036756766034 0.17900279339624314 0.003223480541624372 -0.0035994443459743167
0.214 -0.001646991738756706 -0.003670338454395702 0.9642198832924859 0.154960685656564 0.9751069219553586 0.15325380282941756 0.008913063564506456 -0.0024797395313383382
0.215 -0.0014074262610729031 -0.0043332147210600885 0.9655305183111135 0.1280229929663198 0.9555955503047983 0.13343857123150593 0.006047137094425766 -0.0024465806295722085
0.216 -0.002419836102407453 -0.003640857245887147 0.9726029714999223 0.09305634302110179 0.9616593013676548 0.1093198281407351 0.00491941760663486 -0.002502843771959828
0.217 -0.003184073493901718 -0.004043153111890445 0.9749124111212497 0.05835176995176031 0.9625991413946212 0.08401580491357408 0.006261170986655405 -0.004674841802243899
0.218 -0.003160681687223037 -0.003431672118647509 0.9765348692731156 0.03945195179961096 0.9749215340314827 0.04925637503342884 0.008819491300201703 -0.0034036510907035702
0.219 -0.002206060672257135 -0.003946996463870593 0.9782362540512615 0.012342866653064291 0.9829155621038479 0.020243443883902874 0.007190083056432924 -0.0013931750240700905
0.22 -0.0033675484230448536 -0.004478503324403555 0.9753609466782547 -0.012153427471972211 0.9926108006857461 -0.02266824517236872 0.005784128553222864 -0.005141457410524123
0.221 -0.0037518255914420835 -0.003667432147909757 0.981640883786049 -0.045105752541554696 0.9957990569002386 -0.06362193250236622 0.00800269821977129 -0.005091998708472333
0.222 -0.003826799399482465 -0.002852242636236102 0.9718350774196735 -0.07263258879515688 0.9790726552174875 -0.09817126037481194 0.007112759508154412 -0.0028530215764117892
0.223 -0.003424742031891405 -0.003467883258662555 0.9723983111511094 -0.1014506989435034 0.9541443550645355 -0.09888788316743718 0.005162275637730004 -0.004189501124499915
0.224 -0.003718475971504986 -0.002106451830329078 0.9722810986332746 -0.1282180830807204 0.9771317700212867 -0.10295781504128004 0.006478506301680073 -0.004417865483213041
0.225 -0.0036184442365841223 -0.0018955189376339142 0.9710219934539827 -0.1604161187736454 0.9576388921843534 -0.152740556197848 0.0071543743503358565 -0.0031106660974083676
0.226 -0.0028573737923292407 -0.0018592555949829002 0.9595838562225221 -0.17947786666349153 0.9447376865896578 -0.18222214823026112 0.007158925671098661 -0.005315485914614391
0.227 -0.004610735400986916 -0.0020770703802575055 0.9551187323094334 -0.20658299544577158 0.957713731007825 -0.19611490208444296 0.010424140971510988 -0.005606525690977695
0.228 -0.0035685681677316236 -0.002253737484960186 0.9457864124939055 -0.23839628373585467 0.9461987766556974 -0.21395319895874418 0.006206080687926087 -0.007564388425867001
0.229 -0.004763889835035843 -0.002147662359174583 0.9424673846827899 -0.2599497574888967 0.9833493800381946 -0.2529072777484292 0.005846130238710367 -0.006983491070845446
0.23 -0.004143320914933397 -0.0006312873950814127 0.9294878278213677 -0.29385046147152166 0.9123247085357133 -0.30831241372516893 0.005734052516979454 -0.003999641869762454
0.231 -0.004608543309643668 0.0002018843656408559 0.925260570473012 -0.31705945721649514 0.9069431668690954 -0.3278615710209606 0.0068957672911845996 -0.006740803995904173
0.232 -0.00492603586866309 -0.0003136895222392211 0.916623626065866 -0.33721346213153086 0.9149396096662396 -0.34426077541141287 0.011809085077624262 -0.008267138393185115
0.233 -0.003711658619098381 0.00039262345125446325 0.8972764120647694 -0.36971984767727045 0.9125289729042736 -0.3722873380092524 0.009113467699547665 -0.006398774698530833
0.234 -0.004020424279605862 -0.0003770747313338825 0.8965980832607701 -0.3942552360022763 0.8842946799136482 -0.40562284164284385 0.007612394584397903 -0.005852009841355102
0.235 -0.0036315431989734246 -0.00042254016448953484 0.8758676679926103 -0.42041687339883 0.8899797030411241 -0.4258609875051653 0.010031936139817897 -0.007592846609334927
0.236 -0.003298785031414249 0.0006193825625211996 0.8717476308900096 -0.44533732493944417 0.8539409606857348 -0.44930842521368775 0.0066079230564076216 -0.005359047746060758
0.237 -0.0042959742265358085 0.00020138602756346053 0.8549792478833783 -0.4659598496653853 0.8513865768810932 -0.4965249933865806 0.008666729214868229 -0.006521977630923857
0.238 -0.0035723965223813255 0.00048794682274675626 0.8424839889719508 -0.49490030070077323 0.8273967544737982 -0.485244088554109 0.011097053695818086 -0.005284033140545764
0.239 -0.0045596116493399445 0.0005770906624437415 0.8254442183026285 -0.5195331494723577 0.8253261960589415 -0.531330364840165 0.01035647899191573 -0.006972265977705427
0.24 -0.004047333802491538 0.0002523141168838493 0.8092875288745103 -0.5411458554406118 0.8087093595375677 -0.5429315355401498 0.008370843529655255 -0.006158275812189676
0.241 -0.0035029184361346022 0.0017912743698983466 0.7896849287687515 -0.5603450194213933 0.8153276234936673 -0.5703116314563512 0.010239053316282483 -0.012076173694227713
0.242 -0.0024275822088408385 0.0009486894261091539 0.7739073629923248 -0.5866396800560895 0.768381712111891 -0.578864958679891 0.00625161005102764 -0.009849390495094508
0.243 -0.0022267772493461246 0.0014768423021821553 0.7651059577816434 -0.6038459825734728 0.7592446455613718 -0.6093163100869043 0.005214670149070734 -0.0066280126305383585
0.244 -0.0031162398278970597 0.00013223595107408634 0.7477419183358017 -0.6340941818488686 0.7396722970247182 -0.6237342461753683 0.00655989742192041 -0.009473888605750663
