!Created with skrf (http://scikit-rf.org).
# GHz S RI R 50.0 
!freq ReS11 ImS11 ReS21 ImS21 ReS12 ImS12 ReS22 ImS22
0.13 0.016890607860317843 0.003987397768836565 0.9548613895062424 -0.2201106056487721 0.9852904919840894 -0.15320706710070195 0.014365266034846984 0.0012294481096070799
0.131 0.017485094181073104 0.00304830845302607 0.9607368296438972 -0.21982387394690153 0.9709398360652393 -0.2667386513900286 0.020131291971936215 0.005291850173538079
0.132 0.01440933747385636 0.003884745514746114 0.9572966541099339 -0.2184958239510964 0.891254302022595 -0.1849530229582755 0.011618231022431777 0.0032174946558177955
0.133 0.016026360051323355 0.003767871828695235 0.950731825631668 -0.22460336335305817 0.962760525110985 -0.2035514290589267 0.014911705721518587 0.000818149710808821
0.134 0.014809134511532897 0.004304468725093836 0.9560297917305663 -0.2254584543090787 0.9279489277160468 -0.18835062646553435 0.014869805337570808 0.003834022254594232
0.135 0.015914188386485145 0.0035454995364817225 0.955582540158502 -0.22750709541819908 0.952161425752762 -0.2226190785971178 0.014442221069045053 0.0037980156322453473
0.136 0.015439751950263751 0.003303670859817708 0.951337157839164 -0.23415246508565093 0.9846182119123658 -0.21767552932889692 0.018074180905888988 0.0004088564299007549
0.137 0.01585620977446626 0.004599677788720788 0.9507924995926059 -0.23459096662124695 0.9591494674975934 -0.24885057936445948 0.017475021402054966 0.006969798350696345
0.138 0.01549880490999399 0.0037909768593499065 0.9553348056609338 -0.2373255871341759 0.9802959404435673 -0.21499527557300804 0.01271689109938883 0.006308107670568339
0.139 0.01602593150684065 0.00374476892211378 0.9532340921845199 -0.23438639711193887 0.9473014073763808 -0.3109443583841447 0.01634857635501382 -0.0037250724432092873
0.14 0.016288839957888247 0.005183108127171978 0.9532103545944082 -0.23594812486319175 0.987987105130734 -0.16118090434837465 0.014655025414556043 -0.0008192076583413936
0.141 0.015878707055009798 0.004759295676919181 0.9516886125050127 -0.2360740857884514 0.9036861084595528 -0.21220741809732155 0.01311185595885115 0.0052111571817905055
0.142 0.015284428444945933 0.00339348735033534 0.949315158629955 -0.23829500189848668 0.9469781220690922 -0.21141394988312776 0.01733022365081141 0.0032510008528757383
0.143 0.015150578237093894 0.004410295507875492 0.9500307678942119 -0.23849562993897497 0.9729753397441484 -0.2515878083964228 0.013581312625554467 0.003643938034067531
0.144 0.016520787571899214 0.004940083207218933 0.9488838243602152 -0.24418858140778166 0.9139194363277224 -0.1845425975481304 0.011146409820703257 0.004474818950290106
0.145 0.015429614575135005 0.004246517869431205 0.951293550142383 -0.2420849331967014 0.9331830825327734 -0.26179601001175956 0.011629506923998395 0.006351484673253927
0.146 0.017196354587561045 0.004332981169305915 0.9499157536501496 -0.24575604181581592 0.9075863696475776 -0.20381820829095684 0.015790215346445643 0.0016695472164727726
0.147 0.01832647738792682 0.0030949352842664403 0.9493399639680913 -0.24631774236566725 0.9722631432879087 -0.1413364813225601 0.018827892724832755 0.00518536533172343
0.148 0.01667874730246806 0.004464137453022633 0.9499961342259674 -0.24749733847691816 0.9462229568228904 -0.2971873717557033 0.018467448962625976 -0.001255860065292
0.149 0.016532958232664385 0.0043079926636242155 0.9472709983795081 -0.25411383185391767 0.9558787242944661 -0.22818677312041957 0.014553286316897885 0.005323253719644422
0.15 0.016518997361557965 0.004489911958981847 0.9456555134007621 -0.25719767913036995 0.9411131422657586 -0.26359052476720707 0.012922111263922797 -0.00033604544460194173
0.151 0.016630449515102265 0.003125181601261847 0.9489285997568332 -0.253168800269586 0.9653157607076549 -0.24628734272272995 0.014198896416747549 0.004066684329998282
0.152 0.016080428618042434 0.0030136980629776253 0.9470200841536718 -0.2523549446282354 0.9583451240739346 -0.2021791284736586 0.015137278339372109 -0.0004179181536320053
0.153 0.015781992732959414 0.0034947215271724703 0.9514345576572134 -0.26154765638237487 0.9752709474301843 -0.2573714822089784 0.012404121709705736 0.005779092631478344
0.154 0.017177031060108434 0.0033081014582457824 0.9456463298854266 -0.25610806543650677 0.9797190176280389 -0.22610340793126923 0.014756801758852373 -0.003494760872723698
0.155 0.01762932765376644 0.004493857805321347 0.9453536834627896 -0.26277470114702123 0.8938823276152512 -0.23779289422697295 0.014435692683735154 0.001323010482254095
0.156 0.01718421338432472 0.00411836886678236 0.9427499939514103 -0.2595979450104439 0.9296409844768803 -0.2328251981245468 0.01377477575936537 0.0002166657591698601
0.157 0.017347244825472063 0.0014191230564219713 0.9478742544209424 -0.2643236203644471 1.0063780120636838 -0.25370746762569396 0.013134234615029284 0.0003843936451417858
0.158 0.01673991533394073 0.0046071444297965235 0.951914449521983 -0.267588955780342 0.9155446207217824 -0.3041265979485231 0.012342639789723284 0.0013127434975698138
0.159 0.016611431758968658 0.0023112050412612294 0.9414916616041282 -0.2679191297445443 0.9328346346154172 -0.267882176831277 0.012446275203176189 0.0010928424256729118
0.16 0.016675826137239537 0.0019746059715639855 0.9447846361058779 -0.2646643728141939 0.9585552913406985 -0.2508337362981803 0.01571275999490808 0.001324200709528609
0.161 0.01634569072239876 0.0036274870946860563 0.9458148404812475 -0.26782974340354043 0.9541415067811957 -0.24357245957642612 0.011742577974435047 0.0018803178618035275
0.162 0.015462326723783278 0.002831012141281858 0.9442531346400247 -0.2722007336366559 0.9699630379412183 -0.22473796452316763 0.015253373724668144 0.0014380278354263157
0.163 0.016745183878721603 0.002215021273731357 0.9469230040294855 -0.2696005043799661 1.0121314643558814 -0.2797914777297242 0.015580045161727252 -0.0005446535566973498
0.164 0.015623099664831712 0.004002288692286992 0.937009075202026 -0.27564548233180103 0.9925776576179792 -0.3681760025304332 0.01232384058045635 0.0025696006868227077
0.165 0.01636053488521753 0.002844919354855795 0.9402643147790863 -0.2785225947493764 0.951080921955901 -0.28409088661673476 0.01255899478341265 0.001565034317699487
0.166 0.01697476008454362 0.0022650896947905338 0.9402716548234313 -0.27903745121667545 0.9484068398874408 -0.2863842375618068 0.011545057233232342 0.0012982466988268556
0.167 0.018203059601289564 0.002885837169241653 0.9367497831430043 -0.27847952217757704 0.9316241111690858 -0.2842150342360843 0.016066944881745922 0.0010283235002847514
0.168 0.017780921771148307 0.0012591500864714137 0.9381418513939184 -0.2807287171466306 0.9438754514092511 -0.24902534094957943 0.015449611546767944 -0.00046303305886908887
0.169 0.01793275564765547 0.0018016713298406734 0.9414144903413288 -0.2778476451599609 0.9410182931337469 -0.2557887324518581 0.013033513368114381 -0.0017729807126111651
0.17 0.01731663668566595 0.0024878165531822343 0.942871400257659 -0.28562474302920304 0.9775441116033071 -0.2929449019502263 0.01659780223850605 -0.0017458866292983813
0.171 0.01766272390657425 0.0029589953629101475 0.9354245265541109 -0.2873904566331526 0.9659231434388261 -0.2851427172167189 0.011300282968338363 -0.0020103014370697505
0.172 0.016117729503545095 0.0018631048232121065 0.9311787416646996 -0.28779283488175533 0.9745591690940246 -0.3096976626995977 0.015524403057858556 0.0033423492461276652
0.173 0.017862783125854483 0.002212256865526514 0.9404497732512478 -0.2861435793596933 0.966807978315672 -0.3136252669525364 0.017187364146537654 -0.00155241908047492
0.174 0.017179101843290436 0.0028283505867673113 0.931142296093615 -0.2921803267811472 0.9341593136504367 -0.3133332223502988 0.012807010935201498 0.00014695447107191724
0.175 0.01848181127950531 0.002689212488147155 0.9353404744041915 -0.2944008874311741 0.9645992415837794 -0.291377057821653 0.013247029319626086 0.0032023720907944043
0.176 0.017101567617025262 0.001192506350754125 0.9370538309703904 -0.2971660349027121 0.9593324795393143 -0.26053367746995515 0.013615752319877371 0.0003663752660852317
0.177 0.01636543419821921 0.0014597304724923942 0.933238676307089 -0.29457291762711324 0.9592241941610563 -0.29048598595830716 0.014419681893849156 -0.0029809506722055642
0.178 0.019257801640080972 -0.00010139696351443427 0.9372318777364286 -0.2963289879474535 0.9231637120386146 -0.3399247852880477 0.012818057001694826 -0.0005314134863193425
0.179 0.017004115903630032 0.0015639042112783985 0.9332657039856764 -0.3043675639197456 0.9638232474450088 -0.26262767350756894 0.01777189822138029 -0.0046982780043746866
0.18 0.018247648894528515 0.001902767954444772 0.9308086335467242 -0.3044427491898267 0.9436509571026097 -0.3354578071651815 0.012847126853550245 0.000967557192498807
0.181 0.016239319830168287 0.0018822099335191337 0.9313966583085606 -0.30777117244045066 0.9254590041345946 -0.2830441481188554 0.012075796536266201 0.0005561618325535736
0.182 0.017264812309578426 0.0009327065665054379 0.9295348105592445 -0.302935923166901 0.9323823606651925 -0.33031909489657374 0.0164695394595078 -0.0009547544731140303
0.183 0.01820391996752321 0.0024515370124142113 0.9306660612206769 -0.30844062416901374 0.9755283105731168 -0.29999404809815805 0.016670104138774535 -0.004369749261123194
0.184 0.017904584957673574 0.0005811206017563614 0.9296663583718319 -0.3057558444852611 0.9224615358553946 -0.2930996524490261 0.011818940318945778 -0.00010739708693602794
0.185 0.01596048171940173 0.0023640925478495703 0.9284415146663967 -0.30826944078964025 0.9732945878278705 -0.29908896317883477 0.015620631055885613 0.0003653929873498986
0.186 0.017797709040388843 0.0009575212923448559 0.9266150994041744 -0.30952865741999636 0.9606203747479944 -0.34510330114942694 0.014882501911533048 -0.002559181885886174
0.187 0.016691937718551764 0.001093198467302295 0.9276971825400552 -0.31247844267334585 0.9371895528864046 -0.3075659338229866 0.012703394821879117 -0.0006962664889269338
0.188 0.017050547439060083 0.0012195773981035782 0.9327292693140002 -0.3100925078712039 0.9628913995959782 -0.273048807571249 0.012733799191285996 0.0015495866867869562
0.189 0.01707407144220589 0.0018435917520215755 0.9305915426762392 -0.31955702095148963 0.9730364098295128 -0.2864909033176105 0.01406973955534585 -0.0015928874760822124
0.19 0.018296825492213623 -3.611367370804654e-05 0.9251012726683848 -0.3189578583855712 0.9335040229943196 -0.33896601125262893 0.013188668013433014 0.0015358327968234744
0.191 0.017200876967169015 0.002149713418981846 0.9306380748455074 -0.32218560796118684 0.9005732727525774 -0.3134775663198327 0.01281453028495795 -0.0005488958189959215
0.192 0.016060895984097844 0.001735940460916642 0.9307107484041991 -0.31870921041294126 0.9119921751040896 -0.3154041257752519 0.017565088304073908 -0.0027937846478752206
0.193 0.016915445456025732 0.0013169183097270078 0.9274330749871935 -0.32376488243684504 0.9705116478482523 -0.3064813908429693 0.01605924283699814 0.004343349763331291
0.194 0.017516334124719552 0.0019776029015604523 0.9260019474466297 -0.31955306247125037 0.935346887189226 -0.328044149315012 0.014650445483703768 -0.002088685713820961
0.195 0.017062352939734626 0.0009175393861742437 0.9252795655960903 -0.3268651642987947 0.9669458039126023 -0.27644275504142607 0.012840073613945478 0.002850080176099512
0.196 0.015902594216315877 0.0034966556781085407 0.9269741305426241 -0.3214045590579554 0.9349473073209439 -0.32578509236725606 0.015975146055435905 -0.0009353862438815471
0.197 0.016529223966248695 0.002299390457936689 0.9227925940008593 -0.3210994340552915 0.9249369082355579 -0.31589716150925956 0.01566735904399231 -0.001333152099284115
0.198 0.01705604203741969 0.0019501251616146564 0.9234912848024819 -0.3286864327153994 0.9290879266939515 -0.3381182728114446 0.012331765546026332 -0.001497528416742335
0.199 0.017904499152420577 0.0012182504464763357 0.9222520848471697 -0.3375362409645811 0.9213560499292831 -0.2951760970128566 0.014476495489055708 -9.180982032086854e-05
0.2 0.016979592613007483 0.0013267548856551264 0.9255186472006516 -0.3308398934440465 0.9483442387315384 -0.34608744910279504 0.01545477886226922 -0.0022426748683288594
0.201 0.017116747895894242 0.0010913453354444048 0.9248654264794868 -0.33124739585007473 0.8964817474669228 -0.3312870509988597 0.015522196324896332 -0.0019220454412229825
0.202 0.016919196903198465 0.0018377123450771383 0.9228463953361224 -0.3298471724472919 0.9356156724583128 -0.3182694933766743 0.015029045578239511 0.0006553579855012818
0.203 0.016866322207148985 0.0029303324365894095 0.918520996181013 -0.3343184344130267 0.9186447499305658 -0.3200770788343033 0.016204798468137743 0.00024000851448667066
0.204 0.017933656322523136 0.002921258748922522 0.9157014574687596 -0.33683951672357754 0.9319553106274856 -0.31379749380395144 0.01608126409767891 0.0017195782135204576
0.205 0.015908816852103737 0.0029538250417609608 0.9165357943693033 -0.3404842182741659 0.9016885136741938 -0.32175522105762083 0.013480150479477362 0.0005303702618771129
0.206 0.017097869876545033 0.0026079763094862055 0.9222037436135248 -0.3441174353465152 0.885690724785805 -0.30484433143026474 0.015333600219911194 -0.003418700814780699
0.207 0.017617472387022392 0.0023489369517125814 0.9182356087579904 -0.343873718662672 0.9275841817693352 -0.3228195508860032 0.0146516767431225 0.0011395864821022019
0.208 0.016947609144941988 0.0033217917567778727 0.9145902350533147 -0.34284460250550086 0.8739501232190102 -0.33206432609728503 0.014123747801608242 -0.0017271975642513648
0.209 0.016957035294776976 0.0018592659655452966 0.919682976224169 -0.3468099293059144 0.9376090794955821 -0.3709505503436842 0.017327409257316594 -0.0021634491367033036
0.21 0.01816578570384156 0.002427579978125511 0.9159272733907952 -0.34827307493313747 0.9193132019474287 -0.3343569041130156 0.015524082825755953 -0.0011363889220168705
0.211 0.01648656024404659 0.0012256791996747146 0.912759636189942 -0.35167007656255483 0.9330242145762178 -0.3673009789230314 0.01618676917726212 -0.0022598445251088652
0.212 0.016894451159270192 0.0029624937136531596 0.9169270848660158 -0.34586276676181943 0.9413426526720661 -0.3672744012292024 0.014623220688221084 -0.002294485016848448
0.213 0.017565419954395284 0.002522133515682608 0.911403945373823 -0.3525798866117559 0.9033234478632276 -0.34892481678183934 0.01473941675135124 0.0014715614867667059
0.214 0.01746429623347858 0.0022266104284575984 0.9170371097261639 -0.3495497847282057 0.933618666751215 -0.38206258040871827 0.019079850032358472 -0.0030315161390068015
0.215 0.018211963057451156 0.001692129379112343 0.9148260006959363 -0.35400522908988935 0.9055694847696123 -0.3439927405476003 0.016788232491653607 -0.0004772815132781653
0.216 0.01825816204952657 0.0029196667202886976 0.9099229124654417 -0.35734570099389185 0.8967573208279871 -0.3382675986187734 0.017319114326057188 0.0010058032714970909
0.217 0.01732662319663041 0.002672469364012515 0.9113085876597721 -0.3654076071141069 0.9039943419329076 -0.3391568641752773 0.015058207643537104 -0.0013934723353696543
0.218 0.017607765420823405 0.002495874556758961 0.9127910498043826 -0.3607671767376185 0.9209198816464812 -0.34096218698025765 0.01990543273726339 -0.001133175470110793
0.219 0.01812475849625172 0.0018397988248351582 0.9145589669664189 -0.3630869550813459 0.934441109774335 -0.37281717229436145 0.01972107548015975 0.0003967634080543312
0.22 0.01687805185092704 0.0020611763005765147 0.9097224662388634 -0.3602480483046458 0.9215661234868747 -0.36514809022591593 0.014199191584175644 -0.0019502862850791604
0.221 0.01753586261442556 0.003312033180880918 0.9139084545742038 -0.3697639664015028 0.9088946476776407 -0.38606715620799187 0.016944704874485482 -0.0013833529516515846
0.222 0.017386443018195377 0.002896094150121043 0.907496813231082 -0.36520803992997664 0.9257923315165887 -0.38599604586796704 0.015471281428271972 0.0007529484667914119
0.223 0.017307457354437214 0.002805813807525344 0.9089036802107536 -0.3700468190590766 0.8856238110096029 -0.3997115298196678 0.013741371779471268 -0.0006517636476800463
0.224 0.01758999036042991 0.0044552227423644 0.9116597613193151 -0.36780323539711596 0.9025850012395638 -0.37093755282952423 0.016516940192852703 -0.0014447881676302422
0.225 0.017453528262891878 0.003760636671820107 0.9140066113811053 -0.3784570636735012 0.9140563359557703 -0.37824817865116883 0.016686917730561877 0.00035483486719244854
0.226 0.01928679564591201 0.0031879945024917505 0.9059156401111925 -0.36967164045423684 0.8931525039132586 -0.3437667612510174 0.0167490424110165 -0.0010598142678012585
0.227 0.017012963993475908 0.003078173058452362 0.9086373252398311 -0.3739314973576123 0.9137791986887044 -0.36733301388693684 0.018246387933678103 -0.00221309127624453
0.228 0.01752679458070095 0.0027498274451993113 0.9074230691947848 -0.3784020158258547 0.9378116958204233 -0.3623006285297591 0.014081853184867809 -0.0031884717339089506
0.229 0.017675923958882594 0.003047581901898405 0.9041662449550413 -0.37279302350526067 0.9215827684642611 -0.3406435775406737 0.01591126562398351 -0.0017445327030795462
0.23 0.01821078218541508 0.004114893490126307 0.9019070488039915 -0.38262269156917533 0.9017801491628323 -0.3891487500014035 0.01606113927447092 0.00016771668663307027
0.231 0.01758061293450514 0.0047998162204072395 0.9035276794474706 -0.37579859199112303 0.9038379895313974 -0.389058179567957 0.015978749243900272 -0.001335530128799356
0.232 0.01712254277946333 0.00392345416593026 0.9025219054684289 -0.3772677516261856 0.9082173838334583 -0.3812037655941887 0.019673481866127954 -0.0030070093308529416
0.233 0.01804099805222326 0.0048611573432577795 0.8984695266794246 -0.38273090179813213 0.9109554119306413 -0.3863797438935463 0.017643191730018867 -0.0009820070005054648
0.234 0.01843731995119654 0.0038153684637922103 0.9027057587439564 -0.3817994098431346 0.8834160101014044 -0.3807994365026616 0.017213338166569832 -0.001105768050437721
0.235 0.01829637141280161 0.003783209107001884 0.8946131650632013 -0.38663660477478695 0.9182638641314993 -0.3787554170596401 0.01867471447761874 -0.0005003012730832934
0.236 0.01831769716566275 0.004231724170415588 0.8987337067245597 -0.390392020733108 0.9100608105882703 -0.38706768241365935 0.014556591724082885 0.0005419907485966376
0.237 0.017371406685636043 0.003750811782662872 0.8976851742212252 -0.3892441825079395 0.9211496506732072 -0.3953252772985683 0.016283075516784564 -0.0007965461196964937
0.238 0.018384960413418024 0.003924776499130809 0.8993476277456078 -0.38504250260815953 0.8988553113604049 -0.4006179981947984 0.019758382435686304 0.00025201511418863003
0.239 0.017034063888801215 0.003664737414173789 0.8939499554521876 -0.39241519381401885 0.914721224291877 -0.39602584160486193 0.01817837151253173 4.480096358647111e-05
0.24 0.017739737352256278 0.00383584367686278 0.89733851696917 -0.39117234202933354 0.9151128028572355 -0.3968667188419959 0.017147443439166944 0.0006363907617138528
0.241 0.018356891247452368 0.005287048508548065 0.8953433401235391 -0.3935783504223319 0.8929221993420615 -0.40613416734007546 0.018289644767113384 -0.0028539544901804
0.242 0.01966009769796012 0.004026311988641329 0.886749601107207 -0.39783964696389135 0.8863023471906266 -0.4033164305327961 0.016298476852508677 -0.0009364042331982921
0.243 0.01900635469040023 0.0041828774019126175 0.8940395592788073 -0.3980166352975066 0.8814655060731842 -0.3942036832743271 0.013446688552846949 0.0008465250381957557
0.244 0.018735961617552813 0.0028273975662950605 0.8954142985897174 -0.40235745142121176 0.8887286147431973 -0.3931657842823652 0.016284195055366938 -0.0027170378222029236
0.245 0.018572158163120026 0.005153818425534696 0.898157458034258 -0.40442657087106626 0.8745458222585286 -0.4229244141343582 0.01755256292275671 0.004248855604130082
0.246 0.019343475304781494 0.004393235957931491 0.8898875777539239 -0.4088565885689687 0.89760200317189 -0.41046547954411905 0.016601722647716866 -0.0001335752113186531
