!Created with skrf (http://scikit-rf.org).
# GHz S RI R 50.0 
!freq ReS11 ImS11 ReS21 ImS21 ReS12 ImS12 ReS22 ImS22
0.13 0.011434573360724492 0.006323938066031213 0.9607322623652114 -0.22288974484578813 0.9469906173101837 -0.183228870475941 0.0075476921692251425 0.005592563673987115
0.131 0.01185223901673439 0.005244214553389474 0.9646721708876219 -0.22805451945928945 0.9960571726662892 -0.28413149153302325 0.014147006408025709 0.010919159841029225
0.132 0.009690456933683108 0.006180512527788834 0.9706329998986186 -0.21769436012968618 1.0198583135011994 -0.2306536673677533 0.009255661234988308 0.006341430807244889
0.133 0.010708358462451942 0.006632189612560861 0.9602692997439403 -0.23014020398167875 0.9938918934188602 -0.16244224973517987 0.007499687989476903 0.008559821222169688
0.134 0.010369048791553375 0.00603017908491819 0.96716745580699 -0.2264808567752577 0.9781494323062662 -0.22317071464664134 0.009373840360549418 0.008089878521808147
0.135 0.01083556116009825 0.005228432695831065 0.9581222472348492 -0.2259746235715353 0.916998893993314 -0.23381352783407244 0.007841618528609467 0.006528047760880436
0.136 0.009076168506394925 0.005765459698157063 0.9599809720134651 -0.23482110173484863 0.8996970918778409 -0.22741605919336655 0.008782940854447476 0.005894869774107107
0.137 0.011411401929350563 0.005926546515364314 0.9614210872273531 -0.23478076607320683 0.9773918234116302 -0.2546694434045017 0.011316650288601439 0.011199949878301666
0.138 0.01041312263201987 0.006447446762325869 0.9610282051194999 -0.23908808979529003 0.9483487703805178 -0.18344379459211355 0.00932961554947342 0.011399098321688268
0.139 0.010175133313443444 0.0054296770633505635 0.9608284084232349 -0.23963778227330973 0.9928206893600703 -0.2920885887716114 0.011017731992006808 0.0040014167483276054
0.14 0.010600348143399945 0.006923732438144428 0.961853361615619 -0.24099444307129594 0.9051180460537184 -0.21043642801151638 0.00888672472713031 0.004648575722023324
0.141 0.010709818361836808 0.006522223226313996 0.9599673006851034 -0.2407614987219041 0.9165696056393003 -0.22185720027483974 0.006806928415354256 0.01235195774325272
0.142 0.010098972064584502 0.006505150152448668 0.9581410552478973 -0.24024763734859833 0.9049535751757181 -0.1981957882821115 0.010360257768807097 0.007615001601623504
0.143 0.010890254129793922 0.0062441143412617015 0.9588815365633502 -0.2421486867335238 1.0158072222549999 -0.23041851877620734 0.008905062797661291 0.0071362743998369775
0.144 0.010588789259357792 0.0071565548541395125 0.9563005977312662 -0.2474340073417797 0.9338108422971861 -0.27878502500287095 0.004669341183399339 0.01067673863089578
0.145 0.009864084705173604 0.006786977958473926 0.958218638511746 -0.24629069436925796 0.9002805134653995 -0.27682466281243706 0.005960947380550573 0.012494657712728752
0.146 0.011503714510134834 0.007636985981920527 0.9575602666000325 -0.2510006693354373 0.9203548643042999 -0.20560821305628427 0.011031798812314444 0.005371396207184568
0.147 0.011786529078020786 0.0052749728256449155 0.9582074746408276 -0.2492434995728709 0.9795835515024282 -0.2057166886331263 0.011936827659113866 0.008442714229176885
0.148 0.01257595741966893 0.00748521973174585 0.955633966855473 -0.25141460291154116 0.9420999975433018 -0.2480592277875874 0.013102421540292031 0.005352819358214141
0.149 0.011159630545243018 0.006709988909763282 0.9549967225536087 -0.2545264142939198 0.9742960714494345 -0.2011586526837267 0.0068270550928827035 0.012505851346400719
0.15 0.010258036308035597 0.0074783207181395705 0.9542280166024341 -0.2613039388325641 0.9363787054650828 -0.3050119873818663 0.008372762030212057 0.006544215484872881
0.151 0.011359934809015317 0.0063730312116502316 0.957799123416498 -0.25778246869397214 0.9406363236454268 -0.2495371346533684 0.008358849518116808 0.008419441844197562
0.152 0.011327521319437565 0.004976424669605079 0.9556636384001246 -0.25762376096307665 1.0049842010395726 -0.22471895394655944 0.009856576106201298 0.0044295871911751
0.153 0.011331433736236952 0.006587471023119883 0.9569622680324078 -0.2623754881297113 0.95796265774328 -0.2678475136375631 0.004610872533380775 0.011163604520742764
0.154 0.012375247058059808 0.00652508608176743 0.957745224342967 -0.2608130571005665 0.9781092044276938 -0.23043241167552067 0.006109860493678263 3.837305811958315e-05
0.155 0.012448988264822266 0.006592102741973636 0.9555468510246605 -0.2738397429276948 0.9012012857167369 -0.25698503898582026 0.010268731158923078 0.008470171079659843
0.156 0.01161064003423618 0.007169059013556608 0.9519663142090978 -0.26170475322240544 0.9456156792542459 -0.2602509376897619 0.006067543827668826 0.005049433863611871
0.157 0.012200849229108931 0.0045322926950886 0.9493508341163487 -0.2623033862865759 0.9598218711028421 -0.27812471685962914 0.00863977715103963 0.004597896137643136
0.158 0.011634542374799484 0.007955008785855004 0.9532546029231989 -0.27781170451833714 0.9712336223441381 -0.3283077279067757 0.009615816804205389 0.009704081574635955
0.159 0.011689026961992794 0.005614205088946735 0.9538330277713806 -0.26891917106983193 0.9531341315832895 -0.3139183223035108 0.00837491781151542 0.011421466324429924
0.16 0.011969182968398408 0.00543764354445771 0.9581603022743028 -0.26946409928782333 0.9486646534085241 -0.22658025605110815 0.011115013950562283 0.00776343259087925
0.161 0.01079689663600395 0.007236779490305677 0.949680499241294 -0.2665438204840801 0.9139757029489408 -0.28010950320528455 0.006555545058919492 0.0060449754617048716
0.162 0.011103983841107504 0.007461568522249437 0.949546763512593 -0.27055724383201424 0.9413002672700704 -0.3061275502450103 0.01066722241282845 0.007451821709905683
0.163 0.012381074962345896 0.00612928386185007 0.9529636969963011 -0.2710734653537609 0.9363014856324198 -0.2250142296160302 0.01041787803085248 0.006040756264324056
0.164 0.011463726814829957 0.006089830119739564 0.9472108381864245 -0.27615819216986404 0.9772852513390455 -0.2849723434264018 0.010741075734567748 0.007193841411179769
0.165 0.01226038611694118 0.0068671682103550935 0.9491781954511972 -0.2780642315526196 0.9358386523507732 -0.3368313751889215 0.008319658797524129 0.00732881978261722
0.166 0.011836629549105734 0.005853615201266098 0.9421195417080358 -0.2837209049090012 0.9745820117267536 -0.2677655280790439 0.008568613590151455 0.00903043057120801
0.167 0.012852548596813795 0.006520910526605537 0.9467052298942843 -0.2759798961584882 0.9763459763397458 -0.30603658408260487 0.011708166571446783 0.007677081461266285
0.168 0.013365566301236774 0.005168934135958441 0.9448755913796894 -0.2865163582869771 0.9325237568666397 -0.2889796669413471 0.011480061282451385 0.006733486507325421
0.169 0.013647323716726742 0.005414816370845043 0.9455234471223443 -0.28605869671422035 0.9746967468575806 -0.25152974036214426 0.009900482829743321 0.004549396252450916
0.17 0.013472747847551921 0.006133990571974308 0.9443074416961492 -0.2884409768908243 0.9688905296491646 -0.33484708647643674 0.010767945643234392 0.007405967670742593
0.171 0.01256814666150037 0.006173355022228652 0.9462559586567568 -0.2852245860580228 0.9654319285471252 -0.2936652639260615 0.007793254849852331 0.005581714046311873
0.172 0.012315776205833628 0.006374394882400157 0.9453626768571834 -0.29218711743914616 0.9602864296843936 -0.31367711132225723 0.010451481007974533 0.010936635258924356
0.173 0.01365433535049641 0.006287298830405342 0.9463344554727888 -0.2855372404378581 0.9350176518541238 -0.33166745015335813 0.013455775655143292 0.0057351720579584976
0.174 0.013011258450814078 0.006769501808711075 0.9371564012758209 -0.2970000087414378 0.9415088639419587 -0.32051058242834424 0.00893012371578766 0.006647022043493478
0.175 0.014753714356854585 0.006155529417996885 0.9432877309896646 -0.296713003693338 0.9500310091647226 -0.3415060277485651 0.010735616898247567 0.010024027014377733
0.176 0.013300257771617457 0.0051233303931603885 0.938326112569301 -0.30005996705000954 0.9602299928880166 -0.33778533526355925 0.011762742060939437 0.00811493388096667
0.177 0.012507013596709636 0.005283222685684067 0.9435683795351222 -0.2957960661075808 0.934193199571906 -0.2713856892262075 0.011399811423776416 0.0036783459376581867
0.178 0.014610340070725572 0.004072706417151016 0.9402708775563062 -0.3022363948122 0.9680009574883056 -0.3257611060902203 0.0044735175297779045 0.007239321929064429
0.179 0.012795180543667429 0.005117038131656553 0.9426376500246205 -0.30724224152196233 0.9496244663653008 -0.28043793156511937 0.013799566264374268 0.004271757943931288
0.18 0.013720340072153477 0.005344645926012848 0.9378980897790293 -0.30753765858013654 0.9439625506506715 -0.3012971527061421 0.010130787722223533 0.00887800498003291
0.181 0.012544204351949825 0.0051834320420989285 0.9369073792163488 -0.3103378177814549 0.9384165723356428 -0.3076571030713912 0.01095396602087104 0.007100236564116619
0.182 0.013342193319408824 0.004908838700228312 0.9369160762890623 -0.3088010608996949 0.9445054993029877 -0.32678837603630007 0.011237036902531711 0.005726083689360532
0.183 0.013347278878326584 0.005789123451511523 0.9376558697852532 -0.31081037454937765 0.9317819607581398 -0.2973785431861012 0.011856288463969996 0.0031625650096785154
0.184 0.013005869394919753 0.004560915382347684 0.9354178749133227 -0.3117730096850018 0.918381909025466 -0.2909757521552941 0.008633678410807102 0.0075573671528976665
0.185 0.012427997556488114 0.006054060392247591 0.9341487801695875 -0.31187540627288984 0.973213011670871 -0.3143294442037782 0.012696839605823426 0.005602063417371352
0.186 0.012858475671305575 0.004722346049131151 0.9338682204339873 -0.30953588153414796 0.9476199920341629 -0.3580000652137851 0.011583869196132092 0.00500817418257321
0.187 0.012013176144687759 0.005942385675334557 0.9362230327424788 -0.3148959923384436 0.9485908013294032 -0.2981362019440058 0.008432575830959231 0.0065440008769248785
0.188 0.012925120186436195 0.004513118017672933 0.9363265855399915 -0.31499975155409354 0.9452299562771594 -0.2843173835854103 0.011399713648119767 0.0066023639502374165
0.189 0.012736308015043744 0.005702695192452563 0.9373813382579035 -0.3178227501434191 0.9756324185030202 -0.26757234857466666 0.012502047508185156 0.006107290135193196
0.19 0.013343458408501388 0.004376461411459938 0.9304966901527839 -0.3258556914401141 0.9307280008212552 -0.31959062908459823 0.010748869418447129 0.007918143083038455
0.191 0.01206367213131764 0.005469211129418146 0.9351903559326787 -0.3177260631837293 0.9131707963835152 -0.31486561474534347 0.008799029205580827 0.006413253319734055
0.192 0.01170907195328338 0.005214744878117263 0.9378544498378224 -0.32186645510538253 0.9103435780847662 -0.31206902807659304 0.013931652435146427 0.004609709393379855
0.193 0.011666190250919299 0.005784209603602754 0.9289305765112327 -0.33182896615831436 0.975039998415043 -0.30548871535392175 0.011364492915389686 0.00920521860667654
0.194 0.013208127265045425 0.005589281924118359 0.9320479439046836 -0.3288278565620513 0.9723532013340187 -0.3534493872275162 0.010506264025267695 0.003164080977068444
0.195 0.013055648181598347 0.003998464433886519 0.9361601063231721 -0.3296793872869167 0.9842222233733932 -0.32430944735801653 0.008732662873893553 0.008628493674557331
0.196 0.011596914331816578 0.0058576800849375705 0.9314034592987557 -0.33033677169099096 0.9314280418495074 -0.3315312353546685 0.012092992992812588 0.005771459373810547
0.197 0.011896895323711947 0.006132098043294349 0.9258160433820327 -0.32819779207348754 0.9262759831888988 -0.33477194119096254 0.012184319600771931 0.0050807923375217655
0.198 0.011772759472562566 0.005188164810732755 0.9320791578181649 -0.3409383720666616 0.9159267269789757 -0.3558085570739281 0.009228605712135598 0.005150668618207374
0.199 0.013200701497608885 0.0051193014768793265 0.9240038773287674 -0.3302064571586754 0.9405562302663939 -0.32277271731147966 0.011365751446437167 0.004708039131468157
0.2 0.012742985834120247 0.005173527868007401 0.9290574399526951 -0.3397430248969267 0.9466034512114504 -0.3479750391880854 0.010154795782825528 0.006624689054869912
0.201 0.01240232084733813 0.004567148632572834 0.9333893850789806 -0.3376152273743235 0.8983396446820414 -0.34290018653006665 0.011134319848685242 0.005275056901999655
0.202 0.012032023970833647 0.005364346482481052 0.9260208576465245 -0.3373752905566585 0.9271894552954157 -0.3290392568011215 0.011250680263113282 0.009139401944118473
0.203 0.01258556019303015 0.005838291615257175 0.9209515447588884 -0.3416640902535156 0.951599463297062 -0.3349641795420098 0.011918333350756281 0.007137514502718332
0.204 0.012643385987728795 0.007063672386927455 0.9275142745868571 -0.34398582902230956 0.9277726399088629 -0.3062299158629239 0.009065186600514835 0.007991492217306799
0.205 0.011254830058523041 0.006786185658033527 0.9270762979383571 -0.3463189439899702 0.8910140936753493 -0.3070578695617152 0.008530290496747032 0.005661734169707455
0.206 0.012194166003275142 0.005066484856468319 0.9321857527429177 -0.3471325290915037 0.9111612417055246 -0.3542090489044884 0.009190271031787343 0.005074660031625008
0.207 0.012641920363037724 0.0053271239294361864 0.9249535947115785 -0.3526966615084709 0.9346104806627874 -0.34707442713990644 0.010043958505540608 0.007187469004354249
0.208 0.011870066697764057 0.006933262472264911 0.9252165243486576 -0.3516556048043555 0.8716693322522242 -0.3449772495330614 0.01079283245589525 0.006181229070627064
0.209 0.011967024545964105 0.005714235307404099 0.9270919019026859 -0.3487494910589989 0.9160122366238724 -0.3722932648042457 0.01176712310299432 0.006690968551547457
0.21 0.012779224695307135 0.005579553256983094 0.9202163196591935 -0.35343400183183504 0.911240703201351 -0.3534972361556675 0.011252778049568837 0.006034142945187984
0.211 0.011859531759333521 0.004306984680373443 0.9211345564952902 -0.3568643314527876 0.9441430455673367 -0.3898924068237531 0.010270723734172068 0.005113223780511263
0.212 0.012058950527502027 0.006367220728885162 0.925294414773925 -0.3566356310449194 0.9210890026034105 -0.35315771208255287 0.010786378694493172 0.0038233518977962722
0.213 0.01234350590341883 0.0053160387290595666 0.9178031183721286 -0.35649979801048864 0.9438201133147047 -0.37044913226606246 0.009154298783417525 0.009040115968319561
0.214 0.012406004848958612 0.005431821959225601 0.9238409913162033 -0.35644189684819344 0.940879995150582 -0.36236584405581473 0.014716827790806328 0.004111360178642346
0.215 0.012449056421105253 0.0049132429657283315 0.9176300831352959 -0.35575576481806825 0.9191060303201183 -0.37699191714438296 0.013878209358215524 0.005642036497404816
0.216 0.012989230302316098 0.005941363446609186 0.9167947887427532 -0.36161335600878836 0.9150846850098643 -0.34692993238874 0.011234554500877533 0.00859953856554611
0.217 0.011679224236769576 0.006213486751941242 0.917426811398989 -0.3700233952775094 0.8942006536749664 -0.34128986441186315 0.010415437312472742 0.005606941386439718
0.218 0.012125213139149105 0.005985897458773744 0.9178809335143795 -0.3654455574340101 0.9117668985734804 -0.37597974434121934 0.014466429357024494 0.005144809742276411
0.219 0.01314452656194147 0.00509663425360123 0.9201478074657989 -0.36775117204724 0.9135325784866396 -0.3756363469084477 0.015472185217472954 0.007293156211503508
0.22 0.011491534461333327 0.005054969234481639 0.9160531485630413 -0.3627880650508439 0.9365472465269779 -0.3822439447050074 0.010971503376438424 0.006218398871273415
0.221 0.012120371318644073 0.006788921320197655 0.9208008873128245 -0.37030143600581983 0.8934848065743894 -0.3867777542948599 0.012887329748292615 0.00527106350534133
0.222 0.012558925624394637 0.0066945014016382 0.9135539492547475 -0.37222802177342384 0.9149967421548136 -0.4006404801645704 0.012699623830073599 0.008573187413887457
0.223 0.012603849714011555 0.006191482202247209 0.9140321918633789 -0.3745278888598178 0.8837169371802561 -0.37510479157148235 0.010716956734304825 0.007507607411111913
0.224 0.01262132233833628 0.0077427516599030645 0.9165671660846351 -0.3737585921569833 0.913946185096965 -0.37026083400318766 0.012577887314767328 0.006774957401322001
0.225 0.012680242968684413 0.007410928379586516 0.9157505176406613 -0.3788885260306869 0.9073756047006404 -0.3693009864983666 0.01438656085420511 0.008620132564006558
0.226 0.014159206696412886 0.006858307158751378 0.9127666845268193 -0.37202557257017754 0.8992365157635963 -0.36543738828824573 0.011761217334402963 0.006922673569751078
0.227 0.012046544904204705 0.006900166513239184 0.9130524309673758 -0.3769699445181607 0.9084417064661897 -0.371371375927201 0.016869216953510274 0.005481428262147709
0.228 0.012523952219115687 0.006061535997382732 0.9096052168708948 -0.3816220840499721 0.9230907461330683 -0.36030803819934965 0.011813830942298948 0.004295618830801004
0.229 0.012379498504993553 0.007247855873898976 0.9140401561131964 -0.3797596762417878 0.935031138903874 -0.38722405395582293 0.012821913337786515 0.006365557881416126
0.23 0.012911206856687348 0.0074741682657672 0.905275654977032 -0.38435388931369213 0.9088068018806766 -0.4010987213482578 0.013674757958856287 0.008935856323922022
0.231 0.012622655198767962 0.008213151138733062 0.9076875124539062 -0.3810186325171926 0.9111003772352915 -0.3820410633461716 0.013519134315199396 0.005499678433086784
0.232 0.012121422743796533 0.00742012027427869 0.9080438820328803 -0.38335953034614323 0.911679939327867 -0.3989240263498847 0.015207486503708354 0.006125437379147414
0.233 0.013396834592616546 0.008531227462500865 0.9046226755222123 -0.3906704165759245 0.9161582663171963 -0.39191130657762996 0.01455281462887847 0.00490084576522546
0.234 0.013113586764524732 0.007112226343210481 0.9094407939974825 -0.3977214491562135 0.9130329092752496 -0.37778317544452295 0.013591356803208566 0.007581977940311402
0.235 0.013377465198092792 0.007091255592167617 0.9072285263923868 -0.3916365604663293 0.9396330487096608 -0.38546087252221883 0.015432915648769124 0.005747263331987692
0.236 0.013654744786180846 0.007684411237984632 0.8979507042185927 -0.3881801394661288 0.8927202397793575 -0.39679233944544545 0.01219423065158884 0.008708381254696147
0.237 0.013016121840972885 0.0070845081600152985 0.9018839774857131 -0.3903289658635932 0.9223736260990522 -0.4100566424460372 0.012597294386916813 0.006782781757023971
0.238 0.014244361391137703 0.008485072925578438 0.9054015339381598 -0.3947399702558353 0.888596601336282 -0.40601503820695684 0.016071187439140187 0.008193594720445294
0.239 0.012984948039869968 0.007380433599841484 0.905041234423129 -0.3931065583374918 0.8881899473406061 -0.3967560906763776 0.016217857943010523 0.007478096347388534
0.24 0.012893870983681978 0.0077122001257179 0.8988341562943855 -0.393352260778331 0.8919768973845231 -0.39178294440755995 0.013235562004721497 0.008250731983414259
0.241 0.013974940662434755 0.009036480077997611 0.9009210647657981 -0.40419910327759306 0.8981797358029195 -0.41354832712100076 0.016879715618714118 0.005228338842516308
0.242 0.01467219263691294 0.008517159377965917 0.8968939220233698 -0.40460923142138583 0.8913426508631086 -0.3939612642827084 0.01268086572230859 0.004508274361166234
0.243 0.014809862571316886 0.008280579671913696 0.8972180345141924 -0.40124825041735673 0.886977481937137 -0.41189103224030504 0.013186990615472446 0.009322658043172703
0.244 0.014501031684255664 0.0065651363890319855 0.9022915879954364 -0.4092040893516025 0.8729588895222445 -0.3926527236148467 0.014730942399966983 0.005804059482057207
0.245 0.014598210641481783 0.008830246386379484 0.8998398776594072 -0.4046247975413602 0.8736485016773804 -0.429635330669673 0.015064639155117172 0.010263390499529764
0.246 0.01520631052673867 0.007818728667810694 0.8960729811050205 -0.4114389968526875 0.9102513289624666 -0.4146860951994464 0.0151827170064455 0.007262279858103161
0.247 0.01430924152170396 0.00704307456945361 0.8901496891550277 -0.4147972639169061 0.8808141521863461 -0.40185611193246285 0.014697488521970122 0.006151236865372873
