!Created with skrf (http://scikit-rf.org).
# GHz S RI R 50.0 
!freq ReS11 ImS11 ReS21 ImS21 ReS12 ImS12 ReS22 ImS22
0.13 0.005839718003794143 -0.001757060787793239 0.9690340650808903 -0.2156473921703012 0.9635756951118547 -0.2386244331545801 0.005431349346776178 -0.003188985864095287
0.131 0.0067725426974530965 -0.002105273816047464 0.9705143228625459 -0.2054824042439907 0.9428980713149121 -0.22598916061768135 0.006989408475346121 0.0013600510692643192
0.132 0.004881624735531564 -0.0012335800641283987 0.9684224651596832 -0.2171594658821982 0.955847919329044 -0.11782997524933472 0.0020947955403032557 0.0015269286914785954
0.133 0.0058379964984676975 4.9639004497468706e-05 0.9741955473959997 -0.2162383897949335 1.0209945780309937 -0.15637134155798663 0.0068233300502367695 0.0004509546682032078
0.134 0.004793321354169581 -0.0019436837947317985 0.9664841598712306 -0.20968240569760233 0.9983176652033829 -0.21873475855943147 0.006628013862172246 0.001472373831790811
0.135 0.006490705553809817 -0.001991442875934301 0.9697777594800641 -0.2196510714043247 0.9563866101847225 -0.2241592651782665 0.0027786914401611174 -0.0015446901266154024
0.136 0.0039848335755492395 -0.002725929372238382 0.9661887093451892 -0.2266998526499882 0.9146601952012847 -0.21091297935532266 0.006845078621303373 -0.0025099416388827734
0.137 0.00649055694772735 -0.0019507925455086066 0.966453982711132 -0.22078888831991866 0.9943650537436902 -0.2228025798331468 0.008007551512164441 0.0017429150494425191
0.138 0.005294972832491205 -0.0009424130000211653 0.9613785288312419 -0.2298634553873038 0.9540689117796408 -0.1893925524826271 0.0036367430499201154 0.0009110150409566448
0.139 0.005423382680135389 -0.0031225184068210876 0.9688615416702514 -0.22414857623810489 0.9849782700379662 -0.29957632013016106 0.005339056181295473 -0.005300145495619087
0.14 0.005016118029937971 -0.0016979382438779326 0.9607526895253533 -0.23164763205843703 0.9101493111135204 -0.25051565271948434 0.0034248192774279872 -0.003362993270534505
0.141 0.004987156925959723 -0.0017712851916263064 0.9685667605845287 -0.2271846663852288 0.942737524897682 -0.249919808939721 0.004865314389622757 0.0009617233637580677
0.142 0.00424882639180997 -0.0024279843739039345 0.9608833888666104 -0.23119791368477402 0.9248302289006054 -0.2142928002680243 0.004065365241292345 -0.0006236673826779487
0.143 0.004666723595386188 -0.0016608724053321464 0.9618454051632215 -0.23107859200845657 1.0149455193993107 -0.20930249373929463 0.00577341914635502 -0.0014246332042839765
0.144 0.005776111601976342 -0.000910457424156263 0.9624494288968918 -0.23751063562168004 0.9329688287217737 -0.24852236770157085 0.0025261262648084634 0.002732316069427117
0.145 0.005080507077070915 -0.0004517571672970877 0.9627962408783248 -0.23595937545549292 0.8690308701609677 -0.23849425426511459 0.0012259401597705965 0.0021154897708757807
0.146 0.005959511994849056 -0.001905691471489277 0.9634202937628922 -0.2382782801619726 0.92617453069149 -0.19910744632767038 0.004027498357158942 -0.002982041685247951
0.147 0.006905540121590142 -0.002441782914636783 0.9622725192725029 -0.24050045108967147 0.9194787187198772 -0.16675782872962136 0.007948512629183337 0.0012934912650551817
0.148 0.0063705204247188315 -0.0010486053672415095 0.9633886250884455 -0.23992740473018945 0.9765577143141203 -0.26880347783862174 0.01020617618083058 -0.004583015653479938
0.149 0.005741154804586171 -0.001225299076857123 0.9591797678577451 -0.24786426837795233 0.9935367789931527 -0.20245085152788414 0.0031637080131013285 0.0025896776829650915
0.15 0.0053949596190065174 -0.0017999137553763099 0.9617709514388452 -0.24745191116078458 0.9679746942848411 -0.22656682525157223 0.006620584796438171 -0.0027543280722149067
0.151 0.0054698713544175884 -0.0028680432151691913 0.9639752723085976 -0.24577408410563018 0.9817763132058492 -0.22551898691079741 0.004020135115214865 -0.0017694823820750825
0.152 0.005581915596288257 -0.002875401679678173 0.9608372237492964 -0.24556527324351396 0.9234894462717588 -0.23011267254050774 0.003734930666187842 -0.0032571027930906465
0.153 0.004818757911912005 -0.0016551941421112121 0.9595336492436711 -0.25722305820139285 0.9399667489219617 -0.2998479924451962 0.00024708526909687615 -0.0009872663041094539
0.154 0.006121325982525117 -0.0020375067409140425 0.9609094648336641 -0.24592358097617933 0.9388119292310829 -0.24370839887073598 0.003788949380770912 -0.00776421538996335
0.155 0.006362456526640863 -0.0021465139746831793 0.9598231793068469 -0.25778226548256594 0.9417854509546641 -0.2140909458383297 0.005998242645840709 -0.0028349053445131077
0.156 0.005053959139795433 -0.0016274654635477816 0.9551559753445736 -0.24840796733651233 0.961561663905688 -0.30832747734827953 0.0035508313837900015 -0.0025770945505333696
0.157 0.006837874153496655 -0.004152414524221206 0.9533395138354421 -0.2557756562136564 1.0110060698755963 -0.22296539728746786 0.003165284642355621 -0.005615743494425751
0.158 0.006348541444434452 -0.0017270312172668523 0.9629055020235122 -0.26512794234185066 0.9350549079249136 -0.2820987682374338 0.003142818139151966 -0.002870561671441923
0.159 0.004945611815587225 -0.0032837473705968115 0.9589578175622431 -0.25517358962845327 0.9709794755584955 -0.26274921777918414 0.003331843871149947 -0.00048091610056201777
0.16 0.006508115590987643 -0.002807332198551674 0.9621910590212981 -0.2596408916735847 0.907800223718935 -0.2764148280332538 0.004924808578406478 -0.0013849384084796783
0.161 0.004109771421023431 -0.0017217128580540404 0.9572161936018607 -0.25950243376511317 0.9802208326231622 -0.2850522508629362 0.0010811442957386484 -0.0033245656704505282
0.162 0.004597563836573847 -0.001578589881723868 0.9558930799634423 -0.2592276120374466 0.9659343077765051 -0.27783821102393386 0.0068995569028638525 -0.00392586428210348
0.163 0.0066919109437403946 -0.003583189337684663 0.95950080651381 -0.2627765171402927 0.9903960207954803 -0.22141242646779974 0.0032187558211605777 -0.00488075717756544
0.164 0.005293871446104196 -0.002245895333488197 0.9536526403218235 -0.2601258975863438 0.9585522551697261 -0.30034471635339993 0.0033425983507469397 -0.0023893580349894283
0.165 0.005734605494506042 -0.002715162982968308 0.9574322084440302 -0.266982830233254 0.934145381200233 -0.2759435289940451 0.001503942270236622 -0.003919575635254529
0.166 0.006429074696328952 -0.0032909448141917805 0.9536332202437163 -0.2711645071015512 0.9564885595436428 -0.2574660996213225 0.0029806650214638606 -0.001040866460333872
0.167 0.007363978474569705 -0.003265072437587458 0.9481546428349338 -0.2669452358782336 0.9655866060468137 -0.24399261393550373 0.005122996766247937 -0.002347735108867691
0.168 0.006604233807054555 -0.003448622115171303 0.9498667650982798 -0.27785188649946907 1.0053598496553438 -0.3066557102438506 0.004964419377534259 -0.00482906988787899
0.169 0.006996991936737441 -0.0036909602356802584 0.9500476443816828 -0.2745614661921007 0.9723248712772602 -0.24058647783314285 0.003366686364669499 -0.005148998104793961
0.17 0.007806200049339393 -0.002863479147875167 0.9560631951344094 -0.2799457882082445 0.9636964028289324 -0.2838245665587298 0.00570020325458365 -0.004791439440397339
0.171 0.006316482542397332 -0.002882935643608781 0.9513000174412443 -0.27575414287713795 0.9902832249283136 -0.29998499481236945 0.0006859161830200617 -0.004560772007001764
0.172 0.005949495357690525 -0.00297193886128907 0.9492821962214142 -0.2809589733622277 0.9780372410311485 -0.2854596234866467 0.003062881818166542 0.00014988372130076346
0.173 0.0070611479160055755 -0.002744137081041854 0.9518540122237987 -0.27847224498871725 0.9490010710132277 -0.2938463829912048 0.0068767435480877005 -0.0065080312897803
0.174 0.006728788013456184 -0.0024778583397598946 0.945544956129482 -0.2856804996538682 0.942009182776134 -0.3150065868346137 0.00251142065043586 -0.0012634421405371468
0.175 0.007720568678779194 -0.0030285477468005024 0.9472186228029279 -0.28530356716259225 0.987869858614742 -0.3011313521073572 0.003419943624493036 -0.0007824886128403433
0.176 0.00626474318905594 -0.004068517393905523 0.9483840429994911 -0.2837073639897127 0.9649563284897307 -0.28239679073408686 0.004158693333667331 -0.0049462528977129395
0.177 0.005815242945758458 -0.003577861897404159 0.9495127735480161 -0.2867404618708688 0.9418001466673263 -0.2804697143460423 0.005272641624448887 -0.008059892005825062
0.178 0.00837391309020794 -0.004758821898723783 0.9513072839686955 -0.28403616460213627 0.9475098825541647 -0.3437156781715597 4.4085657526734424e-05 -0.003047070868033214
0.179 0.006419912586492521 -0.004164163783265245 0.9463934778380104 -0.2974961606767624 0.9725461435954744 -0.2728576325662474 0.008406310968506437 -0.0068873509298593635
0.18 0.006879005643924207 -0.0031985747336524617 0.9444142789533314 -0.2935345013984543 0.9793809205333124 -0.31205537797106736 0.0033989210550352763 -0.002368065078278231
0.181 0.005333492262008812 -0.0038950462418603183 0.945689373529367 -0.2973758777075118 0.9698561692752187 -0.26538251976732363 0.0022826690061776567 -0.004713374670087825
0.182 0.006576574534355142 -0.004193640023741801 0.9430002954508183 -0.2942944731407783 0.9607131934195836 -0.30425254523664974 0.004933169907599792 -0.0061101113389715744
0.183 0.007406996520368589 -0.002640746531113814 0.9454374838775705 -0.3010773803292542 0.9492946652316244 -0.2954032795919575 0.0049410181369533585 -0.007212359578284224
0.184 0.006752591608386458 -0.004107944658528592 0.9440105637533596 -0.29822883628302327 0.9560296335703392 -0.2891714604966707 0.0027495197828629222 -0.0024021956284785285
0.185 0.0050256333680065825 -0.0030613705963965965 0.9424745053165475 -0.29771228169715885 0.9654593990628435 -0.2828789527600553 0.006020933245648291 -0.002639545189858972
0.186 0.0062087075705132945 -0.004172753253661443 0.9414574173307237 -0.29953416856729476 0.9650729642874724 -0.31369543158298496 0.00560808817741279 -0.007154628324512535
0.187 0.0054815198700042655 -0.003961373142374556 0.9431562139956406 -0.3011098584803846 0.9439092838558762 -0.3091833122219799 0.002532265020596773 -0.0036328995962303847
0.188 0.005875802007692358 -0.004434675874853038 0.9442643013775873 -0.3056313874108299 0.9699681848433975 -0.2788934158049931 0.006686851200837353 -0.00283224772000542
0.189 0.005382765114101846 -0.003931526568833263 0.9455899007069979 -0.3064999335370201 0.9517342173205221 -0.2737378978304877 0.004328901706036644 -0.00401649368543365
0.19 0.007345995113670011 -0.004471283791312879 0.9413987563852725 -0.3124369320496126 0.9429372941424982 -0.3221420959637466 0.005165262578683057 -0.0008981065707495784
0.191 0.0057940848658521804 -0.0037188233366382724 0.9471716472279318 -0.30641904375005274 0.9387083879579693 -0.2963481253971892 0.0032666541594270127 -0.0014339989613593113
0.192 0.00483572886980029 -0.00380531223962733 0.9450319238547885 -0.30998037772569353 0.9240466181239337 -0.30279194256768943 0.006575115191264915 -0.005456188532450301
0.193 0.004749639056424826 -0.0035292054894144726 0.9400446423660181 -0.3183098585323571 0.9581891334403116 -0.26612695502383915 0.005464235368375917 -0.00011908123530574095
0.194 0.00571535875499413 -0.003283394764940916 0.9410988221387114 -0.31459550979277084 0.9586512697173235 -0.3061646314549701 0.0033566807802454224 -0.006928771550872224
0.195 0.00521656065149829 -0.0053721890679343616 0.9363803145924265 -0.3119142848844453 0.957453683307808 -0.2896431948643136 0.003469786807651497 -0.0015121987162883903
0.196 0.00451266677072463 -0.00319557982867103 0.9423810854948971 -0.31967097218257023 0.9423198435314687 -0.3204920969352908 0.006712131684106247 -0.004725853693903531
0.197 0.004770529852850611 -0.003955422581214032 0.9344210970572931 -0.31383288866857073 0.9372163544916305 -0.32334891724356296 0.005468410485579566 -0.0026762547492930585
0.198 0.0051779188415950125 -0.003808083847326265 0.9391617747061406 -0.316454625153642 0.9254389334235155 -0.3091540273060167 0.002935421589108311 -0.004308714376694048
0.199 0.0064461717597991365 -0.004589348130941123 0.9349001282595139 -0.32616071261479834 0.945835935977304 -0.29774693964403337 0.0044889199166377675 -0.005117604689068834
0.2 0.004991643759493449 -0.004630358604199663 0.9414357558126307 -0.3136326330593089 0.9400544117210666 -0.34694984585931093 0.005300236261514223 -0.004928679547469161
0.201 0.004745741388335909 -0.004679130648186111 0.933454116722545 -0.3230925744211144 0.8662791190417453 -0.33885453822509365 0.005079498464758561 -0.004477454970740015
0.202 0.004520306178874783 -0.004443898475148019 0.9400168395771412 -0.3212158529581653 0.9316033860848335 -0.3343804236031892 0.007640433772438824 -0.0013973689299025462
0.203 0.0056363569548524345 -0.0038999212853212594 0.9408623625409575 -0.3215074764093753 0.9587341321169434 -0.33960515019040877 0.006567016409219626 -0.004009283207302991
0.204 0.005332443198792316 -0.003176968296581402 0.9279196222257071 -0.3307728736944938 0.953308041594618 -0.3248152522959826 0.0062965405591771245 -0.0022404142243240208
0.205 0.003237168588351161 -0.0033004708675829827 0.9330927043741064 -0.3309828745241433 0.9147899764275447 -0.32041041042771634 0.004100723192178307 -0.004320468154186928
0.206 0.004708654167192608 -0.0037042190340605217 0.9297574400818133 -0.32760037861713914 0.9132829686023796 -0.3200017708035573 0.004468777627466928 -0.005228992856032702
0.207 0.005245135114494037 -0.0038398959405668695 0.9310073147152714 -0.33403184434130184 0.9269084171272711 -0.34092493076876357 0.0016072024259874875 -0.0008200168145258851
0.208 0.004417452474185488 -0.002984937431740814 0.9309715945247288 -0.3292950817922228 0.8917236387813325 -0.3144719236511632 0.0044439259087949426 -0.006705210861673017
0.209 0.004303300056644303 -0.003924706778697304 0.930585213102384 -0.33469002609955883 0.9265735274446669 -0.364050991520679 0.005571131098086358 -0.005530398247416408
0.21 0.00594290363228859 -0.00450867507113914 0.9290093929954899 -0.34162498145442577 0.9376066210402492 -0.33066983557348595 0.0066871249067430305 -0.004764084859628674
0.211 0.0044123030135174756 -0.005455591626204738 0.9273326198536869 -0.3443984214586396 0.9640683599241734 -0.35493847017076063 0.005921055170711379 -0.005370053833709343
0.212 0.0047893230122113065 -0.003409236802331828 0.9348706448115494 -0.33981242401865497 0.9144413413460266 -0.3318123992854042 0.003938685681761321 -0.005545808007812411
0.213 0.004856645853237368 -0.004418150370497704 0.9264727351900369 -0.3418136008363964 0.9275903551387803 -0.34313114097834674 0.00367728802515582 -0.003024181477284623
0.214 0.004583995510855901 -0.0038985966357918457 0.9302969062935228 -0.3407468577461113 0.9303469204602876 -0.3818303509310434 0.007881879914558918 -0.006686094711941013
0.215 0.005493719270811847 -0.0049686362580339104 0.9283058669003696 -0.34170903189549773 0.93505655310936 -0.31468860677020444 0.007552179011565947 -0.0034612206412450316
0.216 0.004593330900381119 -0.0036876287969427506 0.9242203329353178 -0.3477089851269189 0.9294735573401993 -0.3503592245603727 0.0070691320646436165 -0.004890322747924796
0.217 0.0040619305915406915 -0.004383272449877228 0.9247525533981038 -0.356762163188293 0.9310144802434467 -0.3244330173122325 0.004884843941096372 -0.006729418655495126
0.218 0.004875209208525332 -0.0037520664171139203 0.9280069957464733 -0.34913639975857397 0.9412438830747596 -0.33289258695116675 0.007639382010849933 -0.005974009083013483
0.219 0.0050534997855751235 -0.004618748629373655 0.9282247025642748 -0.3533753222029478 0.9397477738240715 -0.350704448453549 0.008253866958431843 -0.004959332080105716
0.22 0.0037916901018719756 -0.004659817235079336 0.9263666555035621 -0.34899420492611544 0.9381573380869485 -0.35646217559529614 0.004491146239575871 -0.006240600897323311
0.221 0.004023689364789003 -0.0034368813355262063 0.9269459916210567 -0.3604192818529491 0.9333992079913145 -0.38338565497764165 0.005482222862195772 -0.006514535217538287
0.222 0.004419274368080034 -0.0035237001768636746 0.9221574577586898 -0.35827025992741124 0.9317809823196441 -0.39205484589574363 0.0044088519192541495 -0.003159058613025995
0.223 0.004478129219169879 -0.004495833801038075 0.9214359079420992 -0.36201241551331304 0.9193820326899307 -0.37149203027686245 0.0028129918609468853 -0.004691932474195081
0.224 0.00461748928132335 -0.002662849328982053 0.9284000754039675 -0.35929999307103455 0.9395801397271919 -0.3491098315989307 0.004864628717874814 -0.005602694152123836
0.225 0.00428441832596968 -0.002605441820353975 0.9270204094874857 -0.3715040852484567 0.9190517270466891 -0.3525545270656117 0.005641027497648243 -0.0022335130210032793
0.226 0.00612650437908364 -0.0035994847092725717 0.9209125278678663 -0.3576587880516706 0.9044757712899787 -0.35563745826885973 0.005668936745037232 -0.004448742693897711
0.227 0.004361262229019485 -0.003779608954449423 0.9218285016203296 -0.364763992467846 0.9026826987327236 -0.338627873749903 0.00866208152156431 -0.005805713805589901
0.228 0.004310042387257282 -0.003924752322987547 0.9187599656696575 -0.36976336744038496 0.918312582147838 -0.3462794365786262 0.0037079302934220726 -0.006092792443771975
0.229 0.004225123186268938 -0.003398219157700431 0.9161671890744393 -0.36206777732318524 0.9383209929731495 -0.35349761127335366 0.0056837693475892325 -0.007131733935434904
0.23 0.004917637820684001 -0.0029492584920779983 0.9186653987669204 -0.3654938781740175 0.9140285231226414 -0.36705516545468964 0.005249383297032901 -0.0030144213620672904
0.231 0.004292236792417335 -0.003031185751234438 0.9197156201330329 -0.3646799921347978 0.9111333723501178 -0.35524354014652304 0.005169918186297383 -0.005942506951057634
0.232 0.003648017529949355 -0.0031606761756531347 0.9211507334358907 -0.36425317083407727 0.9229635238845272 -0.3666499920208425 0.008570886541325524 -0.007652514301357577
0.233 0.0044044501066775685 -0.0019045924024606762 0.9130814092909167 -0.37782586409663 0.9133383585875972 -0.37810447422022964 0.006060233774916709 -0.005010935183097174
0.234 0.004080299300071481 -0.0033507789273931727 0.9176126667575459 -0.37043670263216544 0.9428974106676706 -0.3729055467603001 0.005392872910996667 -0.004856108956673507
0.235 0.004710755159864931 -0.003593098390899805 0.9118286866408872 -0.3695695957247419 0.9380291621361718 -0.3801724709510909 0.0071913902635268034 -0.006895172293167215
0.236 0.0050420062966040425 -0.002503414831037272 0.9126317573302295 -0.37771824506209656 0.9185864730653238 -0.38609411396376114 0.003924672437016707 -0.004077018988649921
0.237 0.004219158301829815 -0.0033538949246854515 0.9186127473459993 -0.37524050991414776 0.9246761376454028 -0.37639077671580284 0.004649612578913022 -0.005629991496215974
0.238 0.005113380937238311 -0.0030540628072577712 0.9132185403153427 -0.3796247079871781 0.8983730716390662 -0.3882061216155871 0.007823049491675775 -0.004709372350000575
0.239 0.003707448226177283 -0.004103623837343156 0.9143024072931746 -0.3761946726640907 0.9268148185365457 -0.3668572828515674 0.007145156020948065 -0.003927257147192133
0.24 0.004288269124420607 -0.003194944015395513 0.9143207040801338 -0.38086442642339663 0.9032867046173865 -0.3883779581735547 0.005165978960952027 -0.0032081880451506183
0.241 0.0046997528764152145 -0.00218900897688523 0.9073784426679729 -0.3878497878968041 0.9158086141226912 -0.3784748460839554 0.009627267403386297 -0.007538725600119899
0.242 0.0057717935316780435 -0.0025015114471974827 0.9125423022416062 -0.38649891524194036 0.9156953320189221 -0.3925190458589606 0.006263925607979863 -0.006672645070833961
0.243 0.005425023792615778 -0.0026606052422523158 0.9094328982162778 -0.38731600822440476 0.8961010649339267 -0.38127882206168645 0.0036660200663639203 -0.003614701445591406
0.244 0.0053411394843833155 -0.0042881648962714205 0.9142777614252069 -0.3883927612519998 0.8955031992541409 -0.3819934926797818 0.0049528310993984465 -0.007010131419635205
