!Created with skrf (http://scikit-rf.org).
# GHz S RI R 50.0 
!freq ReS11 ImS11 ReS21 ImS21 ReS12 ImS12 ReS22 ImS22
0.13 0.0012879542427718157 0.0016116113865533876 -8.711722305966438e-05 -1.2789107336677504e-05 2.7586579451659245e-05 -5.282306039918787e-06 1.1037952404696728e-05 -0.00041933734139260623
0.131 0.001308104149788044 0.001555165870128854 0.00012253828277216001 -2.5785568087136693e-05 -4.209378384533105e-05 -9.24164647276491e-05 4.959954088167613e-05 -0.0003015712042893869
0.132 0.0013299058601948838 0.001396271846049162 -3.3465859557802436e-05 -6.922504660127978e-05 7.723299332751818e-06 1.2912483005744554e-05 -9.34424926698919e-05 -0.00040248978754541063
0.133 0.0013325991946810556 0.0013564327087975463 -9.78993536438361e-06 7.385605724009677e-05 -0.00015348093775645493 -6.617254007910041e-06 -1.6924938537091867e-05 -0.0003016913736379308
0.134 0.0014863452190374458 0.0013420775142127838 -6.670416696453817e-05 -1.6100855651869923e-05 -2.5376006889048697e-05 2.6277624376568246e-05 -4.9713064063141466e-05 -0.000324757863402167
0.135 0.001403852526472919 0.0012336028943434633 -1.3227795250230856e-05 -7.101945420101377e-05 -0.00010728804422064802 -8.679309019823986e-06 -5.7630409263361504e-05 -0.00031957124248806586
0.136 0.0014890597190891463 0.001130465870526984 -5.437722766082851e-05 -1.3439693639593066e-05 1.1341363745754232e-05 -7.365262561243916e-05 -6.344912152720317e-06 -0.0003692707741980638
0.137 0.0013002178071923806 0.001108346363156426 2.2601809527601738e-05 4.327710086894454e-05 3.614160776716786e-05 -2.7871665914353022e-05 5.415554639241806e-05 -0.000168272650179224
0.138 0.0014218641528163578 0.001079987201682465 -4.283530296352319e-05 -2.6474991082322846e-05 -1.7774102925230374e-05 -4.668324421561272e-05 -3.808169894366717e-05 -0.00020276898695361444
0.139 0.0013271477311210182 0.0010676054802766857 6.981213647517661e-05 -7.003619575084704e-05 -9.596278487655413e-05 -2.515298986966932e-05 1.1375630680360641e-06 -0.0003476124269951995
0.14 0.0012996556395015323 0.0009727780556843974 -6.496301645137272e-05 3.813501102556366e-05 -5.704603112656678e-05 1.0766070159569289e-05 -6.514871308142715e-05 -0.00028448986986076254
0.141 0.0012282464753785051 0.0010154452055881542 1.0768530961242281e-05 7.985898753764029e-05 1.9582925202763587e-05 0.00013947774570183288 7.0202353663578425e-06 -0.00012029729811093447
0.142 0.00147558417655419 0.0008799587998308976 -8.625801264576971e-05 7.122422232034559e-05 -0.00010952992209860883 -2.2782256560365397e-05 -2.7483267111867256e-05 -0.00013704426790794164
0.143 0.0013182436525093573 0.0008092121693968073 -0.0001083584666029216 -0.00014978592771163388 9.02664167583411e-05 -9.67327494185449e-05 1.801400739458452e-05 -0.00010796395904623828
0.144 0.0010939846149776251 0.0008376086698351823 5.162305589724152e-05 7.595767816225613e-05 8.297526807681219e-06 -3.0239908668566002e-05 -5.331462273733911e-05 -6.313472352014955e-05
0.145 0.0011253494910424067 0.0006925470319920368 0.00010403175456407302 3.60274021718468e-05 9.918187291781552e-05 8.851105826741522e-05 5.769636328940181e-06 -2.0425601393626493e-05
0.146 0.0011023808094793833 0.0008043765589428539 0.0001353149606314426 -8.574542623938705e-05 -8.549936590824027e-06 -6.99094496402129e-05 7.724562025529197e-06 -0.0002591949284251091
0.147 0.0011165628527338004 0.0008287486048716441 -0.00017429253991731883 8.01483363265483e-05 1.5616593371992177e-05 9.00370866986543e-05 0.00011813650892825271 -0.00013638803160792508
0.148 0.000985212910437118 0.0007865841144051841 3.354642882607744e-06 -3.981265612015113e-05 9.664654986998804e-06 -1.5950142413681303e-05 9.912678845139102e-05 -0.00027787668844617396
0.149 0.0009706872810776747 0.00083145170750896 0.00010746351034077493 -3.451043641195194e-05 -2.5401727880350936e-05 -0.00012411698244507876 0.00018708165239789105 3.044943670658914e-06
0.15 0.000894302318156433 0.0007824502796713219 1.1095757754188372e-05 -6.695038595181496e-05 -4.191035741761975e-05 4.378013051580699e-05 9.136945522219845e-05 -0.00011867243226606062
0.151 0.0009512768319330972 0.0007590651998358834 9.786942731103835e-05 -4.57998331212988e-05 -8.619319566195812e-06 -2.707288298172828e-05 7.523809638246191e-05 -5.714764030801566e-05
0.152 0.0009842128769327516 0.0007780692514469977 6.188057410395745e-06 -5.682491719587957e-05 6.155346907647967e-06 3.453682653066213e-05 1.3692423685539159e-05 -0.00010180448494255648
0.153 0.0008109655595606876 0.0007368310887563811 3.549803330045819e-05 0.00012975200434443186 2.2388005253472733e-05 -2.5324164699993004e-05 0.0002059577027304025 -4.576986258933961e-06
0.154 0.0007443714716434997 0.0008149006395941658 -8.924053310321355e-06 -0.00014193641546506337 -7.769748867918658e-05 6.449496067973179e-05 3.0397312942044142e-05 -0.00013244774502608263
0.155 0.0006761508224376986 0.000850514066123687 -5.881881919558758e-06 -1.2642979816492332e-05 3.889549030157839e-06 -8.69097116228105e-05 0.00015044504703698802 -9.777308463718466e-05
0.156 0.0006085089827166372 0.0008987112181841418 8.641519335883211e-05 -0.0001088137939596347 -1.4299111542779323e-05 -0.00014765776615889835 0.0001404507668711639 -6.453981851837245e-05
0.157 0.0007058713373423926 0.000891074595675554 -1.0390578929741777e-05 -5.728221318551394e-05 2.500058635679292e-05 -1.902972476559914e-05 0.0001305216888509878 -0.0001387960357673824
0.158 0.0005509181829787006 0.001025392431720785 2.355196697099045e-05 4.314555687883782e-05 5.636116785795601e-05 -8.976037301507776e-05 0.00028417376040109553 -0.00015268582750905562
0.159 0.0006286862321362248 0.0009437481433148611 0.00010155044219647979 1.4573046432442183e-05 5.161155414247355e-06 -7.266872709788073e-05 0.000261618252971121 -0.00010873692864269266
0.16 0.0005983739776422717 0.0010966236885953115 2.5675862016814372e-05 3.424758449671968e-05 1.9906385170832768e-05 -2.5597509652590827e-05 0.00028722815771323163 -0.00026534760499127087
0.161 0.0005238471085912592 0.0011160349828762844 3.355860987684926e-06 3.6824636408568244e-05 -6.311286544873221e-05 -8.122502385580631e-05 0.0002988843323858886 -9.835962471247591e-05
0.162 0.0003583684619902353 0.0012354613309830914 0.0001227308131427437 5.903080171180308e-05 -7.970326889850664e-05 -7.082608818224333e-05 0.0002457641192393722 -0.0003007165609749289
0.163 0.0005381220119461946 0.001293152680616781 -1.7898402405975085e-05 -2.2457344563958056e-05 -5.071386626547045e-06 5.8240598354444386e-05 0.00027043739618884367 -0.00021218103828193188
0.164 0.0004663401554225887 0.001333056766163141 4.2297606616463704e-05 2.909111586980866e-06 8.081520230845362e-05 -3.619436711315175e-05 0.00032937640818754115 -0.0002768008223777174
0.165 0.0004837189929375881 0.0014051331560965628 7.948278069475321e-05 0.0001011208714558607 1.8365166077142003e-05 3.243709743299695e-05 0.00031065599742011597 -0.00027675780382191293
0.166 0.000575318357191487 0.0015429262828264721 2.0107760762040423e-05 -4.792407915823095e-05 8.948853737860846e-05 -6.667233468579735e-05 0.0003395682692658761 -0.00041170044813749476
0.167 0.0006405668142220592 0.001596730492563616 0.0001208910503035441 -1.755992644637075e-05 4.57314535450333e-05 -0.00011598010159538031 0.0003020245892121146 -0.0003896035429823377
0.168 0.0006398692596958013 0.0015968817338681497 5.195381862426192e-05 -6.22342986529827e-05 -2.1017108644043264e-05 -5.318483114530619e-05 0.00031114289095468425 -0.0004479561145916817
0.169 0.000732320488076627 0.0017222999665061362 4.2409566948600466e-05 -5.815053753034221e-05 4.830607922071857e-05 5.499548572347953e-05 0.00031496801721888273 -0.00035917688808984397
0.17 0.0007573708864745253 0.0017615038369580098 -4.035779799717343e-05 0.00014261401212091026 -2.7209964661384572e-05 -5.926723525110128e-05 0.000269181122206437 -0.0004506678811965553
0.171 0.0007674177336959912 0.001991072570577673 8.470814034419166e-05 -8.505233313841126e-06 -5.261657645403411e-05 -0.0001052807566371539 0.0003779389379390752 -0.00044749018638242456
0.172 0.0006709236216186201 0.0019602180483274862 3.6965337771849196e-05 -3.253606705323322e-05 -9.25396732985814e-05 -0.00014648940290285027 0.00022245094186290553 -0.0006499284524445995
0.173 0.0008859121977675795 0.0019832377916027513 8.189656092071568e-05 -5.256719657079501e-05 2.2723798432287153e-06 7.840306360875469e-05 0.00010604610127584671 -0.00045174194954880354
0.174 0.000976134326879819 0.00218081925155392 6.0365563916317514e-05 -8.182412162207537e-05 5.252300021613323e-05 -5.323683872471875e-05 0.00027636891120285274 -0.0006182374855668832
0.175 0.0010509541022779851 0.0021607542502027123 1.2282522497359024e-05 9.683438910343812e-06 1.2143361434523461e-05 -2.1413089622294805e-06 0.0002444685569098736 -0.0007023572495640719
0.176 0.001038911793061493 0.002207878085535919 4.9948517705347575e-05 -6.18276644436856e-05 1.8517486448492353e-05 -2.4989297926945505e-05 0.0001488424659343752 -0.0006100701834848914
0.177 0.0010709392402914518 0.0022292132025468277 1.3581221601577826e-05 -5.2916333431515125e-05 -6.9188879926965995e-06 1.2969830223095358e-06 0.00019285350062682774 -0.0006190029337378894
0.178 0.0013159650134830733 0.0022049192916903586 -3.604219061722559e-05 9.279210584952058e-06 -2.2359219283975242e-05 2.5376897977895197e-05 0.0002675542255961218 -0.000776174274022894
0.179 0.00128049243799652 0.0023344069075600313 4.763459905476794e-06 -2.169559205675153e-06 2.351739356839628e-05 -4.7334150268420385e-05 0.00014607518053420538 -0.0006192236287976509
0.18 0.0015183350192899939 0.0024096903887677766 4.453131737604081e-06 -4.8354540060302114e-05 -7.047672264432125e-05 6.262759167584103e-06 8.986879057807386e-05 -0.0007830718214980032
0.181 0.0015533605934466223 0.0024959195103088686 8.623540818865436e-05 0.00012081916092599994 -4.760670617550897e-05 -0.00012688142225265644 8.631214422227911e-05 -0.0008069141480555546
0.182 0.0016833841187990411 0.0025126817261239593 -5.835451685248967e-05 -5.69240439822872e-05 -1.420445769981912e-05 3.1006235432940024e-05 2.0983237132405697e-05 -0.0008249594907536263
0.183 0.0018661127793358034 0.00254851651368952 3.364019069627216e-06 -8.667440148514293e-05 -2.9205511453815286e-05 0.0001338521114170328 5.905638936401505e-05 -0.0007178373432378239
0.184 0.0018182265878893388 0.0025131880914298433 0.00010849453818559966 -2.729047879395094e-05 -2.9228989918385934e-06 -4.238067463428396e-05 -2.576670540347115e-05 -0.0009565758013713349
0.185 0.002048468235906661 0.0026707466419904997 0.00010431065829704908 -3.2118564718040776e-05 4.361448237761418e-05 0.00015594678373043622 -0.00016478749233113417 -0.0008328932845047316
0.186 0.002154020472619629 0.0025229045486428827 -4.2404386685521096e-05 -4.9389483702985046e-05 0.00011098969076943295 -2.894418489783265e-05 -6.75598456034292e-05 -0.0008379746923700383
0.187 0.002383299190537804 0.00251902948641005 7.57051356151108e-07 0.0001000360811157104 4.931134396492861e-05 4.544213641388932e-06 -0.00021141290319229045 -0.0009211722875184293
0.188 0.0024079116693932587 0.0024701052907999026 -7.709954471047375e-06 -4.037630116195557e-06 -5.300207018856131e-05 -3.273873936778733e-05 -0.00016312180314259527 -0.0008985763344156726
0.189 0.0025779307744074626 0.002548050440504446 1.7315364047329293e-05 -8.211598010902424e-06 2.7718971742298913e-05 7.378483905100898e-05 -0.0002660718786987568 -0.0008627031696610996
0.19 0.00266298589181689 0.0024921143422482173 -0.00010526248446711742 -6.685799134099813e-05 1.6273579424907734e-05 -3.8586591037297676e-05 -0.00041815378802707805 -0.0008856736683817943
0.191 0.0029098113903642674 0.0024783598346421127 0.00013594218475782547 4.548304232671015e-05 -4.863643107585437e-05 -8.416124488808124e-05 -0.00048203608236182464 -0.0008756604285109598
0.192 0.0030116750119866674 0.0024568776928423986 -3.579447070825231e-06 -4.4625350687072935e-05 1.1488767852076323e-05 9.095293558517068e-05 -0.00037878329619659475 -0.0008401028798272856
0.193 0.0031043062247439906 0.0024187105430721174 -8.666911660340315e-05 3.240425488249456e-05 -5.4826360246194203e-05 -0.00012522719172035273 -0.0005562564112079569 -0.0008239568048406042
0.194 0.0033941713362920537 0.0023149059200792046 4.774806305965103e-05 3.9038953333055444e-05 1.8071258401987152e-05 -4.633917882282277e-05 -0.0004977785769873512 -0.0008374700059255571
0.195 0.0032485042118949948 0.0022881861366429736 -3.194707225321078e-05 3.0441065156240106e-05 5.567181693270933e-07 -0.00014325868198932043 -0.0006741477725387401 -0.0008577955693523663
0.196 0.0036134148367927684 0.0021899783284251833 -0.00010526439155860218 3.5332729178047736e-05 8.669635474621205e-05 6.192913198970958e-05 -0.0006074290778311157 -0.0007845055249059211
0.197 0.003665830629658672 0.0020638939663604103 8.810304687298011e-05 -7.133946806068525e-05 -7.378836607979359e-05 7.592747256785775e-06 -0.0005662120893726498 -0.0008208429839362697
0.198 0.0038183624175295015 0.0019849021189460862 1.0446547525062842e-05 -3.571356002598578e-05 6.73913325720347e-05 -0.00011222732592330506 -0.000706489950956438 -0.0008064842964438056
0.199 0.003787308295562268 0.0019216871355686937 0.00011989394805043732 -2.4632202866806135e-05 0.00014280364665604923 0.0001674325998376766 -0.0006931594568435739 -0.0006699244892185853
0.2 0.003922179556268681 0.0017796148467769063 4.837176681428477e-05 -5.3278700911691053e-05 -9.328402723560187e-05 1.790827478830928e-05 -0.0007424795544759315 -0.0006869045012579997
0.201 0.004010403842717446 0.0017328928303705722 3.6709491957981e-05 -2.468265233443303e-05 -6.704661917412315e-05 -5.8298789118048076e-05 -0.0007281620640663281 -0.0006790221098949895
0.202 0.004245383235662862 0.0016107491254939731 4.131104761246221e-05 -0.00010456050148812872 -3.189227100997826e-05 2.035431793040528e-05 -0.0008424244124375723 -0.0005652190981288686
0.203 0.004238844226410641 0.001404092213165796 9.348298228227119e-05 8.677003480891512e-05 7.397566950670018e-05 4.984586962660078e-05 -0.0008281740831908278 -0.0005160885272179159
0.204 0.004366622698704118 0.0012373018556464264 3.2745266624570274e-05 -5.403310654761622e-05 3.067298683955523e-05 -9.181749357799616e-05 -0.0009234315463113961 -0.00044339452346353457
0.205 0.0045133244428969665 0.001106645859915366 -3.1287475455724535e-05 -9.346605208524984e-05 0.00010768036956262788 -6.3850066671456545e-06 -0.0009093549407732745 -0.0005326490283778993
0.206 0.00452185792698109 0.0010482565731457808 -9.36354265267297e-05 6.137190096743684e-06 5.265269361966827e-05 4.117445629845915e-06 -0.0009426941956437976 -0.0005265841082569703
0.207 0.004559992096642331 0.0008975893450572204 -1.9292807163806402e-05 1.6605419719254033e-05 5.4634200127604585e-05 -0.0001247419853164065 -0.0010221294221309145 -0.0003775585434673974
0.208 0.0046620358455097335 0.0007265062944300783 -0.00011984858135867234 -5.2286622604822984e-05 6.590548903470846e-06 3.4469701585753575e-05 -0.0009349926201780598 -0.0003767238328984096
0.209 0.004708177046090389 0.0006014430881473708 9.499098019659205e-05 2.0698758797800315e-06 9.955330042735159e-05 -4.163850646654761e-06 -0.0009132701722407772 -0.00040512285358075556
0.21 0.004632691707429165 0.00043655604473201773 1.481186266478883e-05 -7.695646969937266e-05 8.107099773444439e-05 -4.399291548772033e-05 -0.0009108502320014375 -0.00040777095175684663
0.211 0.004767284916808484 0.0002884091713109631 8.115200107244684e-05 -1.540694500452534e-06 5.574305716079716e-05 -1.746297233206237e-05 -0.0009777672742430214 -0.00023516421565257487
0.212 0.004713429453633494 7.411678769992404e-05 2.0810279178948523e-05 5.178147649897323e-05 -6.797715536895173e-05 -4.407902030162981e-05 -0.0009597398515266999 -0.00027505935523078215
0.213 0.004770924065037134 8.657116058425533e-05 3.662128109023471e-05 2.922171455864919e-05 0.00010652065435802716 2.1881822374328262e-05 -0.001008637702279944 -1.8568867662891824e-05
0.214 0.004757837863389653 -0.00024379820693949328 0.00012927401591051447 8.112991199920354e-06 1.058777768839665e-05 0.0001051473130499641 -0.0009035313220284568 -0.00021717929755023135
0.215 0.004706618420223029 -0.0002922174831038053 -8.629518450651525e-06 3.497659625134434e-05 -8.990096927096239e-05 -1.1374569555886881e-05 -0.0009241652220824681 -0.00011206643305563238
0.216 0.004765110459923512 -0.0003806820133911159 1.280150640431492e-05 7.89093507551459e-05 -7.344576545419088e-05 -5.8013727565170303e-05 -0.0009765274536544751 -6.962362366291575e-05
0.217 0.004765780587609593 -0.0005688039555316707 5.1928957126307886e-05 6.0129604278967935e-05 6.632241055886123e-05 9.466326359612337e-05 -0.0009954901017818717 -2.0227880195225392e-05
0.218 0.004631369358969457 -0.0007312308483482409 2.321554326313541e-05 -4.1543979044504e-05 -2.512963530060138e-05 -9.666025484385739e-06 -0.0008845708995020272 -7.508122452781814e-05
0.219 0.004592856148142678 -0.0008274924807418066 6.345425407116135e-06 -2.950760941257517e-06 -1.7557185486491392e-05 -8.973581221602726e-05 -0.0008643188853940412 4.884312031936344e-05
0.22 0.004684779608091663 -0.0010391770605856544 0.00011505038712023251 7.882307343145646e-06 -3.0900232289982987e-06 2.9265250083942838e-05 -0.0009400794361811961 3.603718578321415e-05
0.221 0.0045309576540018635 -0.0011958749473151007 -2.709535103315274e-05 4.4168265881382e-05 0.00011199513859850136 1.3805046809383722e-05 -0.0008339142704053228 -2.490932926957644e-05
0.222 0.004528411851304797 -0.0013157256993676543 9.77799726957023e-05 -7.062963043379575e-05 -6.85581689995576e-06 -3.436854163387257e-05 -0.0007975419176000616 7.899025763728186e-05
0.223 0.004432320765085717 -0.0014103897693720292 2.662288556129605e-05 -9.791461943247031e-05 -1.2712914922546756e-05 -4.7731498004278895e-05 -0.0008983844925679946 0.00028595538982863157
0.224 0.004237735366001885 -0.0016174393192769593 -0.00011787747314964468 -2.2063496694970434e-05 5.3556784902132296e-05 -1.0408016114136991e-05 -0.0008225583604819706 0.00020080331456617692
0.225 0.004195665274100115 -0.0017951502050604783 5.827484548935115e-06 2.0375271282340793e-05 3.862875828498495e-05 0.0001502959294583467 -0.0007539974938510148 0.0002007112948568141
0.226 0.004160780673688382 -0.0017460944919843358 2.169359640682643e-05 -4.864426511589646e-05 -7.905021572055201e-05 8.733771230121137e-06 -0.0008307955746102218 0.00019323665540060649
0.227 0.0040633605622627834 -0.002022804767774441 3.2456276288096773e-05 1.559100057742149e-05 8.347056424354777e-05 3.389156124324503e-05 -0.0008079381109486768 0.00017265390312610506
0.228 0.0039874166634956245 -0.0020623472508485307 -4.7812844203274115e-05 4.570841190411679e-05 1.994883672829614e-05 1.0359655130234675e-05 -0.0007934549867503435 0.00028646824591985534
0.229 0.0038601198004743734 -0.002029563389800388 -1.0866269194484773e-05 -2.6558186144615703e-06 2.2814814034960264e-05 -1.16085690922077e-05 -0.0008279139877696977 0.0002755106361709379
0.23 0.003727568316269224 -0.0021993013338615208 5.148058465975906e-05 0.00012996298134272045 0.00011344181504770173 7.888082520145382e-05 -0.0006957713713646109 0.00029500158866284376
0.231 0.003520241082752985 -0.0022894849422152737 6.655547968675211e-05 -5.4837435501690405e-05 -3.105126653985238e-05 7.781519971857925e-05 -0.0007664563850002731 0.0002262391949846765
0.232 0.0034112385326479184 -0.00236456616121868 -5.193731439109881e-05 -5.273660062584207e-05 2.6906957997924048e-05 3.800096084905686e-05 -0.000778912724988839 0.00022622596392011312
0.233 0.0032820142004770254 -0.002444702431898059 -9.478393366920985e-05 -1.649983078979795e-05 8.051040092439465e-05 -1.1366744123633288e-06 -0.0007714514729459538 0.00025707178184747293
0.234 0.0033556500597941466 -0.0023720535978289047 6.626031334648844e-06 -1.8634587018000633e-05 -6.047058524879177e-05 6.855648774496272e-05 -0.0006694169783783349 0.00034743297201283795
0.235 0.0032953311626790468 -0.0024786340731842898 3.2538090746540944e-05 1.5249124647956356e-05 0.0001287940085079644 1.2055361087092087e-05 -0.0007264986290820043 0.00023703977872310372
