!Created with skrf (http://scikit-rf.org).
# GHz S RI R 50.0 
!freq ReS11 ImS11 ReS21 ImS21 ReS12 ImS12 ReS22 ImS22
0.13 -0.05700756909528655 -0.17532923067762085 -2.9964446047779787e-05 -7.845949702608919e-05 -5.6216986449584965e-05 4.759119199775413e-05 -0.03599987910219124 0.03860514391386136
0.131 -0.07068945581158385 -0.17178464271198746 -9.485607184121238e-05 3.191107638916812e-05 -4.929847940904325e-05 3.2109408492579748e-06 -0.03255685834759187 0.04174122325919229
0.132 -0.08511014554243473 -0.16597366014691 6.268404062687677e-05 9.047849789297732e-06 3.518003539257979e-05 2.458153283365393e-05 -0.028997046959313884 0.04498652603750833
0.133 -0.09820337120727442 -0.16104091426220263 0.00010058165634958862 -2.6381973127043414e-05 -4.2044309278212936e-05 -4.413641106292738e-05 -0.025065108181526182 0.047798990602317494
0.134 -0.11013287478173829 -0.1537123816012654 0.0001722503909357181 1.5565150824644285e-06 -6.341660613986645e-05 5.0826160989939076e-05 -0.021076518560767955 0.050098894702952194
0.135 -0.12326592325904796 -0.14605124068438302 5.769294915061502e-05 -5.327613186434382e-05 -7.113941507091692e-06 -1.9319680076091615e-05 -0.016330103686485624 0.052314333584757775
0.136 -0.13449546341571264 -0.13701297857361655 7.039416801742304e-05 0.00012032954578015826 2.8139601470245933e-05 -1.4071831732422879e-05 -0.0119244018959566 0.05394412086347761
0.137 -0.14666154236022083 -0.1274558284408262 4.03992521113806e-05 -1.6776690036533748e-05 0.00015469487983292207 -1.2732037630448092e-05 -0.007369016007743862 0.0552741988148255
0.138 -0.15738143132979612 -0.1167552911840837 -9.857074098514553e-06 3.895701121299704e-05 -7.008848319752928e-05 -0.00010942329411358102 -0.0022893789817686984 0.05584222018908369
0.139 -0.1665819959061584 -0.10494669712599665 3.416726693874065e-05 7.079162677981875e-06 -0.00014782310901799442 -0.00014259538681436344 0.002885617359521119 0.056460121135693556
0.14 -0.17506957373073906 -0.0930249119991655 9.021442853383107e-05 4.132868812125415e-05 -6.4178527446075984e-06 -0.00011624201347977897 0.00805661362262247 0.05645970213377395
0.141 -0.18303547202106207 -0.08029933255908468 -1.810592826121631e-05 9.476716385768358e-05 7.0364217202936774e-06 2.1096544563612048e-05 0.013001908357303945 0.0565107712405786
0.142 -0.1902124688280433 -0.06584373681808295 -5.745328909393241e-05 -7.833977085962299e-09 3.5792532447248766e-05 5.94126915844426e-05 0.018314410555642757 0.05523614470766976
0.143 -0.19655246920975075 -0.05140419375287491 -8.396267794721275e-05 -6.703027419618655e-05 -2.197054959949815e-07 -0.00010395399360639762 0.023026461304326278 0.05347487313229457
0.144 -0.20068177441183352 -0.036402221576768916 0.00016295748322844685 3.946355110826681e-05 -0.00012727381183049707 -5.909541217333081e-05 0.02812805717078589 0.052080296656320677
0.145 -0.2040208708298931 -0.021021652521834983 -2.5492537633067005e-05 1.5114742515072176e-05 -1.4043865024089414e-05 3.154882576412785e-05 0.03267483646863562 0.04923126700893322
0.146 -0.20712055107522895 -0.004801946387703765 -3.428156029625633e-05 0.0001372168213345781 -4.210975884536397e-05 -1.7955905340476354e-05 0.03756196631183376 0.046446642478582996
0.147 -0.2082058760646636 0.010997012374037355 -3.465140909320361e-05 2.1495251296845993e-05 5.632476875420533e-05 4.488643888971177e-06 0.04214023908862387 0.04330539540376163
0.148 -0.20817160546866678 0.027117593646422872 5.220490387120652e-05 -6.226709200345172e-05 -7.832834021510324e-06 -8.794123802268634e-05 0.04577760613594294 0.039802085691105285
0.149 -0.207052914458499 0.04330275302673537 3.3568634154897534e-05 3.7448279385691825e-05 -4.3430368332501166e-08 -3.352758455713858e-05 0.049898502234216366 0.03563333398581979
0.15 -0.2041797323129559 0.05954317193514391 5.929834192608632e-05 2.1720284206153646e-05 1.2989353762587343e-05 9.850824153845506e-05 0.05300622167779127 0.03124009005093902
0.151 -0.20004486404867067 0.07613352873534145 4.367058951545881e-05 0.00014357493781897454 -7.073586930661842e-05 -6.113503104026705e-05 0.05616419728890359 0.026765450516934675
0.152 -0.19492565622544342 0.09066891924332468 8.255457597651284e-06 5.1019219727468236e-05 0.00023186887166946874 -1.0694842606829502e-05 0.05838445296063423 0.021955040772140402
0.153 -0.18757228116920888 0.10724032469731047 3.820427774122938e-05 -3.5000583831530474e-05 -9.854132018128019e-05 -1.7777548986915917e-05 0.06068717491568732 0.01614306764356964
0.154 -0.18091086030765488 0.12102354901357366 3.050949651634813e-05 5.065500066038255e-05 2.7960055512192357e-05 -5.1154505365939775e-05 0.06218517926078529 0.011290889559965812
0.155 -0.17237141271454548 0.1357342891029116 -1.7528938172247383e-06 -4.9233906956439605e-05 9.853461579725397e-05 4.94319777396667e-05 0.06314571877349688 0.00567558396862736
0.156 -0.16225376969790611 0.14790670630353348 -3.2844051680139192e-06 9.516921306803118e-05 9.077729236869761e-05 8.3330194989653e-05 0.06390760990873673 4.1357696970289734e-05
0.157 -0.15131191354846144 0.1616424147527501 6.339042649321089e-06 3.4191901164982616e-06 -2.9219568996559748e-05 0.00020739503519107982 0.06411503440294822 -0.006007901893703233
0.158 -0.1393036926809783 0.17356880383531537 -6.503394377326726e-05 -2.749022522506939e-05 -6.881244129335961e-06 -0.0001568701327494221 0.06392899838162557 -0.011785435864573625
0.159 -0.1261989656520075 0.18354020237492133 -5.6927073137741874e-05 -3.092898287405355e-05 7.669257028587079e-05 -9.88756415950304e-05 0.06286436660085959 -0.017512320958370933
0.16 -0.11200456699112621 0.19436465500586544 7.092866888515204e-05 -4.990298193538233e-05 4.251423993077537e-05 -8.26780050389008e-05 0.06133632930455309 -0.023062685495961088
0.161 -0.09717407479911996 0.20283923274373358 -1.612033106320203e-05 -4.919071536917349e-05 -7.034871483490387e-06 -1.0559570238036622e-05 0.0593796942154361 -0.028525431174581874
0.162 -0.08188570125717823 0.21116518051673797 -0.00012052662213351379 -6.9264370911540264e-06 7.140317681046179e-06 -9.50325081659039e-05 0.05681246881673081 -0.03416801310047252
0.163 -0.06584926038198226 0.21777055108442628 8.063908589956934e-05 7.926542559871448e-05 -9.150238287664005e-05 8.999600536205772e-06 0.05383315301718733 -0.03927773964070743
0.164 -0.049076014468776887 0.22484723741374446 -3.551269319505634e-05 -3.0625015424825234e-05 -3.536121964319139e-05 8.283435510147058e-05 0.050372399974012376 -0.04413289870605853
0.165 -0.031743906650029075 0.2266544385760754 3.091140082718058e-06 -1.1816196254813599e-05 -2.814699344972203e-05 -5.974349709811306e-05 0.046524525024347806 -0.04893299595522315
0.166 -0.015582055984879939 0.23027785522215335 -4.640641793342365e-05 -4.427919084927019e-05 1.3779255862975358e-05 3.879370318305104e-05 0.04213825922172767 -0.0530158449082807
0.167 0.0018850734506948494 0.23234556355597674 6.337769917416567e-05 6.308885829295581e-05 -4.197739789081825e-05 -4.0814554305481173e-05 0.037526411699819136 -0.05709710928107809
0.168 0.017937964593173414 0.23258566790421842 -0.00012071290658419336 4.802606046578078e-05 -4.8576323849269955e-05 -6.205268601514052e-05 0.03265301200394803 -0.060325586734100135
0.169 0.03729341913087078 0.23319707962548902 9.29174628638098e-06 -6.24638099392653e-05 -2.8019703694756617e-05 2.9965431577988084e-05 0.027077210914452234 -0.06324969031152032
0.17 0.05276907696268335 0.2301423093415869 3.391171007386859e-06 1.521800570066024e-05 -1.3758948765324062e-05 2.6435094822781385e-05 0.0212111084573099 -0.06563107702852992
0.171 0.07053145814898173 0.22600535204529498 -8.787215692322348e-06 3.5605326419714035e-05 -9.208004122410493e-05 0.00012097153535934539 0.015549986280704567 -0.06798851977610695
0.172 0.08863371539507087 0.22150373942803084 -6.484224146177982e-05 0.00013627918543244433 2.1078197217024338e-05 -3.8704714414609564e-05 0.009685486184088586 -0.06901823919811749
0.173 0.10434128589945044 0.21445060373368388 -9.081826334750468e-05 -1.0937449091725923e-05 -0.00010523207390182995 5.461632042162535e-05 0.0031033713455558055 -0.07030889316932616
0.174 0.11952239922287808 0.20806585575905762 -6.194329368793188e-05 -4.055144588574189e-05 -7.722916429000317e-05 -2.8288133241119663e-05 -0.0027238320492614645 -0.07042769346681994
0.175 0.1362518467799204 0.20039150942133893 -3.155141263518275e-05 -4.429090897762613e-05 -5.030383342473792e-05 -8.187523982780212e-05 -0.009244149342256492 -0.07017931242899111
0.176 0.15087398499238178 0.1904062568740829 3.3567861118217366e-06 4.4192474125293076e-05 -0.00012677206765230575 7.697448878404514e-05 -0.014948240725924109 -0.06916574664578506
0.177 0.16618657748850021 0.17947254164227003 -6.139378226577855e-05 1.538723872189798e-05 -1.3769082468052442e-05 -2.8245463622118477e-05 -0.02175173003314786 -0.06843413760020858
0.178 0.18043784651412378 0.16552196208262934 -9.95760867230286e-05 2.3189257314046306e-05 -7.743134194004534e-05 -6.657352256480849e-06 -0.027457919828092005 -0.06652005652198456
0.179 0.1934842137993093 0.15407666733177666 3.028255826123762e-06 -1.1862748172822293e-05 0.00014789838079814333 2.1745467817869152e-05 -0.03292178232405758 -0.06344266976318018
0.18 0.20517313593270003 0.14012776509058247 -5.174024421977333e-05 9.319197557578741e-05 2.133633239998657e-05 -0.00016326960002577308 -0.038587221123487225 -0.06082572769371343
0.181 0.21606034055439224 0.12583000023803992 -3.710833669941543e-05 3.174605518119932e-05 -1.4061762944451388e-05 8.820042893440105e-08 -0.0439110377279234 -0.05761539629736191
0.182 0.22576404938847222 0.10900476513345163 -3.3105494724937465e-05 1.6663905675462187e-05 0.00011262137463506617 6.377292221350847e-06 -0.049168283744951934 -0.05399676934465735
0.183 0.23476546837016987 0.09342081857040976 -4.170923022685948e-05 7.567071789692199e-05 -6.978787617382164e-06 1.5831213926837004e-05 -0.05409235421099961 -0.04996143875106884
0.184 0.24222399317163879 0.07648642073267344 1.655791397268174e-05 4.9074641105405584e-05 -6.841307950769749e-06 3.33813994555639e-05 -0.05785063895102116 -0.04491905612035665
0.185 0.24862019142789524 0.057860644612714764 5.1195981092572086e-05 2.5577692374242e-05 -6.9653220341846e-06 -1.411942211157149e-05 -0.06229591782856836 -0.03975856460182348
0.186 0.2536401295886897 0.03930894945908476 -5.3394318343489594e-05 6.942788763176213e-05 -4.4056713435969935e-05 0.00012262924198338176 -0.06588832056065172 -0.03388925871360863
0.187 0.25790938096765753 0.02094602059976304 5.979310949418652e-05 -3.7218498380789046e-05 4.221111182203609e-05 -2.811307619817784e-05 -0.0686840531992495 -0.02849376496526322
0.188 0.26004917286471985 0.0018200585774741978 -0.00010842264065510346 -2.7740521373988367e-05 0.00011286331042318922 5.3552312470961566e-05 -0.07127543086662777 -0.022622735137557283
0.189 0.2605195020034399 -0.01841363949793443 8.43372972054795e-05 -0.00010063461481470913 2.2141306315590033e-05 0.0001213559652779603 -0.07320596113978109 -0.01634460688208151
0.19 0.26012714625370326 -0.03772116808457 2.7374385744369612e-05 -7.753800173637813e-05 -1.4004811704536712e-05 2.018903907617581e-06 -0.07475936362893193 -0.009759305552069074
0.191 0.25754660399821033 -0.05784094052412943 3.3280312466824726e-05 3.903624461874955e-05 6.339057499681545e-05 -2.7941540379574765e-05 -0.07563041148959426 -0.0030334994692387675
0.192 0.2540317471879759 -0.07698877056404749 4.098978393923228e-05 8.78532911271345e-06 -1.6017526033480661e-07 2.2809390101959668e-05 -0.07559655615538433 0.003465873421808964
0.193 0.2486773940818516 -0.09644195131454367 -2.8129656593759565e-05 5.5969516509901234e-05 2.8068028358219815e-05 -3.745731906306602e-06 -0.07575166810621334 0.010141073803533317
0.194 0.24278045026954714 -0.11668031545730963 -1.2254241442625e-06 5.0859249062566165e-06 -4.224564076725122e-05 3.7038243260834965e-05 -0.07459621581969722 0.016804570561823117
0.195 0.23374639846210776 -0.13447588542429909 1.5950591893479692e-05 -0.000118471900207434 4.145713377024977e-05 -8.647626538757021e-05 -0.07360631671611062 0.023650117905795482
0.196 0.22316706498123776 -0.15319932825709304 1.5676334217883082e-05 5.084076500656701e-05 7.73012798717254e-05 1.5605045812069965e-05 -0.07123450323681522 0.029642945319882485
0.197 0.2126705103158955 -0.1692604754440044 -5.730607559194852e-05 5.3893446223274294e-05 -3.57062321806259e-05 -3.9939631291295164e-05 -0.06875214114576256 0.036088506211525956
0.198 0.1994787299475854 -0.18793303263149622 5.3888004191686775e-05 -1.3040866490646775e-05 -2.8303924288214813e-05 -1.7159405447204662e-05 -0.06575108921696571 0.04229252172933834
0.199 0.18701038973908687 -0.20319425506101566 -2.7965200562259987e-05 -3.4724078782488824e-06 2.7331845999187835e-05 6.0300795886981654e-05 -0.06185965267129078 0.048289320113158764
0.2 0.17114183653278683 -0.21785509723975413 -7.752822016375345e-05 -3.581793577516549e-05 9.132933827037133e-05 6.133100864408797e-05 -0.057542593975377865 0.05367400789025865
0.201 0.1547846343889388 -0.23156612491535386 0.00010259233542621185 0.00013860605403011138 -3.4348990823200203e-05 5.495320099960848e-05 -0.05305995573693098 0.05867113258423257
0.202 0.13624946358889173 -0.24251467313566072 3.443800953339586e-05 -2.166808650310632e-05 5.6411306756458335e-05 -3.3517145019994498e-06 -0.04778380686547661 0.06366374814221536
0.203 0.11923142124544144 -0.25428808130006436 0.0001283055943476019 -5.459416799454809e-05 8.436626798577985e-05 -5.992223095267467e-05 -0.042706920234747626 0.06736028612424956
0.204 0.09972003916787514 -0.263206544156924 -6.530979777461559e-06 8.46814188822696e-05 -6.94317668872973e-06 1.2352459897641223e-05 -0.03644448383405805 0.07171962450140841
0.205 0.07776933686495469 -0.27093502902845745 4.090011141596482e-05 -4.700163565579333e-05 -7.115138931429857e-05 -0.00010837881614501396 -0.02990906592699827 0.07495281828580086
0.206 0.05770248947713199 -0.27760526692548926 -3.4669343341114954e-06 7.29034988494712e-05 -4.227638322424029e-05 -5.424839323491046e-05 -0.02362188852705164 0.07777547831036274
0.207 0.036716965589544556 -0.2814130289259466 4.939937895697507e-05 3.885485677238082e-06 8.379863225032127e-05 -7.963058307588744e-05 -0.016802400104273318 0.07987883864317828
0.208 0.01464928268289631 -0.28396992571563834 3.905294325200772e-05 4.459877332253576e-05 -0.00011944428029671518 -3.363403069906871e-05 -0.009108310076751414 0.08157391223543077
0.209 -0.006651625792891021 -0.28439182786123257 3.050477824235853e-05 2.183424350091328e-05 -2.1253710353670852e-05 -2.6173095147133358e-05 -0.0019017468975002362 0.08251287733154128
0.21 -0.029212893249257747 -0.28485239689777603 1.983028829544814e-06 5.064749336507338e-05 -4.194732514534291e-05 3.5324882828375754e-05 0.005112053354516452 0.08229223736144811
0.211 -0.050019511489039006 -0.2808744821926289 1.627885552251013e-05 -0.00012391129557150977 -4.9335750931069864e-05 -1.1951241279848785e-05 0.01259702801483225 0.08180710970963977
0.212 -0.07185249757256441 -0.2780676023632928 -0.00010496662943030994 1.7256555218898745e-05 2.106775535297551e-05 -1.4029289144342591e-05 0.020351611786955912 0.08022635932885903
0.213 -0.0935264875924461 -0.27030292146638846 1.628763800943118e-05 7.785315264341206e-05 -7.062882251229746e-05 -9.594095125883164e-05 0.027476744921912665 0.07902734802889401
0.214 -0.11408008261494405 -0.2663794059021211 4.5469124173283195e-05 0.0001292121683213256 6.971768655167934e-05 -5.8625742903792244e-05 0.0344721011841886 0.07688889241126723
0.215 -0.1354508589725006 -0.25491369604295716 6.654107662756462e-05 -6.633724367721099e-05 -4.1604136704412164e-05 2.897118997504438e-05 0.04150833340337213 0.07386428822781749
0.216 -0.15503284995333327 -0.24664270595980736 -8.100338822986942e-05 3.774561007364932e-05 5.641482328368941e-05 -2.7904438544166353e-05 0.04840857744204707 0.06992308621124872
0.217 -0.17330376421647992 -0.2345073922261451 -6.43695763806404e-05 -2.946219998418485e-05 0.00014734260017572448 -2.57124662619044e-06 0.054164888328386 0.06557507885959367
0.218 -0.1912737861054727 -0.2203385336776214 -0.00019699643594092147 9.905869258357697e-05 -2.116343623621015e-05 -1.0400800861876157e-05 0.0603642973321976 0.06037664495129225
0.219 -0.20733262441389075 -0.2060362381592606 -4.041481774306864e-05 1.9040659913458443e-05 8.413692583488967e-05 -8.264730672068278e-05 0.06607002248609331 0.05546620281630673
0.22 -0.22370925206105208 -0.19006562472345262 3.465395649033846e-05 5.457470286521811e-06 7.12246233090374e-05 4.804868046914951e-05 0.07150109205705649 0.04907677038104687
0.221 -0.23821392881172376 -0.17252724531760977 2.6328421535911723e-05 6.767610418226551e-05 -2.1103538390824606e-05 4.086629800711084e-07 0.07536438634845863 0.04278506992270287
0.222 -0.2516119235949389 -0.15551246221031056 9.488118881041837e-05 -3.3562796117101274e-05 -1.2509263062422469e-05 7.394694034888069e-05 0.07990648490796223 0.0357792083154923
0.223 -0.26343367363774156 -0.13572270895490288 -0.0001268319139918458 -1.2456930574441736e-05 1.4018799831742223e-05 -1.9389580560646795e-05 0.08299110388494783 0.02887708851975365
0.224 -0.2743796730121975 -0.1158936940536929 4.191126127074853e-06 4.228720066682408e-05 1.4081265188431638e-05 1.5770230808436955e-05 0.0855414106825404 0.021047782949963935
0.225 -0.2824659639213227 -0.09468312979772432 4.1555678293947625e-05 6.768135506165835e-06 4.919850713482409e-05 -1.4397391929623778e-05 0.08718658773539212 0.01340484798779879
0.226 -0.29074028040967154 -0.07316378881850122 -2.073184254424554e-05 5.420703403768814e-05 6.990761716026375e-06 -1.0614482038045883e-05 0.08859351189534646 0.005052859572200858
0.227 -0.29485133850641143 -0.05194879316421001 4.158729641964783e-06 -1.6925336467294223e-05 -7.216090135345764e-06 -2.4582509469720557e-05 0.08938947871917684 -0.0027497769190462976
0.228 -0.2997637257591286 -0.02915276079146244 0.00010778083700831806 -2.918321834931428e-05 4.220453951630236e-05 -3.427808008071357e-06 0.0889718593322199 -0.010937070282733332
0.229 -0.3013282852844666 -0.007520531546922838 5.975844866044905e-05 1.9563191350206597e-05 -4.163977511844116e-05 4.433701052834535e-05 0.08780111024165398 -0.018557150118993677
0.23 -0.30211706649930936 0.015915901659939165 -5.7792212848357854e-05 -2.7410864491024224e-05 -6.218979701436019e-05 9.546438583016227e-05 0.08598609611979836 -0.026707427091196414
0.231 -0.3019611834685852 0.03891649846301474 -1.7551875062915102e-05 -1.6761035223229445e-05 2.8195229292105194e-05 1.04503879826591e-05 0.08339805860908639 -0.03423858110409925
0.232 -0.2982113994246272 0.06029078127759573 2.3323622796039102e-05 -3.5661862201241395e-05 2.806298474238874e-05 6.843525861482204e-05 0.08034687789472023 -0.04209435059514354
0.233 -0.2955944486741158 0.08576449835472102 6.220066484079936e-05 -1.8319784708098602e-05 -4.934979541538624e-05 -1.890501884794759e-05 0.07661633928041015 -0.04918534038531164
0.234 -0.28839115030989637 0.10572348873055831 7.520758509843488e-06 8.623350940024326e-05 4.774382182702258e-07 5.78741407744571e-05 0.07208226801048141 -0.056048246458454604
0.235 -0.28159145256499446 0.12981543772122306 -6.727144031304553e-05 -1.8409299209382154e-05 6.321725045562002e-05 -4.410430040510237e-06 0.06689631936817604 -0.06234772859667716
0.236 -0.27239691138616234 0.15045841541971092 -1.2864384119031273e-05 5.4284602182383694e-05 3.5339879272458975e-05 2.2517373477407398e-05 0.061096682487093365 -0.06831229723725929
0.237 -0.2610438913784171 0.171708266079408 5.287881848323513e-05 1.9202438618299535e-05 -2.827782255735949e-05 -9.49411754424765e-05 0.054662129465263276 -0.0739612282594181
0.238 -0.24770568962985995 0.19147029475268296 7.361176878478237e-05 2.166430373438459e-05 -2.824561456386491e-05 -1.7330132728527e-05 0.048160323067156 -0.07887387960298388
0.239 -0.2330546010993679 0.2099008535382592 7.671570836021619e-05 6.650451473108563e-05 7.72304217411214e-05 9.64469840326375e-07 0.041295469025968944 -0.08262829924972874
