!Created with skrf (http://scikit-rf.org).
# GHz S RI R 50.0 
!freq ReS11 ImS11 ReS21 ImS21 ReS12 ImS12 ReS22 ImS22
0.13 0.059452142810985105 0.1760864205291781 7.146477087576564e-05 -3.281140566177581e-05 6.209962717253262e-05 9.89421282262393e-06 0.036263181086270746 -0.039977377848815575
0.131 0.07280749819088043 0.17175156428176824 2.4465389942656575e-05 -1.3248308697543911e-06 7.410900624998376e-05 -1.6997025973513772e-05 0.03243704648347453 -0.043256729531466025
0.132 0.08710520687526296 0.16776014375142248 -6.989191848509504e-05 9.500777236968117e-05 1.1217270456640542e-05 1.1087253083772217e-05 0.028718017015908842 -0.046340696202221296
0.133 0.09924067043729075 0.1611927239123944 5.643097748595558e-05 -8.03467097103299e-05 2.1765823855652938e-05 -5.1757116735380625e-05 0.02500303186509785 -0.04893504881855806
0.134 0.11215622604897069 0.15486882897295023 -0.00012275876819930304 -0.00011668474361317448 7.673127387263753e-05 8.66753308526727e-05 0.02031357813448386 -0.051251107127096775
0.135 0.12640563664020416 0.14699456801039532 5.294775570437004e-06 -0.00012620612536070718 -5.034503246786452e-05 9.832660983292433e-05 0.015780955469928103 -0.053248949317267494
0.136 0.13491433191503804 0.13709337475146158 3.334852535739639e-05 3.312193689736844e-05 7.426197609058176e-05 4.900017348062765e-05 0.01133810179672098 -0.05467828207251896
0.137 0.14632908081957405 0.12710562860272845 -1.1368435246008355e-05 -6.214214637380838e-05 7.29383554316196e-05 -9.42424643923873e-06 0.006179851026073385 -0.055899519145662525
0.138 0.15625985661111455 0.1166267015216578 -5.0597319859793556e-05 -5.881832187636465e-05 5.05540285339594e-05 -9.055814408292636e-06 0.001195069636802214 -0.05671958920027461
0.139 0.1661241163774007 0.10522867416003095 0.00011579782156431302 8.338048365530983e-05 -2.7759282868047853e-05 4.604263540001276e-05 -0.003932830887137668 -0.05691116348671408
0.14 0.17465978851920985 0.09384041695038459 4.280277649277157e-06 -9.80344757612337e-05 1.8626494500669356e-05 -2.811240429384394e-05 -0.009030064586470803 -0.05663864579094955
0.141 0.18227375419143446 0.08102324906977468 -5.1261216760878604e-05 7.986192217181455e-05 -0.00012827325603809568 4.251760204896096e-06 -0.014126113536286643 -0.055701284766383266
0.142 0.18788682976695667 0.06675774555704606 -3.501513496488645e-05 -6.795193880046648e-05 4.460227767435184e-05 -0.00012540923937627094 -0.018640460130941387 -0.0546314315148761
0.143 0.19407007436847978 0.052660901411674135 0.00010828649744203678 4.905952461645891e-05 3.145456585013479e-05 -9.139117218002992e-05 -0.023772338393958203 -0.05293638687893347
0.144 0.1980326748013191 0.03767111961052147 8.458144689675395e-05 -0.00016125614538038118 5.003385514976844e-06 -1.6524223944177943e-06 -0.028600089381043962 -0.05069554524898801
0.145 0.20188575481720847 0.02355026443336532 -6.374042038659035e-05 -9.029046135559814e-06 4.249310356811935e-05 8.210625142964153e-05 -0.033272082763960514 -0.048531585527164724
0.146 0.20381059240257582 0.008299135953910053 -7.286991891431321e-05 -1.586323325058726e-05 -8.938948908052644e-05 3.781419172478248e-05 -0.037322788665556876 -0.04573169659286594
0.147 0.2051462683927031 -0.007093193506483048 -0.00012245031339084986 2.8621834829092275e-05 8.705747062285952e-05 -5.0667068692447585e-05 -0.0415649531516057 -0.042181599186766686
0.148 0.20547495294741625 -0.022288769173457464 -8.948705493164467e-05 -1.0005978470459966e-06 0.00017312298964160757 -7.067841075758264e-05 -0.04506962378793291 -0.03884518172375059
0.149 0.2040197376801871 -0.03795131733059289 6.564684851911401e-05 -1.166531940901922e-05 -3.657749293823124e-06 -2.8473105141916973e-05 -0.048943074702879924 -0.03467968492418521
0.15 0.2015315880757934 -0.05352742133029688 6.133754976646942e-05 -8.751652990277892e-05 2.4313175017803743e-05 0.00010309682284804722 -0.05169235918527174 -0.030449126565105414
0.151 0.19881242058570553 -0.06882448123109963 -6.451828163996703e-05 4.387809457680925e-06 -7.682404857982154e-05 2.5883666303781383e-06 -0.05452098309922343 -0.02560479582974746
0.152 0.19360842150304516 -0.08347799354208009 1.0889137232826355e-05 6.273984833941646e-06 -6.468692680631134e-05 -5.958368349346917e-05 -0.05706256534766589 -0.021078014772593544
0.153 0.18792957703129645 -0.09911186333178677 4.835217486995711e-05 3.834815757649492e-05 1.7039455471062887e-06 5.119625621116472e-05 -0.05873492548396846 -0.01619380436955629
0.154 0.1803267008930538 -0.11301424886836718 6.862227411714774e-05 -2.541048048344513e-05 1.3105556543232084e-05 4.0074294670716826e-05 -0.06019368807243894 -0.010952613561955529
0.155 0.17280395486576328 -0.12688634409042704 -4.611692651144994e-05 6.644825159664495e-05 -0.00015221172258002402 -0.00012882111005031973 -0.061316788540967865 -0.005398224595370405
0.156 0.16388805044491095 -0.14130261276368758 9.875471249302191e-05 -1.3641849434260737e-05 3.575605087674621e-05 -4.867457375723872e-05 -0.06187383688606884 -0.0002615403655602177
0.157 0.15342990761786335 -0.15290777808506475 9.944959443873385e-05 5.678392086275041e-05 -0.00011756118651283691 3.77907469994282e-05 -0.06198790156733319 0.00518484155579602
0.158 0.1427823948253164 -0.1653420563429879 -0.00011024596323463074 -0.00013303532615859773 -5.340869529208858e-05 -2.6828934727788482e-05 -0.06157945907546835 0.010563998097218533
0.159 0.13089082638053953 -0.17644813323958394 4.7554347884183536e-05 -8.645635335181738e-05 -6.43380751700739e-06 -6.460104367469258e-05 -0.06076318672814233 0.016228177568799518
0.16 0.11715088616286123 -0.18672906141081316 4.4564004565203036e-05 4.639677393380679e-05 3.053356532715516e-05 -2.4901874961955066e-05 -0.05924536249451065 0.02149038944423251
0.161 0.10222180252983898 -0.19781280614402336 0.00010077524815050668 -7.375345695423242e-06 -0.00012072828005871268 -5.5996188692086286e-05 -0.057542726095986846 0.026851720811903075
0.162 0.08952886452427808 -0.2046799908470457 -4.585004749469199e-05 4.536497964504992e-05 5.172852916610755e-05 -1.7042848899751966e-05 -0.055292424473576206 0.03186280993766879
0.163 0.07249564706636462 -0.21261240513999277 4.5841808191665674e-05 -0.00015023481612637122 0.0001639940731858922 2.078528512210532e-05 -0.05230488476243816 0.036965437853718384
0.164 0.056763644205903255 -0.2189344558574462 -9.467600909465611e-05 -7.713851270038515e-05 -4.990993801314203e-06 1.6631553826632223e-06 -0.0492526867722703 0.041603331878265724
0.165 0.040294885730325504 -0.22493490848047717 2.3609547594154053e-05 1.2321056197881246e-05 4.347207415369495e-05 -3.641431444341253e-05 -0.04582432305732765 0.046263806371329
0.166 0.02274372299370503 -0.2282090598845148 4.44889592740704e-05 1.0882360739611548e-05 6.8930870046156e-05 6.437244603237533e-06 -0.041699185455806496 0.05020740704777963
0.167 0.006491689078967421 -0.2304917914087494 1.683594729001956e-05 -5.712311291199643e-05 4.1420079239801135e-05 -0.00011009604440759297 -0.037119244176781266 0.05410360720787977
0.168 -0.012684912051508465 -0.23176219126706055 -8.577549147668523e-05 -4.9803601623096194e-05 6.455778801719365e-05 6.785809834765459e-05 -0.03257075634862537 0.057743013111237564
0.169 -0.030389699303385427 -0.23144231083601613 -2.8767254602751433e-05 1.5879354156860846e-05 -3.433303950588385e-05 -7.017446364029598e-05 -0.02745711780785051 0.060786464275027555
0.17 -0.049217173022413546 -0.22954705860851396 -2.6125366894924074e-05 -8.942778490549773e-05 4.037502033229105e-05 -3.5300950440283656e-05 -0.022129250063184586 0.063354563093547
0.171 -0.06591384024884402 -0.22585353142497064 -2.7420185637866493e-05 8.814382781044983e-06 5.771177525484085e-05 1.8063523267973032e-05 -0.01617916578605318 0.0654037452518038
0.172 -0.08382971716980442 -0.22162953597453774 7.129207993155025e-05 -3.261596056774512e-05 -5.530713771061355e-05 -5.599005731684506e-05 -0.010448884322375888 0.06694613371523418
0.173 -0.10042917933809685 -0.21506474461035022 4.555350835254314e-05 -2.4175436276952873e-05 -7.722216753423749e-05 4.0467355975765836e-05 -0.004578944185747728 0.06815231987045511
0.174 -0.11893010612247128 -0.20977422544443644 6.964902220445459e-06 -5.159702150061808e-07 -0.0001739385108762645 7.229789523101629e-05 0.0015665585859298131 0.06878404298676989
0.175 -0.13383228634843505 -0.19896999800233353 -5.328406172454832e-06 7.733622160857259e-05 -6.029386409479853e-06 -1.2840810455230434e-05 0.008168342719824896 0.06885310745504077
0.176 -0.1513455333796094 -0.1898950931054754 9.0126145269365e-05 -0.00018825926836929543 3.8094588619547237e-06 6.142905952847952e-06 0.013644892809779138 0.06784777262126276
0.177 -0.16673975403855293 -0.17856226857213575 -5.7243381939444834e-05 3.200658702645938e-05 -1.8034279511305367e-05 -3.851683616306912e-05 0.02016804213416489 0.06691187331121122
0.178 -0.1801725352460011 -0.16577691562222757 2.5948658058297232e-05 -5.0939986576579825e-05 -7.679953665954285e-05 -0.00012294224968919867 0.02624916264060853 0.06532772843204895
0.179 -0.19279919636830528 -0.15182019713444211 5.219741889823689e-05 0.00010874647547212499 0.00012615398945743536 -6.531674455336874e-05 0.03192588418082228 0.06301877621652309
0.18 -0.2050541644267743 -0.13668950390849877 -6.961909499459747e-05 4.248557998884189e-06 6.62466613879336e-05 0.00012612279120588414 0.037803391760571924 0.060534801238422586
0.181 -0.21636320384168858 -0.12113046445620897 8.191790384635659e-05 -5.480448612178045e-05 -0.00011044498293179481 1.3499796271256724e-05 0.043192546391775694 0.05708327566077395
0.182 -0.22610277769894888 -0.10397324796562589 -1.4840614018992376e-05 -6.194582715532236e-05 -1.3281975713413889e-05 -9.191305844243743e-05 0.04832463437577007 0.05323772586220193
0.183 -0.2341341038319569 -0.08681213612493961 1.1997413224859768e-05 4.809106002116603e-05 0.00014121228911827106 0.0001233298154929853 0.05385005584739132 0.04928373294300599
0.184 -0.24188669828546297 -0.06957410935029358 -1.5169981364253073e-05 -5.52714475989132e-05 4.826575314767572e-05 -3.851065295662847e-05 0.057810061841713375 0.04457879028050793
0.185 -0.24731618199556663 -0.05045753504940003 -2.686533115594011e-05 4.369967475515139e-05 9.70895619856816e-06 -4.7787746783108085e-05 0.06217665797012577 0.03951263911319942
0.186 -0.2509441741959381 -0.0306384194295369 4.954112048720274e-05 6.691281131341169e-05 2.3257317722771833e-05 1.469756207354563e-05 0.06546496815949981 0.033284419573842844
0.187 -0.2537407102614179 -0.011425224283209773 5.772411123256005e-05 2.39112624239005e-05 -4.09483555104336e-05 2.7880742879543526e-05 0.0688975435282355 0.02761673213462786
0.188 -0.2550984044971204 0.007828777434271557 -3.173100054795919e-06 -2.0795086010019358e-05 8.721156880333762e-05 -4.4161626980269616e-05 0.07154183339149559 0.02123543389803045
0.189 -0.2543347647877906 0.027608544150702383 1.628810319138437e-05 -7.101524307673476e-05 -8.586973786993909e-06 -4.168240760535864e-05 0.07344668813367566 0.015056350283657994
0.19 -0.2525479505783964 0.04673576200465505 0.00013316297739514242 4.492368345479941e-06 -6.790824938138838e-05 -5.0637417634113676e-05 0.07478594816827207 0.008193618296963412
0.191 -0.24942474101452589 0.0665416283580884 -5.249197063956752e-05 -8.040983072701891e-05 7.866326616147375e-05 4.123407364494089e-06 0.07588992553018369 0.0016864165957901486
0.192 -0.24482249549775786 0.08587055685942145 1.2867358562602404e-05 -1.4926100810797279e-05 -1.6294176978257123e-05 6.44345981074978e-05 0.07574183898477212 -0.0052550362925404045
0.193 -0.2380577478866301 0.10498046778193529 -2.6076649928042017e-05 -4.7233203114067544e-05 -4.870474495506255e-06 6.831233146112585e-05 0.07561681347245644 -0.012180070647710732
0.194 -0.23033761395929742 0.1220298801859666 -7.76360920209758e-05 -0.00012115218039686372 4.884866089905871e-05 3.548299765997813e-05 0.07432999243816578 -0.018912481100499215
0.195 -0.22148416164289816 0.1396616673366943 -0.0001290741841978535 -0.00013249835632297313 -6.010227998588703e-05 -0.00012106282319635979 0.07284279527744439 -0.02572374936938961
0.196 -0.21032291009832724 0.15754748499255877 8.412062721952037e-05 3.74168443078556e-05 -4.093508784935632e-05 -7.576217359840309e-05 0.0701876190684029 -0.032116459208064385
0.197 -0.1993906770353567 0.17304148075652886 -1.7325766337837976e-05 -6.85926682678127e-05 -6.950061118020158e-05 -1.4258526006257883e-05 0.06751555014651016 -0.038344429676332996
0.198 -0.18542703068105182 0.1897240957566324 -0.0001383207356187914 4.456809863378822e-05 0.00012215445502808996 -2.7274371140877586e-05 0.06403368299275575 -0.044830361799681015
0.199 -0.17264779187594917 0.2029277331617785 -0.00014685282507959614 2.8637874720706424e-06 -2.7712524287172777e-05 -5.681476363725006e-06 0.05993855514875686 -0.050364095697471904
0.2 -0.15750875419085184 0.21632663127993815 0.00010982946847297345 -7.988117648760261e-06 2.215331411287797e-05 -4.450103357662519e-05 0.05541263202199622 -0.05584879832534964
0.201 -0.14106673524283944 0.22785714055303527 9.053014410905598e-05 -2.818481292282227e-05 4.376560699270658e-05 -5.2060434123205835e-05 0.050220702350292065 -0.060614630986326946
0.202 -0.12388448588020914 0.23913305573646412 0.0001169116662786019 -5.668899894731362e-05 4.604281069742897e-05 -7.118624570861341e-07 0.04511121591395039 -0.0652695446440681
0.203 -0.10642944861200668 0.2494543704832316 -2.6858971246399664e-05 2.2375569454756893e-05 1.0666293193709126e-05 8.533054338043236e-05 0.03897006952972627 -0.06949712742473464
0.204 -0.08667249549772445 0.2575188778800286 -7.25974765996637e-06 -5.5494052159530493e-05 0.000103457724368355 1.7849005883483037e-05 0.033052339782749296 -0.07265797115354428
0.205 -0.06719801260179027 0.2653509485861781 0.00012570276912165368 1.770133064136443e-05 -5.4413570397349696e-05 -4.103847496371567e-05 0.026629160572028465 -0.07547632243179359
0.206 -0.0495185678605476 0.2713053184074958 -5.266738999049427e-05 7.357139000166756e-05 0.00011663183167988275 4.137757757052492e-05 0.019712876198591633 -0.07790899524887268
0.207 -0.029478725715107623 0.27523555462054816 -7.060071370111605e-05 -0.0001006675034515868 -1.1284464457065035e-05 -7.034684494033738e-05 0.012935505166846432 -0.07990764250805697
0.208 -0.007360591828256442 0.2774750216366632 -5.721471931291907e-07 -5.59453467792797e-05 -2.6150331585212618e-05 8.293825573573489e-05 0.005949163544163028 -0.0805759643443033
0.209 0.012406230633172146 0.2793419503991775 -6.955934506985545e-05 -6.493610443137205e-05 1.265834450412544e-05 3.294925474845827e-05 -0.0008983211076311796 -0.0813320142208733
0.21 0.03447154264570255 0.2805900356119437 1.6691150185188487e-05 -3.6205903613105486e-05 -2.7216392567691345e-05 4.6017542366429536e-05 -0.008179546541245215 -0.08112018572137755
0.211 0.053998293811251784 0.27810080671960863 -0.0001020810058035081 3.585142484390887e-05 -0.00015541387155915262 2.906736909054098e-05 -0.01537343545447512 -0.08046518553210567
0.212 0.0739201332341276 0.27355972198651446 6.47763548482889e-05 2.755884498653222e-06 3.6996361839693194e-05 -6.497161026767317e-05 -0.022830592423362668 -0.07917136867924625
0.213 0.0947980030191345 0.2703932626716296 1.265125568108856e-07 4.883280399779412e-05 -2.2510688871446153e-05 3.7412060441739985e-05 -0.029833693315203396 -0.07687232480689896
0.214 0.11597941088388623 0.2627082425816433 -2.681915927252132e-05 1.5970580459092526e-05 1.1169398769456211e-05 1.104294755478929e-05 -0.036367544330426285 -0.07429436019386576
0.215 0.13592292625385405 0.25609698997630914 7.832248909831041e-05 -9.704446186967926e-05 -3.281131928516454e-05 -2.595352370671684e-05 -0.04273243956810291 -0.07130579236624761
0.216 0.15608502279625214 0.24485702869038717 -6.992888609595369e-05 7.488712342186167e-05 -3.141014001681252e-05 5.502598865122512e-05 -0.04880805011405001 -0.06774020154593614
0.217 0.1755861073076713 0.23373923551694262 -6.065696778914618e-06 -7.653825444224611e-05 -4.502049355347416e-05 -2.9210474514522168e-05 -0.05504889575304603 -0.06336140016348446
0.218 0.19461067750605401 0.22230810223499883 0.00011462444547601329 1.1397534348146693e-05 -0.00010872259560299738 1.3003478667629976e-05 -0.06030212521783498 -0.0589202666330034
0.219 0.21069911840988312 0.20805824641819468 -1.5747579954126603e-05 -6.889567093268447e-05 9.05146597465815e-05 2.1218140471413092e-05 -0.06543531450412356 -0.053686444769018515
0.22 0.22707814018275266 0.1921561197198248 3.4092268320936086e-05 8.131637713064866e-05 1.3929885333283634e-05 3.9836703868939224e-05 -0.07020453831135437 -0.04739535410371437
0.221 0.24123224645044253 0.17566785280597208 8.407873735717401e-05 4.977355681159198e-05 -5.559392800493031e-05 -1.0948036324950427e-05 -0.07456851402849086 -0.04137388677772566
0.222 0.2562789245263422 0.15657365450132688 9.713120449460467e-05 6.327563770248696e-05 -5.1157854516064494e-05 1.6817178299977706e-06 -0.07841090868537526 -0.03507746070698351
0.223 0.26945402234068716 0.13786109130786198 -3.220579274825488e-07 2.0993265920325897e-05 3.604014615821873e-05 2.511310728862995e-05 -0.08104018708492669 -0.028052781097815314
0.224 0.28093828524335773 0.11852290831919794 9.710115558216871e-05 -3.496754111298417e-05 -4.453731028024068e-05 1.8825896369109213e-07 -0.08349293424825563 -0.02098649955642913
0.225 0.29037917261074386 0.09608204939570159 -6.649309964731873e-05 2.540994706002003e-05 -6.165805280003676e-05 -1.6313992106321319e-06 -0.08536034120511948 -0.013818191853066665
0.226 0.2982864279602408 0.07418488282622691 0.00011868606036268112 -2.4123779660014863e-05 -4.989145657386081e-05 -6.439035341232226e-05 -0.08705547538376178 -0.0062068072261897336
0.227 0.3037109758017999 0.051670288532886084 -3.772364789384767e-05 0.00010079172449298518 -3.343657771866406e-05 -9.265162828901477e-05 -0.0873196196221911 0.0010597186072821584
0.228 0.3085060474071697 0.02860889892946134 3.120475074636709e-05 -5.81033647043395e-05 6.055646603523994e-05 -3.515384398433666e-05 -0.08729916374648279 0.009211618622842581
0.229 0.3104965690324037 0.0055894714751381835 -8.625171161255948e-06 7.05645376083916e-05 3.781252024352975e-05 -1.9883433039701136e-05 -0.08674691441820538 0.01642040284869692
0.23 0.31167745867158264 -0.01848853201850589 4.0629796038010784e-05 2.457619034469203e-05 5.4142244699382763e-05 -4.796685686784073e-05 -0.08539117389464923 0.024082801753852443
0.231 0.3109985992833477 -0.04215634807164463 2.7321026198932917e-05 -8.887952169539237e-06 -2.3256700537938916e-05 -5.140319342511258e-05 -0.08307274660584656 0.03156415348969406
0.232 0.3072113760838576 -0.06513836480622466 -4.349335151991988e-05 2.838793154917066e-06 1.6669112173104592e-05 0.00015031042454472052 -0.08060196280366062 0.038931975323741215
0.233 0.30426747663205916 -0.09013377372282418 9.36021467952417e-05 -3.5103734283181383e-05 -4.97586266112501e-05 -6.5103656641811e-05 -0.07711454075352507 0.045906808500943225
0.234 0.29464682381745605 -0.11187296235667421 -5.0439680359070896e-05 -1.706829063811827e-05 -0.00011246095696223945 2.2768677404477902e-05 -0.07307795017171173 0.052623726304085676
0.235 0.2885574771939019 -0.13510183479364754 2.590667700764604e-05 -5.105535998723926e-05 -1.992757878051634e-05 7.329037598168751e-05 -0.06850371884560442 0.05915690930397923
0.236 0.27792392395085946 -0.1568043541179389 2.6227550481218095e-05 -6.497923017813937e-05 7.338331268008638e-05 7.219229842413283e-05 -0.06359636943672092 0.06514118331733494
0.237 0.26553877557714417 -0.17809586290099577 -0.00011971509048863422 -1.1115511697417146e-05 5.277879704058735e-05 5.610934599897638e-05 -0.057132454805101825 0.07090784497366685
0.238 0.2519217898924672 -0.19765397721807929 0.00011861947928350958 -3.0508894879759162e-05 -1.1174644998368805e-05 -0.00014540891212839663 -0.05131019705566325 0.07610406694200736
0.239 0.23654051671176624 -0.21580198149506533 6.741916641212203e-06 -7.736419441397828e-05 -8.501949231026046e-05 -3.832638241714951e-05 -0.0446243803926135 0.08022051442331293
