!Created with skrf (http://scikit-rf.org).
# GHz S RI R 50.0 
!freq ReS11 ImS11 ReS21 ImS21 ReS12 ImS12 ReS22 ImS22
0.13 0.0024360840845930294 0.0009270353449406323 4.671142439153826 0.34792641264378477 0.0021991787285157755 -0.0001875317789892437 -0.00016249657264209562 -0.0007989749868109693
0.131 0.00251947014450654 0.0006148039246966192 4.676637488177811 -0.1120035571712546 0.0020646449722463737 -0.0002606805221576286 -6.46732321364843e-05 -0.0008282483925579948
0.132 0.0022481428221735955 0.00012730322089204348 4.6327846943636315 -0.5538316712476464 0.0021049618297792378 -0.0005192466044368209 -0.00025078323498924776 -0.0008101888409869176
0.133 0.0022551448837808655 -0.00015472605343111323 4.565617137787517 -0.9791579226978436 0.002062718102680142 -0.0007016494740912454 -0.0003669476092119609 -0.0005647968322677297
0.134 0.0020030642487758703 -0.00039958785286725514 4.458623273995252 -1.420517037626318 0.0020717342808416216 -0.0008284625660279259 -0.00044240726175476903 -0.0006147192099901408
0.135 0.0018647809639242674 -0.0007075201790139057 4.306212973325242 -1.8263199941518646 0.0020844492829517006 -0.0009645652640191314 -0.0004121669788564356 -0.00039943938583390136
0.136 0.0014806208882975572 -0.0010507191574377671 4.111636467327713 -2.2183015070467507 0.002071835310349123 -0.0011586604853975953 -0.0005119579448745718 -0.00041573248454019766
0.137 0.0012418040513528725 -0.0012201510334136764 3.8893582737466725 -2.605887787317154 0.0019374636175746485 -0.0012201412979101847 -0.00047690468044210327 -0.00021843840739961003
0.138 0.0008354881091002652 -0.0011780936992303738 3.617279598323538 -2.9496884977426046 0.001837824179517152 -0.0014786184164134305 -0.0003785217819730191 -9.163961962128554e-05
0.139 0.0003853881304519804 -0.0014740060279554831 3.3137460689971174 -3.278688489609999 0.0017418739295859006 -0.0014535294317979206 -0.0005517552864960849 1.5351686708021443e-05
0.14 0.0001475316903079843 -0.0013522132688699934 2.990359097899485 -3.5751413506632823 0.001671670562145833 -0.0018086503892491526 -0.00046703024938950244 0.00019576716211299538
0.141 -0.00033461963287884566 -0.0013251388257947846 2.623754200241871 -3.842789580237779 0.001633031350158893 -0.0020049999718147822 -0.00038382454729198425 0.000340794097942202
0.142 -0.0007051142613688557 -0.0012378042894100373 2.263776011665387 -4.095146334108095 0.001487173168677895 -0.0021154508370424506 -0.0003678233020672465 0.0003263177657131688
0.143 -0.0011236228183304933 -0.0009053346623365628 1.863100004230058 -4.281643196330002 0.0012365809548502032 -0.0021339181744609572 -0.0002010541287278025 0.0004692888122745366
0.144 -0.0014902457210299097 -0.0007757728195939005 1.465743263466423 -4.4267332363847105 0.0011686823574916982 -0.0023462169431915005 -4.573619587265038e-05 0.000453586110754483
0.145 -0.0018241498987592952 -0.0005705068730069815 1.0180322835823936 -4.545098220640903 0.0011363493958433826 -0.002473354146804135 6.661617768223827e-05 0.0004661557454392508
0.146 -0.0021503824498656197 -0.00025183903868460816 0.5896740639259761 -4.612607378097359 0.0008290527746782323 -0.0025863159250777393 0.00017910025489808673 0.00047625188076192505
0.147 -0.002400861130631703 0.00021301730354792328 0.15069068248986467 -4.651612534654424 0.0005304457861783355 -0.0026553755635739086 0.00019878274250318393 0.0005194338612637897
0.148 -0.0024093094449150706 0.0006933477608802751 -0.295846313972697 -4.6397473984017665 0.0005207601014118645 -0.0026587497566331673 0.00041625128288739664 0.0005788334802104206
0.149 -0.0027069486445781012 0.001383911739543386 -0.7056977472709997 -4.593322832836135 0.00021282268436676206 -0.002699462654070015 0.0006259446777126007 0.00046211888691384567
0.15 -0.002572020717214663 0.001786352978867675 -1.1347396038473665 -4.502773164091607 0.00010563572062796392 -0.0027507533253089624 0.0007446956230459041 0.0004000412535349398
0.151 -0.002499969513417869 0.0021576778642685363 -1.5732173328377026 -4.359332129213428 -0.00017613558474670362 -0.002765296926353036 0.0007452991530350864 0.0002618817012203165
0.152 -0.0024648680791849406 0.0026891952312655017 -1.9851074165079887 -4.192718729529457 -0.0003938656995015822 -0.0028576107524073357 0.0008055280846782781 0.0001904231192914425
0.153 -0.0022191999926017944 0.0031971015756355955 -2.3376758450917645 -3.962406164390175 -0.0004715799280895717 -0.002819231260974136 0.0009768920411010694 -7.361697978336525e-05
0.154 -0.0019000080052121722 0.00352800630340249 -2.735205780175352 -3.7298167113788905 -0.0007823546119496399 -0.002839866757028136 0.00104546541873992 -8.654852606605527e-05
0.155 -0.0015463560951717108 0.003914692066974005 -3.0341961717922024 -3.47797290375838 -0.0009527623477919531 -0.002941852305686345 0.0009345193916201953 -0.0002264819789439897
0.156 -0.0012687104706439343 0.004101708911562468 -3.394714139613804 -3.154390533521659 -0.001176154393447032 -0.0027406640460547345 0.0009014225037014753 -0.0004396150939509063
0.157 -0.0008568817295149771 0.004471720875907185 -3.6582869735866463 -2.8261708263711225 -0.0013741088599934798 -0.0026091606407029756 0.0009779969593562683 -0.0005738411860218989
0.158 -0.00032013751226674445 0.00466967261754907 -3.8616395733022895 -2.4608760484013925 -0.0015205880591875375 -0.00266764926302021 0.0009663987445382807 -0.0006129811066483628
0.159 0.000164341702053686 0.004838537525587049 -4.112210197212 -2.0861022997219654 -0.0017392451141654323 -0.0025484435029517138 0.0006817072450631833 -0.0008110224036926676
0.16 0.000604181778060623 0.005008147767722574 -4.268881190206589 -1.681557019977958 -0.002040611805179771 -0.002396518792489988 0.0007343990841676341 -0.0009324957895396823
0.161 0.0011506805864166544 0.00490926369241185 -4.409261296098097 -1.2721468486996812 -0.002203626627292145 -0.002283790995732694 0.0006029753458535744 -0.0010082626187453664
0.162 0.0015015599720781655 0.004823038600002687 -4.515015413312971 -0.8508258003050093 -0.0024377605618746486 -0.002087223446131268 0.0004882497831318845 -0.001071753612586125
0.163 0.0019918512491300137 0.004628327101743483 -4.570914283638304 -0.4137235623051742 -0.0025663042416020298 -0.0018655986603041937 0.00036824693260362716 -0.0010177912250610877
0.164 0.0024114721220891695 0.0045182133659290805 -4.6071441563381 0.017589736793174455 -0.0025809342375236756 -0.0018420246525512134 0.00022207511525116 -0.0010561055576062196
0.165 0.002745253174378259 0.004111595147479225 -4.5696829125137315 0.4525911712155959 -0.002881736586089126 -0.0015901889036010564 4.298074826742837e-05 -0.0011540995341897979
0.166 0.002981173418583233 0.0039013624068171284 -4.510035900816025 0.8613551450459491 -0.0030787524164756046 -0.0013717550450582116 -9.912517386063766e-05 -0.0012038737146307305
0.167 0.0031876861683119945 0.0035456278979244865 -4.401871071322221 1.3078118215702321 -0.0031095040715819616 -0.0012048290864707862 -0.00012140562854153336 -0.0009788374003538113
0.168 0.003450336327093047 0.0031727034807839494 -4.26267121636579 1.7202029678621327 -0.0032733243023482864 -0.0009871061519156274 -0.00015168623924182234 -0.0009564430892759223
0.169 0.0035401920845276515 0.002858209140977377 -4.085100635963024 2.111723594189391 -0.003418975241893383 -0.0006298127495386375 -0.00026392569236162016 -0.0008321172989669566
0.17 0.0036091905762323795 0.002451113117431444 -3.852602338610636 2.4840225382987167 -0.003361170998038685 -0.0005239039563791888 -0.00034118092027776394 -0.0008279912647116725
0.171 0.0036319904014061317 0.0022007285725281506 -3.605061177362389 2.8412041023370302 -0.003417418224330133 -0.00016555155587467992 -0.00042527772048356176 -0.0006771915842255388
0.172 0.00341838709355221 0.00166877364905075 -3.3254957465459816 3.1730581110784377 -0.0035416289414211865 -2.3663174061904325e-05 -0.000579408460378998 -0.0006314485447000758
0.173 0.0033795985627939934 0.001360155888312826 -2.9990038054539423 3.464244008560791 -0.0036182440534934883 0.00023318867876178924 -0.0005442641289373508 -0.00043791737180684835
0.174 0.0031006511422622548 0.0012306678279942682 -2.6839397650412318 3.731445708328944 -0.0036255405235581977 0.0004366320544434489 -0.0005099802824482703 -0.0004301806485341209
0.175 0.002844812989584046 0.0011629381733680914 -2.3095400246946673 3.9633376407808525 -0.003474974674329072 0.0007139024288544291 -0.0003954021020419888 -0.00029618554967865033
0.176 0.0027126588446409463 0.0010497887672450644 -1.9207859306160897 4.160536823900854 -0.0034373197716448894 0.0010647472979502287 -0.0005062179743604294 -0.00014597772455881287
0.177 0.0024736471154087635 0.0009281279269605188 -1.512259832816687 4.336144964638906 -0.0035044860874814095 0.0014192405094125668 -0.0001979285490061532 -0.00019567441466172703
0.178 0.002209225089283619 0.0010549945593255415 -1.0961949127465809 4.432628240937928 -0.0034563060068868003 0.0014565587287289105 -0.00022387280562021942 -0.00017226914685368
0.179 0.0018776552345278908 0.0010259988212232333 -0.7052417740086301 4.5084059462568735 -0.003231223820777741 0.0019247630843008596 5.6437981233962615e-05 -0.0001296534089426657
0.18 0.0017201842421036486 0.001143208892709765 -0.2700309296658301 4.5735783880377925 -0.0031691395714370783 0.002085820647814028 -3.615966355492672e-05 2.6430059707451476e-05
0.181 0.0016331816639345085 0.0012752642671564171 0.1520521584196268 4.568515275110631 -0.0031240825918028544 0.0024857030820586946 9.428056626889866e-05 -0.00017142096051981278
0.182 0.0015327482105993826 0.001682923323737002 0.5984979296450973 4.548439347051781 -0.0029302434178714444 0.0025910361402378943 0.00030527663943093495 -0.0002423356591159272
0.183 0.0014186092496212054 0.0018848296343798375 1.0134000239533891 4.451785922107763 -0.002680349895612273 0.0029139015415376836 0.000404369878531507 -0.00030305373983387766
0.184 0.0014597135428555184 0.0020741354960888358 1.4456841820075446 4.342328342226029 -0.0024911058595035182 0.0031414091917348957 0.0005035881811372321 -0.00034633409312822855
0.185 0.0015873924355728473 0.0025101728786467 1.8513696075204946 4.188950930816163 -0.00232754937829959 0.0033478330779609993 0.00038072317251846405 -0.000501598458313108
0.186 0.0017416910862348683 0.002698048845123228 2.239222752832376 3.987253766682071 -0.002089417637191889 0.0034543954391625933 0.000466663748102559 -0.000678652988229256
0.187 0.001971585832276101 0.003038016054980748 2.6044420591902293 3.7493733660062922 -0.0018333107367769063 0.0036852283619617887 0.0003871456475064307 -0.0006870618851629025
0.188 0.0021949059724080972 0.0031870868790397043 2.930664897051428 3.4747915402062173 -0.0014985664301178237 0.0038785859713749518 0.0006627237691285545 -0.0008533327290229795
0.189 0.0026637535028526007 0.0034214532935913943 3.2314249181337225 3.1716172375742264 -0.0011549669290245668 0.004016477597901051 0.00033043019029236015 -0.0010598202478857015
0.19 0.0029947795346653176 0.0036912929007426667 3.5208127591035585 2.889858087536539 -0.0010787076395018208 0.00415818596169913 0.0002840905751163838 -0.0010966459455054225
0.191 0.003396316291185194 0.00381675904512336 3.775559074922678 2.516051500363596 -0.0007665074018942522 0.004293990919945134 1.9732183507734345e-05 -0.0011622422910803534
0.192 0.0038315151552785224 0.003687451308909948 3.989248436287563 2.131423596793577 -0.0003776718217536177 0.0044567589574399024 -5.408092467408925e-06 -0.001555373803373076
0.193 0.004266003025905473 0.0035905189993777026 4.182169946531851 1.7873525290523582 1.098736461895105e-05 0.004355655163531748 -5.974147927675858e-05 -0.0014719169148256267
0.194 0.0049955702956352935 0.003591127646718523 4.319337665206061 1.3589687090711122 0.00022184256395498035 0.0043934639345946 -0.00034966808666677475 -0.0015259661070442883
0.195 0.005404112398948417 0.0032869883281812966 4.46142705363817 0.9266296080235219 0.0006563204258743491 0.004346932196582366 -0.00045989838641793523 -0.0015989180928979731
0.196 0.0057924522061075 0.0029664651337151207 4.48764607493513 0.533843313231858 0.0009235411948025005 0.004420441244616829 -0.000662484134932294 -0.0017059849030453425
0.197 0.006340870384221159 0.002639652476331966 4.538349108866427 0.10444453838662092 0.0012371008040182208 0.004430330730962552 -0.0007155442639896686 -0.0016169192544900465
0.198 0.006780970648056133 0.002107955270645632 4.517861760412044 -0.33511569990773793 0.0015518393673758187 0.004398453647744322 -0.0009651572119579619 -0.0014653458517278433
0.199 0.007092493110725022 0.00155538155856852 4.475363891326569 -0.7429999922394043 0.0019720219729596196 0.004237308393943171 -0.0013231640436966166 -0.0012522113077631308
0.2 0.007265356110540906 0.0010131879961514164 4.371175200162872 -1.1788421438619925 0.0021746269723788817 0.004114886071426429 -0.0014473653874855778 -0.0012512621852417988
0.201 0.007450762665916119 0.00025457613364132984 4.241231975938395 -1.5677946597989039 0.002575675491418348 0.004196695361027219 -0.001533845797027225 -0.0012452035760506636
0.202 0.007474174355666259 -0.0002987966749118184 4.072865710373677 -1.9803717287636113 0.0028897317431766175 0.0038109640300551867 -0.0016603423521687525 -0.001001026822448994
0.203 0.007416475657226197 -0.0010308475795981402 3.86545362348331 -2.334810994480908 0.0031856809948711934 0.0035963084517255215 -0.0017927697342792351 -0.0007792278157427345
0.204 0.007376993427327287 -0.0016192879496232382 3.632003080424296 -2.6942528429467805 0.0034563733458805907 0.003421905972846138 -0.0018452637742109206 -0.0005718663473496985
0.205 0.007153876080869029 -0.0024007058689822325 3.3629164350993643 -3.0143112346971113 0.003869848272119901 0.003231035998272198 -0.0018622581036544605 -0.00033229508494090704
0.206 0.006763820300385811 -0.003060757312294386 3.0522145891727708 -3.3136316882559895 0.004114232045323808 0.0029964562019683025 -0.0019579977041872857 -0.0001731859285937104
0.207 0.00629858843089608 -0.0036015067008104942 2.736199302606345 -3.581785167950033 0.0042354175080365685 0.002722883511528622 -0.0018002782810577157 -6.925805051198764e-05
0.208 0.005822647074839176 -0.004101661613587529 2.385124316979158 -3.825697051097233 0.004660547023456959 0.0024784643959455646 -0.0017651752070937312 0.00036138538015089035
0.209 0.005193924932877938 -0.004513456068514284 2.0012114513826 -4.031345316413858 0.004547457146216631 0.0021400791822249604 -0.0016701698377730404 0.0003590539540521773
0.21 0.004591444433675281 -0.004850942141580138 1.6351015139175464 -4.191116581673154 0.004904721736330126 0.0017477740348375115 -0.0014965074273066187 0.0005868985971368682
0.211 0.0037513266920903244 -0.0051963380903088515 1.2372576995168731 -4.3326622407316275 0.004920241613009697 0.0014050952898271751 -0.0014164788999294123 0.0008789495009957915
0.212 0.0029826285566248996 -0.005289012171996407 0.7992521728419338 -4.411334085488904 0.00513117942950557 0.001001712092460861 -0.001145679700358126 0.0008958580467897697
0.213 0.0023116826332874067 -0.005286908916836038 0.39299645093994 -4.477904902843128 0.0052394803779098826 0.0006491522973570742 -0.0010908917654770683 0.0010067561167091494
0.214 0.0016170282913959492 -0.005164138190206841 -0.05962550490329701 -4.484711070394974 0.005209122940367905 0.00032065336244270785 -0.0008865500793081092 0.0011043100059289004
0.215 0.0008219063794789139 -0.004852561389151057 -0.4750487102896432 -4.469944882457731 0.005421057878088176 -0.00010707983040023738 -0.0006854307224856916 0.001124535704915821
0.216 0.00013390783667914424 -0.004513900511407261 -0.8807786406979463 -4.405990499153599 0.0054490687787532134 -0.0005399922355338481 -0.000576874526797181 0.0009382120482496891
0.217 -0.0005461648399709262 -0.004183795215231002 -1.2574965596769907 -4.296822791353137 0.00542135570191508 -0.0010007751888804419 -0.0002684793215563923 0.0011037006897427512
0.218 -0.00099763221009419 -0.0036416562443162 -1.6885971011276593 -4.150879879360175 0.005380731198716993 -0.0014114809762670554 -8.243877473969141e-05 0.0009970616775257857
0.219 -0.0014412720712902616 -0.003204754985972693 -2.0739187050698478 -3.964143816319539 0.005249620330057574 -0.0017403953762214076 -4.253888743855662e-05 0.0009209827633548563
0.22 -0.0018156766426041398 -0.00236824110098695 -2.452361708396913 -3.761691022728778 0.0051496668274187436 -0.002071315183486541 0.0002731129308378389 0.0006423176727853388
0.221 -0.0018924229580317635 -0.0016950883926650545 -2.75901878679241 -3.499798646556913 0.005071137134744914 -0.002451568781559946 0.00036111471138174675 0.0004896572897436357
0.222 -0.0021223863496410505 -0.0009314553823710366 -3.10503677693735 -3.2479938260066863 0.004881913867840147 -0.002857986454346438 0.00042669283683628934 0.00031277468019307904
0.223 -0.002097478046757647 -5.950378951014823e-05 -3.3906546235369865 -2.9385341051758136 0.004869157868672279 -0.0033354937540226426 0.00041370766252051764 0.00034601395039361325
0.224 -0.0019282425817273882 0.00048299962280832777 -3.6407280131415147 -2.587928487581603 0.004485638304326095 -0.0036851082486956685 0.0004617120928603845 5.975925824313765e-07
0.225 -0.0016584993525217031 0.0011569179356405756 -3.8365600629537076 -2.245836309340839 0.004289449228151077 -0.004025475179240371 0.0004249464238713633 -8.20977200662131e-05
0.226 -0.0011716572128979668 0.0018017725680121517 -4.083452884166737 -1.852202108133182 0.003991290502046054 -0.004494325946247623 0.0003880088351266743 -0.000406538256752351
0.227 -0.0008113427252351527 0.002506355606870711 -4.2240090297056 -1.4660492175535602 0.003671794862152871 -0.004714572202148465 0.00035096982118633445 -0.00038157759727174077
0.228 -0.0003316140649958964 0.0029939907509001534 -4.33913788366951 -1.0755863319525956 0.0032278860647841187 -0.005064860974958907 0.0003150635817474973 -0.0007003075037145205
0.229 0.0003351327756318764 0.003475519608256211 -4.430451045197514 -0.6374511337088341 0.002893837818955769 -0.0052042924691799 2.1533413359446585e-05 -0.0007275435226612997
0.23 0.001146981481859578 0.0036343043391431156 -4.4692844500188 -0.24644860839244717 0.002718152789321012 -0.0055156600026662825 -6.589767357672907e-05 -0.0008344000982915378
0.231 0.0017301969056541819 0.003856330007219618 -4.472164791656702 0.2038130854735885 0.0022807676023352866 -0.005808639301871479 -0.0002624623323910932 -0.0010331526649047472
0.232 0.0024711890493871818 0.004019684592379729 -4.428161608171534 0.6223375286095109 0.0018278812774871892 -0.005949702581031518 -0.00028821184891936614 -0.0008770446504564021
0.233 0.003256859188291824 0.0037662500837849036 -4.359284190096176 1.0158158109302813 0.001444971922114595 -0.006129083906194443 -0.0005769722191067781 -0.0009657529219289212
0.234 0.0039703832341554035 0.0035842727205806415 -4.235239829392867 1.4325198216862263 0.0009918027635372267 -0.006248210331640354 -0.0007498991234526393 -0.0008588687128157323
0.235 0.0046270344350624725 0.0032978145216994684 -4.090237664536494 1.8204229029262065 0.0004718790177036893 -0.006246172187817874 -0.0009323496362127169 -0.0009555184259836061
0.236 0.005318828741838585 0.002821330420561171 -3.889983029354268 2.18407272360271 8.968022876124836e-05 -0.006447645239870361 -0.0010863766896387688 -0.0008494863782202829
0.237 0.005730764988938217 0.002432334867315294 -3.6693549261641123 2.551455514098887 -0.0003862499158127278 -0.006379366038642878 -0.0012126200499263946 -0.0006954844693177057
0.238 0.006247681745126946 0.0017673751807722603 -3.3999107238628823 2.8846094271836185 -0.0008418870253620906 -0.006535890926740663 -0.0013889526595699617 -0.0005033937052013183
0.239 0.006642180440811737 0.0013235069462371153 -3.116777747577527 3.173386692038865 -0.0014067442954752252 -0.006430424375837415 -0.001444634385766482 -0.0004654732893558711
0.24 0.006902127845409624 0.0006327038913298324 -2.8077957229861723 3.4692729950396064 -0.0018831273576378513 -0.0063541496847829716 -0.0015119171919144954 -0.0003280535334653668
0.241 0.006986506225025359 -0.0001349861064002302 -2.482582394504772 3.7077810728535043 -0.0023469509714064913 -0.006258987051209455 -0.0015470279544310423 -7.705790705557674e-05
