!Created with skrf (http://scikit-rf.org).
# GHz S RI R 50.0 
!freq ReS11 ImS11 ReS21 ImS21 ReS12 ImS12 ReS22 ImS22
0.13 0.8103552908045196 -0.4887718034356751 -9.91538921544204e-05 1.456145212479643e-05 -0.045732376546832314 0.006600948629335477 0.626321880553217 -0.754657765632812
0.131 0.803254406318193 -0.48478434488456723 -9.53316700168804e-05 3.0113328498210063e-05 0.0021561765725205645 -0.030708851684962925 0.6289951446218223 -0.7622083180131283
0.132 0.8063911695780558 -0.48714606724495435 -0.00011489656564379857 3.1051782907361484e-05 0.006512490394062409 0.004750162582066696 0.6182011987875256 -0.7643821926047979
0.133 0.7972603778208421 -0.4954099853454976 -0.00010841988260319431 2.8839728221843117e-05 -0.022765996618337735 0.05460436130917844 0.6066113966943711 -0.7643178864289523
0.134 0.8081519924527598 -0.4943935481105416 -9.38016790794579e-05 7.100128782935096e-06 -0.010118907027768494 -0.009984306219924865 0.6105270337942366 -0.7712410758084812
0.135 0.8012517397697285 -0.49796118611741397 -9.308102549633905e-05 2.6278304433565215e-05 -0.002728761522465269 0.03511739529490325 0.606285137759155 -0.7701116574613323
0.136 0.7972027239641668 -0.4967912690599561 -0.00011357552345645636 2.594618611310781e-05 -0.02216138296245121 0.012638338367217434 0.5973311023234519 -0.7728632810207655
0.137 0.7932731617879543 -0.5054119665867397 -0.00011092485240153764 1.4429673367777834e-05 -0.01800357277839766 0.028952225226273522 0.590499259969089 -0.7815597321425728
0.138 0.789539159578248 -0.5060325010412908 -9.45244885927349e-05 3.171151783731013e-06 0.02727741536251052 -0.04291555355529009 0.5894764549151885 -0.792896612382786
0.139 0.7871276371903075 -0.5086061940105382 -0.00011123071840834249 1.8546124712643846e-05 0.05669308616905656 -0.006478732742131319 0.5841406614033192 -0.7870462032591647
0.14 0.7902955316795289 -0.5171515119311725 -8.639220494801237e-05 6.97062506675599e-06 0.037818495222348494 -0.07637227973617602 0.5762612335835214 -0.7925450861969728
0.141 0.7874962497888535 -0.520323878288666 -9.220403124732074e-05 2.254215097908233e-05 0.017304578350116114 -0.03200418722459046 0.5666378938272917 -0.7870064065122784
0.142 0.7841266136831536 -0.5221899647412085 -0.0001019331175082133 5.966219505724201e-05 0.004060308470819843 0.016431495452188936 0.5680315609294202 -0.7932983721417514
0.143 0.7771866869503578 -0.5196524863790292 -8.624959686642546e-05 4.264263925570227e-05 0.005243533755209901 -0.02109516280839824 0.5600910640025009 -0.8057615679630988
0.144 0.7769659129763411 -0.5238511538507016 -9.0257179583975e-05 3.7580314148988584e-05 -0.011146167326868257 -0.015606332988148348 0.5533209503111123 -0.7968618332357539
0.145 0.7785102996291766 -0.5285905953693878 -0.00012037748090381257 2.658969016721549e-05 -0.0003055184509887095 0.027275615265707667 0.554376820739349 -0.8115546081629882
0.146 0.767462193881414 -0.5297458702295974 -0.00011773987621426157 2.8387441083877523e-05 0.015803272151100972 0.041586579704070196 0.5522742754202035 -0.8092657846408366
0.147 0.7700988819543279 -0.529902126827818 -0.00011826846409013751 4.623042761615807e-05 -0.018339688298131276 0.0023880069355542 0.5399892892594469 -0.8120294356249325
0.148 0.7646434633010257 -0.5321184796686307 -0.00012685076999337916 5.0943477048585364e-05 0.019960764782680385 -0.005080904509069084 0.5315003449283261 -0.81460749572523
0.149 0.7588352376323436 -0.5341727796599406 -0.00010395697660651096 3.057993362444468e-05 -0.01943751593281363 -0.02332511965233601 0.5278793902656417 -0.8149769284801719
0.15 0.7577404618564872 -0.5407698230638371 -0.0001496973833912729 2.8011726883683706e-05 0.01920356075653798 0.015258705860835478 0.5226433644209363 -0.818775965291267
0.151 0.7559323861245146 -0.5374328458513591 -0.00012409697801090398 3.6558697680088836e-05 0.004152940941452599 -0.022557358050274624 0.5170943792288146 -0.8190285860146741
0.152 0.7520984081015385 -0.5464335324929878 -0.00012172724867687309 4.193765323657575e-05 -0.025887144110697435 0.004961604767091117 0.5098792117426213 -0.8276895153274039
0.153 0.7541549311834407 -0.5418519953126568 -0.00014843619535609483 3.10717476919243e-05 -0.00526234243341011 -0.009976969301253401 0.5115300509098345 -0.8292127082953854
0.154 0.745872824055251 -0.5490550047311452 -0.00012637158332966787 3.6428524794590025e-05 0.01911397250320098 -0.015578021362306295 0.49909549460861286 -0.8375529435773016
0.155 0.7427372898115752 -0.5501939470403934 -0.00011718199059172723 5.548016956340105e-05 0.02540536140405139 -0.0126506794924106 0.49618223354667484 -0.8388174229742429
0.156 0.7426073576695018 -0.5536979838649013 -0.00012179686737114015 4.84988969224458e-05 -0.014305245687627012 -0.041072261994380556 0.4878371499994176 -0.842189384603625
0.157 0.7401637890987739 -0.5548940690877027 -0.00013033231832726923 5.575715166596049e-05 -0.041471954626647385 0.00463878703020777 0.49053340815132396 -0.839227584966333
0.158 0.7331066912579258 -0.5543534954263393 -0.0001462237973443976 4.71490716594906e-05 -0.010045536770478437 0.0030975002418417367 0.47949859380820314 -0.8404564020199241
0.159 0.7354089926772781 -0.5624246245326363 -0.00012271126927088856 6.663666975860868e-05 0.008172499019739819 0.003437769007345028 0.47656133446323606 -0.8463993010558934
0.16 0.7342571820390035 -0.5621941735896199 -0.0001617732382248091 5.325521291315632e-05 -0.01146806190561478 0.009043826206371935 0.4727327296164887 -0.8473493866587055
0.161 0.734629920768298 -0.5647983674139123 -0.00013412187344568702 4.8201225205209056e-05 0.007102729213547928 0.0049657864274961425 0.46221584751623046 -0.8572534338880446
0.162 0.7263554107379752 -0.5643486163803451 -0.00015219831659565625 4.7363351666102814e-05 -0.008324138130343531 -0.03413506093193905 0.4616119586014274 -0.8532062403936861
0.163 0.7263115193410068 -0.5695930128382569 -0.00015117725892042447 4.7421106418485446e-05 0.017789860324878205 0.012050434327982642 0.4533842527433934 -0.8585143176646493
0.164 0.7155824273038087 -0.564983244825946 -0.00016151180950708022 4.993799472241287e-05 0.007459679321674569 0.0009945861086352867 0.44748935324086736 -0.8612308627948504
0.165 0.7275578213420418 -0.5711374761333164 -0.00013931756534192399 5.8252210325095926e-05 0.03897577324577437 0.022371739519368328 0.44150556831871995 -0.8623150060585614
0.166 0.7165808672854717 -0.5725152069243783 -0.00014720802265032619 7.279271310257984e-05 -0.027250672326378515 0.010739124731081002 0.4391452522848622 -0.8647350622466591
0.167 0.7111697844649247 -0.5699480659538434 -0.00015702885038646052 8.445384157884723e-05 -0.020675174042637266 0.00632478631364099 0.43213878441036824 -0.8643215634740699
0.168 0.7061742668953436 -0.5863285031564645 -0.00014599745028564057 8.116385080732895e-05 -0.00043759066879260345 0.01762507753508231 0.4223646914532233 -0.8694387130696163
0.169 0.7048896940038823 -0.5804299245359957 -0.00014571993874979466 6.765847808502416e-05 0.01227924883105756 0.013420975452718847 0.4187268903030372 -0.8694288003134909
0.17 0.7021940880449545 -0.5918421791002951 -0.0001554803655512444 6.264219205376158e-05 0.014951269222605604 -0.001186703211404567 0.41519945297515154 -0.8758218935426427
0.171 0.6988385732685849 -0.5873390949315106 -0.000154249829296445 6.834124345510142e-05 0.0024932505407516143 0.003307586941563766 0.4127448947766775 -0.8725139559451699
0.172 0.6924887570304453 -0.5854555647451345 -0.0001791055147507619 9.996216844377755e-05 0.008669510659099072 -0.03651334535450016 0.40527150233089687 -0.878292318798994
0.173 0.6963028172767001 -0.5910199336603239 -0.00015663397472587176 8.30281932726484e-05 -0.004014961510022187 0.003225926894448411 0.39968964497801235 -0.8817554500554216
0.174 0.6895419123586677 -0.5862838112957893 -0.00015774079212273957 0.0001110097239454932 -0.014367182226984547 0.00941125628443678 0.39124688046512907 -0.887792044501211
0.175 0.6774026391383404 -0.5995503132618887 -0.00015763535489759112 6.522802276980776e-05 0.003225032164766991 0.0014340725474723231 0.39395166637896234 -0.8812541976799869
0.176 0.6823395517241448 -0.6017887328040602 -0.00019070684292197502 5.7546298021903604e-05 0.024939012847636385 0.019111205842938253 0.3793147346098269 -0.891489465485786
0.177 0.6832811875416541 -0.6033501195650125 -0.00018186786958667068 6.77892563387177e-05 -0.02332116257922296 0.011051347303361186 0.37730316012787934 -0.8836135462192912
0.178 0.6877654612382219 -0.5979934292291122 -0.0001660724612271519 7.657033198718684e-05 -0.004991268212242997 0.012946273236061729 0.36950111606395647 -0.8858603470485624
0.179 0.6755082915695956 -0.6013136475701256 -0.00017252195007803382 7.475226785987484e-05 -0.017622629639116785 0.022329395570568313 0.37104009675957395 -0.8888932067122888
0.18 0.6731622252324995 -0.6020571890034524 -0.00017170821436236568 8.053312724998641e-05 0.0043149689752808775 0.013837490588220269 0.3589798617920362 -0.900030488393113
0.181 0.672504568929361 -0.6049058639693145 -0.00016358771304644928 5.7800659749098136e-05 0.025608055330886136 0.004419266528603198 0.35589490251645545 -0.8921899061252647
0.182 0.6740249109026776 -0.6105992689777751 -0.00018798262196963002 8.220526800809897e-05 -0.004427787497840242 0.011765151730191771 0.3435036910550073 -0.898599986691276
0.183 0.660099913915149 -0.6115640153669805 -0.0001586906241608396 8.95552943529773e-05 0.020868996705158797 -0.02048663111566067 0.3359623952655244 -0.8931439348687348
0.184 0.6593263503640782 -0.610633308796623 -0.00020654107208163583 9.703078395151766e-05 0.011737710537142015 -0.0042171456209954584 0.3321423628445628 -0.9040156154880779
0.185 0.6558956174853926 -0.6162885686659977 -0.0001866834997094828 8.443852400441978e-05 -0.020055470277569702 -0.0029051387508421387 0.3318666656125275 -0.90406027262962
0.186 0.6576305843448387 -0.6152592264879931 -0.00016762855957316064 0.0001161195239372593 -0.004656056390280592 -0.004893569421003371 0.3331928658242661 -0.9018744184158687
0.187 0.64581014647501 -0.6184272725857544 -0.00020585470746584835 0.00011029290041607725 0.004143560069221234 0.0030655516945336256 0.31619933966581404 -0.9060659917012174
0.188 0.6502675240311798 -0.6196170508396761 -0.00020587812485846297 9.808131107230966e-05 0.018176058157164728 -0.002401198927401901 0.30718872755233667 -0.9073126229230316
0.189 0.6464405994207097 -0.6228828901898574 -0.0001960850009049958 9.300121693147795e-05 -0.0006329699915247252 0.020646872605780197 0.3095005851178756 -0.9083287347033535
0.19 0.6423530621364495 -0.6254495469238553 -0.00018971323314905883 9.406442013743547e-05 -0.018057134489960627 0.023840972018634072 0.30535215068123917 -0.9128787789225008
0.191 0.6438311321291974 -0.6254434965418717 -0.00018538053158953082 9.088928717646265e-05 -0.006048048781762427 0.015361930098336935 0.3003789068414815 -0.915733958684196
0.192 0.6374562194730993 -0.6273196909956433 -0.00019259998360053615 0.00010944411852771254 -0.00606392801863813 -0.0029454223400065685 0.2931303047368792 -0.9173873296812177
0.193 0.6362558910608812 -0.6321226865429905 -0.00021203301527704708 7.997570626812187e-05 0.013505428906002228 0.006603484594513688 0.29083379323857583 -0.914323421865761
0.194 0.6312475765001698 -0.6262221498022997 -0.00020508536834529275 0.000102757154077029 0.011413353815741965 -0.016028747183743985 0.28638705788823277 -0.9189761023819808
0.195 0.6277513092837191 -0.6339055857555235 -0.000213747182647834 0.00011573400953101136 -0.03570992319102691 0.006957469461125388 0.2788148023062628 -0.9151349988869903
0.196 0.6288915706393118 -0.6322963221361227 -0.00020794124146109537 8.692374329184662e-05 0.001495489707096579 -0.009000917891598398 0.2719054713524913 -0.9200831507377707
0.197 0.6267085013920525 -0.6356036962513002 -0.00022570422005522623 9.070159670978926e-05 -0.0036232237654982955 0.0036472723537952466 0.2641254375607783 -0.9212494679567392
0.198 0.6225669544126121 -0.6335023179178165 -0.00021114490409471234 0.00011381514155079445 0.01325839327216651 0.014532061236455174 0.2608762726622248 -0.9220592238922779
0.199 0.6136157511684508 -0.6359871756336212 -0.00019560408640953487 0.00011758105088499053 0.00813016050399184 0.01201549718500784 0.2585100649418371 -0.9252116511331021
0.2 0.6132745359471357 -0.6378557806807755 -0.00021662243379441426 0.00010681697834720237 0.004162195808608272 0.007848123197819957 0.2533261869636549 -0.9224538770384032
0.201 0.6074956696384727 -0.6402640485216609 -0.00022706014542744007 0.0001249213318192324 0.001997956910668811 0.007006693778612794 0.24683845727542994 -0.9279787390320772
0.202 0.6088827169950327 -0.6425324720551702 -0.00021284857093204846 0.00013416371348614156 -0.028154230425047794 0.01862801555297588 0.24203701721912332 -0.9269512895387757
0.203 0.6012424068286524 -0.6431843351196849 -0.00024547671510945034 0.00010437528100266927 0.023075244178196595 0.007205646092357125 0.23137068253093568 -0.9343683017435377
0.204 0.6010396903461355 -0.6483590444826435 -0.00024567551953813506 0.00014933518863653584 0.011557446226162591 0.022933569248875147 0.22954578635675818 -0.9277168773269057
0.205 0.5991821171386741 -0.6474215756005209 -0.00020444149632292937 0.00014298883505571997 -0.01383438338470899 0.004963980403031452 0.22629710310292642 -0.9276619163134856
0.206 0.5936412198098632 -0.6485005698030164 -0.0002048924586090587 0.00016229479857279557 0.020985334251565714 0.006588534014721345 0.21672169226440038 -0.9271656475251375
0.207 0.5935267089185555 -0.6520529405220482 -0.0002032014697063316 0.0001252715448509702 -0.008208482058403622 0.011932468793826454 0.21014106521163745 -0.9319033745977323
0.208 0.5936882901316121 -0.6499127124055467 -0.00023787231266920718 0.00014618683553961447 -0.017027591421299525 -0.021328214312350647 0.21029106360032404 -0.9280998740220884
0.209 0.5834169093593439 -0.6574473687158748 -0.00019729757507870268 0.00014706033946195463 -0.00032373732398081445 0.004038900488403642 0.20574223833201039 -0.9274554042335461
0.21 0.5893003128638976 -0.6555220642484518 -0.00023999336052794965 0.0001125273685460782 0.011313058135299429 0.004324920243002421 0.20054751914252178 -0.9323804207465377
0.211 0.5868084881762312 -0.6566631566949912 -0.00023656075916113876 0.00013481459951987187 -0.005898547107500051 -0.008517566756247708 0.1903073483196281 -0.9416360970224011
0.212 0.5761206040499856 -0.6600040944486133 -0.00021196805741938583 0.0001433742690244688 0.004342177650874996 0.007481558901900405 0.19696651460879644 -0.9438959351887989
0.213 0.5853912781375401 -0.6624597122727726 -0.00024077490753238976 0.00012119088883898922 -0.009600782310048347 0.033529996694286524 0.18017678135345352 -0.9376104110184024
0.214 0.5676620292881982 -0.6546912538697827 -0.0002185421359158775 0.00013538326032389811 -0.01304488601650157 -0.013211034073740151 0.16926317260762477 -0.94396682563617
0.215 0.5770333827644174 -0.6620528185776156 -0.0002511662379012091 0.00013174444562371915 0.0053974672601198315 -0.020729713859790083 0.17471500245804936 -0.9366728455568626
0.216 0.5653450405852579 -0.6600595239627012 -0.000237972023631265 0.00013635189455123376 -0.01642143282622806 0.014222869090670423 0.16592206212580757 -0.935167133646024
0.217 0.5614070204030229 -0.6695168268582916 -0.00024580636073144477 0.00015724007359945908 0.0044744092491005244 -0.0029240404595907267 0.1587806123466579 -0.9432401679404816
0.218 0.5608161613575318 -0.67081142081611 -0.00023067045490722418 0.00016365771201037158 -0.011188114727566213 0.003562309949656406 0.15225890282437143 -0.9471290534255902
0.219 0.5580923462002195 -0.6642433295251885 -0.0002496233777889291 0.00017070221285574313 0.014542003514115472 0.006394543448309682 0.14656365909157051 -0.9341505299295134
0.22 0.5555516950916886 -0.6706275718007936 -0.0002579060082782842 0.00015989590231418554 0.010183703364398389 -0.012542765266808512 0.15204737334489946 -0.9397171469510167
0.221 0.5492331119636437 -0.671721255637217 -0.00024177156320638686 0.00018554814618446688 -0.028404557209394575 0.005332867963996748 0.13756179072581917 -0.9430800481667965
0.222 0.5551114225226351 -0.6725956740283062 -0.00024351753871966293 0.0001746310342686262 -0.011713704249230154 -0.0004329404613675864 0.13299967392805392 -0.9395681778908301
0.223 0.5463030100708774 -0.6712121841846301 -0.0002628272371232556 0.00018046224635058614 0.0005752498232420763 -0.011940639517721166 0.12249673429803588 -0.9370587456743515
0.224 0.544531199946009 -0.6686058658562232 -0.0002212670981854614 0.00018567842714985929 -0.0004338371405209527 0.01190159876603829 0.12259026833667626 -0.9425417428544236
0.225 0.5329181526858942 -0.6768764927511124 -0.0002594658433508339 0.0001760788029008826 0.0028364951071989286 -0.004869526937676994 0.11671702379584517 -0.9432210130224822
0.226 0.5310454269389681 -0.6727652109315435 -0.0002425192113641461 0.00015297102717894568 -0.01273380786441297 0.002139131380418711 0.1119390894603277 -0.9396153686392856
0.227 0.5322314231122245 -0.6746131885348354 -0.0002429797775591517 0.0001561344767092457 0.017914575598655898 0.013660683074346185 0.110135787452401 -0.9396229037306604
0.228 0.5293319299566621 -0.6745673457860052 -0.00025838150901800664 0.00017373041920440454 0.005579812606582364 -0.010538865577203528 0.10423922241951261 -0.9390085167595671
0.229 0.5264458690648253 -0.6806933240632879 -0.00024016577147208503 0.00017908591479274944 -0.005791227947507641 -0.011647982111680388 0.09600697323915641 -0.9440137690338986
0.23 0.5286509616018444 -0.680567134812254 -0.00026604119226758733 0.00020196498543714858 0.0006409439834597644 0.02070937728491273 0.09124987182931714 -0.9439511565411368
0.231 0.5199230081631034 -0.6780076138465616 -0.0002538114625090755 0.00015870613204470343 0.012936279460532038 0.004221564360286309 0.08402254697298743 -0.9449096661812515
0.232 0.5227638262976705 -0.6843725910106702 -0.00025263969401176383 0.00017154157207239455 -0.015190403791722004 -0.01336825667194853 0.08140993956361246 -0.9420060752482897
0.233 0.5180668435420689 -0.6786173787524018 -0.0002589862295586261 0.00018976529189393152 -0.009413431195612264 0.015808999865719514 0.07485508144472958 -0.9433695655263812
0.234 0.509784451861413 -0.6850507924053129 -0.00026435560376242365 0.00020886324810498168 -0.007210116459955002 -0.004154960176487126 0.07153355168946932 -0.9425541613539128
0.235 0.5111245661684182 -0.6830870485962619 -0.00024815553198756946 0.00019557586837208368 -0.02228452660024319 0.01524233060168794 0.06517873767973112 -0.9444615022212695
0.236 0.5077499738700412 -0.6850215361554698 -0.00025603519963216404 0.00020505927918181054 0.0133082922157095 0.002098637553800924 0.06195286516104453 -0.9446967474767342
0.237 0.5028851461934715 -0.6862160967913821 -0.0002455520918877952 0.00019898666892907138 -0.003090961877637773 -0.01680362630998284 0.05798708575402979 -0.9423175280305801
0.238 0.5027610324805535 -0.6873872509283626 -0.0002839063957453138 0.0001963397703360221 0.008981537543350536 0.0016140844099473937 0.05380510259440116 -0.9411206489018163
0.239 0.4996025854989693 -0.6897939685162182 -0.0002513254482164167 0.00021162751032214043 0.012146030816032811 0.007685376342606312 0.04867511742809023 -0.9433556178040476
0.24 0.49487591826754523 -0.6859308011644483 -0.000283310794990526 0.00022886527087449696 0.007013490980186336 0.0057044932513136345 0.04376918358355465 -0.9423925263703209
0.241 0.4898211652426296 -0.6893995927017956 -0.0002728080974574677 0.00023975814080653027 -0.00665898382066372 0.002966117302025719 0.032207301168351465 -0.9418085939146807
0.242 0.4884774479443646 -0.6954477473473427 -0.0002663737836381816 0.00021057541043561432 0.011500495463919218 -0.006403000984510323 0.02847461060440544 -0.9425172312286902
0.243 0.4843667124290109 -0.6876521085847809 -0.0002806592072976944 0.00022402421556442994 -0.002670977065640061 0.005867622695934292 0.034795650160334236 -0.9362123817419731
0.244 0.4823148400178123 -0.6933869694802427 -0.00025597849368314023 0.00021730468251553793 0.007059238046351216 0.0017542820711745485 0.01869673355125115 -0.9385937410513748
