!Created with skrf (http://scikit-rf.org).
# GHz S RI R 50.0 
!freq ReS11 ImS11 ReS21 ImS21 ReS12 ImS12 ReS22 ImS22
0.13 0.806648921919111 -0.4849197727442751 -0.00010372063117117404 -1.1779544397066557e-05 0.06460250584633188 -0.032490957136096996 0.6402436583988695 -0.7466384211247452
0.131 0.8066320170996751 -0.48837089900121805 -9.301216280737167e-05 1.6795876104697576e-05 0.015014565668103441 0.016891449958233204 0.6362196284359098 -0.7550575460042619
0.132 0.8049373857478038 -0.48649816151196484 -0.00011019666435951048 1.0014606788889188e-05 -0.018183162505756714 -0.047743973750841856 0.6260977158097666 -0.7578462930601256
0.133 0.7963270750831914 -0.49334971586350423 -0.00011006468193971022 3.082259777913287e-05 -0.02405926206546068 0.023853533599515822 0.6249624443941835 -0.7535085764203479
0.134 0.802923378470672 -0.501002387297428 -0.00010620098354211997 5.284348696186631e-06 -0.04116239946796197 -0.019367810644061508 0.6201433875711815 -0.7644992026930526
0.135 0.8024918783274206 -0.5009951935547751 -0.00011335706533657491 1.81736535781051e-05 0.019319468397262975 -0.023940340868032824 0.6145762911077176 -0.768017280743573
0.136 0.7962968816051851 -0.504139706885109 -0.00011022411261894497 3.51867323432977e-06 0.03278205349916658 -0.03153195435651469 0.6092653013111307 -0.7715965802335565
0.137 0.7967324980432379 -0.5130689486140924 -9.865887413856201e-05 2.1246611963409117e-06 -0.048148263254371326 -0.008429605095313425 0.6034400447572906 -0.7824955689824937
0.138 0.7867853665226645 -0.5075463085179364 -0.00010569181034049794 1.3905591103647325e-05 0.04436793778918382 -0.020159500284143775 0.6035623242698485 -0.7834343772715816
0.139 0.7850693567310085 -0.5125299791552546 -0.00010776208381902865 1.2342774398097446e-05 0.06475735955881247 0.03551456242660419 0.6011735748851081 -0.7775342263037913
0.14 0.7890431130055683 -0.5158731584270903 -0.00011072019943958084 2.80280059384565e-05 0.008445034168035383 0.001468041990691994 0.5921514760949346 -0.784650973230298
0.141 0.7796295309598642 -0.5159993790233232 -0.00010267901217542535 1.0180294578022837e-05 0.05748948965456749 0.002650808209657856 0.5805459617622823 -0.7861506142310702
0.142 0.7792879352422158 -0.5213671917239618 -0.000125624766218865 -4.447767101398753e-06 -0.00964102480707696 -0.0014824432297082886 0.5776864191311811 -0.7860245215824051
0.143 0.7751923027511862 -0.522995944989842 -0.00011717995038356954 2.0869619601506664e-05 0.03627902463557482 -0.01645962395256283 0.577995661750984 -0.7970119608131672
0.144 0.7730836599990779 -0.5268318877909297 -0.0001202307489609715 3.385975047051355e-05 0.016382264273484857 0.006154744305217253 0.571502359448098 -0.7994762197638752
0.145 0.7689366232052277 -0.5285860076253122 -0.0001379320868453946 3.3417035495909545e-05 0.015600662809026798 -0.020466070521156364 0.5632907784854155 -0.8023498329209627
0.146 0.7687476652019943 -0.5294207809453806 -0.00012169147948155395 3.976431935427904e-05 0.031571675604807066 -0.005234452523976603 0.562651644928136 -0.7968431154940858
0.147 0.7661390585610666 -0.5311064082027622 -0.00012040183625685895 2.918599285557823e-05 0.03393492422058159 -0.01240943008582015 0.5539927945784248 -0.8020320097118251
0.148 0.7648295784512054 -0.5351551776667007 -0.00012354023335250203 3.627698606008555e-05 0.023722019142899144 -0.02977665809872546 0.5569627607579662 -0.8075284685350612
0.149 0.7559944055716443 -0.5388754814737395 -0.00013396344810489173 4.7125254534338505e-05 0.012230570293000358 -0.002111832883142051 0.5465493519013112 -0.8010142287208192
0.15 0.7578862653781753 -0.5405669267923688 -0.00012921623204008076 5.901860001751118e-06 -0.008435476272190254 0.011915266625304649 0.5414780814607412 -0.8147279322372073
0.151 0.7522329630809855 -0.5412158636127207 -0.00012197865727033189 1.375805886421448e-06 0.008830004855807393 -0.0034500715620128294 0.529914936919675 -0.8218257374002992
0.152 0.7473206783984078 -0.5463289905524207 -0.0001285941935153818 4.918986936291695e-05 -0.029073202926325446 -0.0069647761283483855 0.5271258643049926 -0.8211760522769843
0.153 0.7509402272628688 -0.5439959419220628 -0.0001207721960383614 6.119468068838418e-05 -0.01782622631173634 0.020100437141682182 0.531277795002011 -0.8230012393675157
0.154 0.7455759935352181 -0.5499202073719132 -0.00013769915871767697 3.7858655826976516e-05 -0.01583264298244751 0.03129858027792341 0.5135150207974359 -0.8228245065336245
0.155 0.7371898016158683 -0.5517816216019016 -0.00012325769181197285 3.2242825273890615e-05 -0.01741160759817225 -0.007307657371143698 0.5125804659850739 -0.8304027469156682
0.156 0.7369924968780894 -0.5606061172968057 -0.00016214435013687563 3.594781946930896e-05 0.0016203767013197208 -0.012030150721022358 0.5062476885750037 -0.8382992155206754
0.157 0.73369252659464 -0.5590487987893159 -0.00013946880610291571 3.859684596400002e-05 0.01667556081101518 -0.01436654373471764 0.5068430336067034 -0.8357335521686067
0.158 0.7323318975164191 -0.5590761860154096 -0.00014671514871973087 1.574861456836643e-05 -0.00667344070640871 -0.017435099883601212 0.4974299052951435 -0.8385397822669945
0.159 0.7333423507891075 -0.56116525278773 -0.00013767191279043698 3.189515891779531e-05 0.00047586126474815423 -0.002432098955317692 0.4895022489797342 -0.8396784132576306
0.16 0.7258931242789218 -0.5628477043560282 -0.00015589617556998356 5.421075572067058e-05 -0.022129336992639137 -0.047203497970717545 0.4864308251831554 -0.8474884590858547
0.161 0.734780912101189 -0.5669866604678838 -0.00014079080194683455 4.901758507299459e-05 -0.014884104512838305 -0.01856505019197026 0.4770953638168822 -0.8514729711738857
0.162 0.7237182452559189 -0.5699006456420567 -0.00015382297954849838 2.4750912526294313e-05 -0.04330300854522312 -0.006265959668049709 0.48050903811513695 -0.8516389578588062
0.163 0.7208906316406379 -0.5745989346681964 -0.00015739697991298904 4.8837663463149044e-05 -0.038463222134522856 0.023834103363038928 0.47091878747228716 -0.8553495466987329
0.164 0.7140578787180432 -0.5677269765495988 -0.00015982996381263314 1.3705889925911637e-05 0.014277047209726418 0.0210027544535103 0.46838474138052333 -0.8561602963025575
0.165 0.7158290868053878 -0.5763116074227409 -0.00017680658616259484 4.171211201746128e-05 0.027966340569185223 -0.022588355106727295 0.4592488816316246 -0.853650344291421
0.166 0.7143692205503946 -0.5810662557794614 -0.00017004547776717504 5.242853909640253e-05 0.019310296151150586 0.008726683912447785 0.45508015858199924 -0.859028983507524
0.167 0.7092028567869126 -0.5760501418252 -0.00017798916390878702 1.8432249048531383e-05 0.01674839073366059 0.031537148721052864 0.4474070456390573 -0.8598139085516159
0.168 0.7068583876350093 -0.5868948500610852 -0.00016762123816250934 6.626355876650824e-05 -0.0040191345306180406 0.027696433336786862 0.43797758332338466 -0.8668956635153828
0.169 0.6987263034578177 -0.5839385917176847 -0.00019266181568586058 2.6179852733414406e-05 0.012892627436757264 -0.005860492669902482 0.43951490568007984 -0.8678498821981059
0.17 0.6970424562488069 -0.5904643721353716 -0.000181728129069238 4.711943242004736e-05 0.03532112028806172 0.0011967604012541174 0.43581399435482726 -0.8739661212057238
0.171 0.6989586650813971 -0.5942062409933484 -0.00017945776128716943 6.453521223718744e-05 0.0018519350059154238 0.02702527411129783 0.4236158377085465 -0.8711706314009176
0.172 0.6978828603733823 -0.5894807538406717 -0.00017287428438723888 4.2365479023306615e-05 0.0020410868501100137 0.0018585085131131915 0.4216804942838324 -0.8800223789020098
0.173 0.6898955211407153 -0.596752457346923 -0.00019324992573786445 5.55148689730083e-05 0.0019254086760370993 -0.017102213600184976 0.41664538172434756 -0.8733479226499815
0.174 0.6868202963002322 -0.5945908281512104 -0.00015866126152977412 5.1633534130401914e-05 0.01097574683757151 0.008144906424728785 0.4087486024540406 -0.8757888165349966
0.175 0.6803282625657595 -0.596956209688332 -0.00019720837116869852 3.2232451742740646e-05 0.0025567681948944327 -0.017967097227858497 0.40559093305567906 -0.8801972637965291
0.176 0.6803653808235008 -0.6022385272317395 -0.00020679006062385426 7.347916936150016e-05 -0.030012528027578922 -0.007134739075028044 0.3995909427599944 -0.88534228838878
0.177 0.6745131073121513 -0.6022419727213467 -0.00019929335825168845 7.43047280300589e-05 -0.01013710271030076 0.0016345444854006833 0.39471142173778695 -0.8816901830376278
0.178 0.6801403807075377 -0.5989043961389744 -0.00019265015829478258 5.5138157096765826e-05 0.013013951055790972 0.020236471614627414 0.385568600908838 -0.886837417526627
0.179 0.6676338821896408 -0.5939799031040068 -0.0001602686968014042 5.9482283100203576e-05 -0.007581841342092711 -0.0101833219386546 0.38378443281186575 -0.8989637019254275
0.18 0.6726228691795951 -0.611731457200833 -0.00019425182034641376 8.492658179667722e-05 -0.001693686751742323 0.0032859958589588323 0.3817778178419509 -0.8995152835301546
0.181 0.666457869133982 -0.6104345583294457 -0.00019206853090366076 4.954912748957294e-05 -0.016459423205207744 -0.010166137659978211 0.37186522265966837 -0.8973317958009527
0.182 0.6685901936960262 -0.6130573193681521 -0.00019461027197702755 7.187620731607506e-05 -0.004066947390681906 -0.009890090112331934 0.3650695198405763 -0.8890460175736165
0.183 0.6572405539090439 -0.6097107975993182 -0.00018489857928012058 7.664655179564029e-05 0.02150004920146283 -0.01509489668371147 0.3570182180599517 -0.8957382544421942
0.184 0.6607300704715893 -0.6134839114321671 -0.000183238470428141 7.399506804244855e-05 -0.007297136089914308 0.007648061463844706 0.35076652203265046 -0.9106631523582237
0.185 0.649509397631482 -0.6155450206212043 -0.0001975290667012666 5.542455231520416e-05 0.003976782962613752 -0.02073528088746115 0.3544733934425994 -0.9002346557995665
0.186 0.6526126060711525 -0.6198348442209198 -0.00018188302336740833 8.349460928963625e-05 0.017913097503560318 -0.019903346149840823 0.3504549079564271 -0.8973051665936865
0.187 0.6456745251369638 -0.6209007139675428 -0.0002007812802225863 8.673898704817602e-05 0.012029188037442302 -0.002541615984460964 0.3407138144004914 -0.9083839340643234
0.188 0.6427973075263299 -0.618913368149511 -0.00020827797139038928 8.531453503757772e-05 0.015359610581860172 -0.011563339003889245 0.33050331176600495 -0.9063634064024825
0.189 0.6432004289377187 -0.6232289067404104 -0.00021768201664604828 9.719836546158627e-05 0.009202102842981995 -0.014415652988869992 0.32619899253693846 -0.9107583749791621
0.19 0.6371519122358722 -0.6250101509842441 -0.00022796279336604288 6.755070521484549e-05 0.0002613882613190553 0.018272986388584857 0.32250235138083283 -0.9086378607871202
0.191 0.633466445473676 -0.6251285152065174 -0.0002205219618960488 8.452686739886531e-05 0.00025116249637416885 -0.003628849033146859 0.3213232722760637 -0.9135997963884644
0.192 0.6322648417017093 -0.6307453001735 -0.00023110731705330763 7.088301540708821e-05 -0.001885578820071694 0.005657159595654989 0.31310574776358485 -0.9149398448058944
0.193 0.628961502623792 -0.6301954202409595 -0.00020840434472351975 6.58022559672461e-05 -0.002251328543907157 -0.007843951831984173 0.30614254946307595 -0.9140239416297589
0.194 0.6252251241534752 -0.6304781864925328 -0.00018874932947255497 7.843384540271257e-05 -0.017628603957384505 -0.01778673552146449 0.30244396449437033 -0.9163739413208682
0.195 0.6261034928788051 -0.6338060127584616 -0.000214078377485973 8.400522500099279e-05 -0.002676310944762666 0.0132113814734129 0.2965318706023895 -0.9137012755935617
0.196 0.624223819038817 -0.6317538472897731 -0.00022794119866433347 8.777491916158177e-05 -0.020909381822588866 0.007338910944034662 0.2897839166641634 -0.9210269680667342
0.197 0.616855842194475 -0.6392708971032899 -0.00024403926491476033 9.966071969412636e-05 -0.013487050163023068 0.03238087897190192 0.28501885720676184 -0.9216630538077513
0.198 0.6181909682952043 -0.6358565824892026 -0.00023603683219693518 7.884992479126272e-05 5.819348089072072e-05 -0.0015119812820300045 0.2777114483987175 -0.9209626178365483
0.199 0.6076425315153513 -0.6364229043762962 -0.00026561690981546866 0.00011167438140333283 0.01003823165986139 0.0317612309588292 0.27651728848501195 -0.9243390570348812
0.2 0.610513736916873 -0.6396662769648687 -0.0002449462082065762 8.355212646038801e-05 -0.001901447831865765 -0.006513174640810332 0.2712014320682768 -0.9233984484583642
0.201 0.604218878530495 -0.641188995872731 -0.00024307144435357973 9.584375419984292e-05 -0.00036204521336414446 -0.0015585219985999388 0.26319450408904904 -0.9252541164850114
0.202 0.6051181064361725 -0.6444186948647995 -0.00023373089789428732 0.00013678657060274186 0.015215465607927012 -0.012064743003275522 0.2616405099759921 -0.9251266255115895
0.203 0.5972728306842953 -0.6438221998165082 -0.0002528252559053073 0.00013007518282778783 0.0010205870979598664 0.00040929659451927964 0.24576324931061333 -0.9312012241732708
0.204 0.5932324993151944 -0.6488805657564046 -0.00026158172381310195 0.0001275743350835586 0.004292492533989508 -0.010763077486057517 0.24732828237578341 -0.9265251970394679
0.205 0.5999732930425015 -0.646899202839269 -0.0002636734858556961 0.00010860959407347934 -0.005606484529045509 -1.3512960819262293e-05 0.2426100426245071 -0.9297224502647742
0.206 0.5858308597279361 -0.648411184908104 -0.00026286619700182674 0.00013254450938547996 0.006163875739604904 -0.005848594821861148 0.23059580369355887 -0.9308270250726597
0.207 0.5883917014298291 -0.6534705045367175 -0.0002693660666803377 8.384403452081854e-05 0.015459602123292527 -0.004204238162494738 0.23020195778701108 -0.9338798754050103
0.208 0.5880699374873591 -0.655758754283363 -0.00025712124142281595 0.00012452479196912037 -0.00216941308443718 -0.003565443867229414 0.22981270406336846 -0.9280554270794391
0.209 0.5820722823903243 -0.6588141337582796 -0.0002546953515473602 0.00014109461528826077 -0.013384979173542226 -0.0027227532900224462 0.2223771382990995 -0.9259511760828727
0.21 0.582298093727185 -0.6535302807583807 -0.0002631437656400691 0.00014090779713107478 0.019225967785337084 0.0030097314452861928 0.2147370032970656 -0.9379861432432498
0.211 0.5803674697042092 -0.6581531186322014 -0.00027639556823505306 0.0001177105175285813 -0.014292245664987631 -0.008951757444873126 0.20728523562634335 -0.9402568219411113
0.212 0.5728591132885364 -0.6575422185609703 -0.00028469618905636537 0.00013059806562713575 -0.019629373255251537 -0.009290128505586642 0.209773307140233 -0.9419886935261188
0.213 0.5733703150613916 -0.6633276908394979 -0.0002714716144688595 0.00014510753534042347 0.0030751783299999102 -0.005003005511445638 0.20330536899611604 -0.9428619697950659
0.214 0.5627881609869213 -0.6657092857732917 -0.0002587641125838594 0.00011790770659437999 -0.017477992140462247 -0.014841509445158534 0.19285904409819052 -0.9408545949098357
0.215 0.5654807959017573 -0.6602546058310067 -0.0002657755933087493 0.00011726336741237072 -0.0018658974995879444 0.026669578335329975 0.18498978205935548 -0.9412273054451016
0.216 0.5614198692437075 -0.6661948438430048 -0.0002688111270204936 0.00012358765807839363 -0.013869519001853852 -0.0050525219953773065 0.18483360777701024 -0.9408636514430456
0.217 0.5564289670634082 -0.6682090698655742 -0.0002738267220843576 0.0001454152933577328 -0.0013107608155195833 0.017587248302022244 0.17428798715637914 -0.9443946422386583
0.218 0.5538695950717548 -0.6704016924529963 -0.0002582468104152632 0.0001619165343865867 0.0035796803250248135 0.004948812961001885 0.17793098315153927 -0.9474898189929404
0.219 0.5552010171631211 -0.672326143727552 -0.00029290950755634585 0.00012848545247823081 -0.015038940458438465 0.00013964530909100692 0.1642094732561216 -0.9422152573252474
0.22 0.5475409610457272 -0.6682722990577671 -0.0003053369219605613 0.0001336897545992697 -0.01334764191657634 0.0019968062283294307 0.16211191909108777 -0.9454994183690149
0.221 0.5481027925234311 -0.6670868936118984 -0.0002915707091185026 0.00014564396728661448 -0.006700125943837844 0.011581791617759286 0.15775577468037238 -0.944427546468335
0.222 0.5432404702299082 -0.6773608917394599 -0.0002820525272727236 0.00015184225501789134 -0.004309159923256151 -0.010479994640024233 0.14918947708522004 -0.942422082794044
0.223 0.5389531543274407 -0.672664822199115 -0.00029785234305087577 0.00015527644611557377 -0.006583821726738249 0.007743072789247173 0.144498038052772 -0.9417777029479716
0.224 0.5328443376362251 -0.6665805744362847 -0.00029264855614217914 0.0001777088863470349 -0.006955245787822212 -0.008025005046875413 0.1413264836499412 -0.9411044060800511
0.225 0.5374871268880189 -0.6736833268578395 -0.00029032014487538876 0.00017233962933926964 -0.00048119759023486125 -0.003078848072636537 0.13559551235909595 -0.9435033711487649
0.226 0.5258292735682727 -0.6731599882006629 -0.0003025664189781347 0.00016356624713250576 -0.008909473075189493 -0.016102671343399898 0.13328616655546752 -0.944847150115895
0.227 0.5270038934313832 -0.6817012173616227 -0.0002808676185945489 0.0001675002145217288 -0.0167782570323138 0.009105845962614843 0.1284430254691022 -0.9419171321060775
0.228 0.5229646372093736 -0.675556171366749 -0.00027689618773653216 0.00017846794693257169 0.016600788421284134 -0.005654112164576416 0.11879222281927919 -0.9446008377264649
0.229 0.5214844993266897 -0.6811985451258069 -0.00030836776452093737 0.00016791418201204237 0.006658519758011148 0.009061383923346076 0.11284498025208288 -0.9439746796307681
0.23 0.5204422681669405 -0.6813199577560354 -0.0002870851891294077 0.00018732373366414453 -0.00411159393299571 0.012760925939109054 0.11224689964015173 -0.9434153033635571
0.231 0.5197251648121057 -0.6826355943610937 -0.0003005736668943773 0.00015838315990749147 0.008519190110182453 -0.020765975362500712 0.09821062911402967 -0.9492729577588062
0.232 0.5122272181094039 -0.6862054531766661 -0.00029880699032984925 0.00016393150841013834 0.0032154771346894076 0.004636790437827553 0.09982450070087445 -0.9457688390456432
0.233 0.5098027518137745 -0.6787231722130835 -0.0002933163120341776 0.00020082315931285315 -0.00921918323471239 0.008035857302139628 0.09322439940937796 -0.9478983427126714
0.234 0.5057907941565387 -0.6860905075639187 -0.000327711907863202 0.00016218523599314895 0.026522067238396282 0.0004886724974760043 0.08795990547739736 -0.9462146437176927
0.235 0.505846881909154 -0.6858710976357313 -0.0003157856653585906 0.0001725606308841079 -0.002255169184833482 -0.005151512633397425 0.07998509358952198 -0.9496240297504599
0.236 0.4995161366172824 -0.6863165730605345 -0.00031370897923309213 0.0002188676137731966 0.0016187352818339768 0.0027390310580191414 0.0802802462884427 -0.9466570913929793
0.237 0.49659303773357605 -0.6864010186590304 -0.0003144110348726842 0.0001873393895033332 0.008456057949521633 0.00985508543765365 0.07555473963992643 -0.9476434918431386
0.238 0.4962767605089813 -0.6847782591215453 -0.0003193552726310185 0.00016939601300742802 0.003664694791045054 -0.008843694123574634 0.06715036402779284 -0.9477648982919252
0.239 0.49415832796629694 -0.6893440799087857 -0.0003223427513336069 0.0002105286830969662 -0.0057889436698024795 -0.020184035296494773 0.06306649905840457 -0.9458224759300335
0.24 0.48875939140764674 -0.6854209715167816 -0.00031404913302743716 0.00021086843149985255 0.009249720648414308 -0.011932827034942816 0.06105996629216219 -0.9488412556523483
0.241 0.4816243365003462 -0.6930032318863653 -0.00033921552349192036 0.00020216605611326363 -0.018591737929711853 0.004193519166340681 0.05244584475264286 -0.9456746961352559
0.242 0.48509689696618685 -0.694602651444137 -0.0003211910713084026 0.0002279905038353444 -0.006601032042310075 -0.008944727558948458 0.050493408897352494 -0.9476128388797784
0.243 0.4758726955491321 -0.6908800654764358 -0.00033468071015016384 0.00019033207367791965 0.011008557988764319 -0.0026315941672937354 0.04007201586330944 -0.9503756583805403
