!Created with skrf (http://scikit-rf.org).
# GHz S RI R 50.0 
!freq ReS11 ImS11 ReS21 ImS21 ReS12 ImS12 ReS22 ImS22
0.13 0.8099157953825022 -0.48423316229675656 0.15679008679186693 0.2516703246614577 0.1321620057243584 0.22786399704671229 0.8071565122862129 -0.49230640301053913
0.131 0.806474633802922 -0.4882925790236715 0.15561765146327852 0.2530720856964769 0.18469209905881473 0.27108248404791074 0.8102489224236046 -0.49823597395690505
0.132 0.8053541956960767 -0.4891685366233231 0.15928063075588528 0.25592235203530195 0.12896744617152484 0.30809651595017834 0.8031682305001501 -0.4962913297742835
0.133 0.7966197611515353 -0.49213190481085195 0.15987263410461522 0.2550075448382355 0.1660477885779545 0.25613480154832596 0.7998870340197695 -0.5010422570863714
0.134 0.7978324600335772 -0.49952419351683924 0.16088284901308228 0.2558143575394649 0.1295965018471637 0.22269466740979627 0.7985950037897898 -0.5059551473960463
0.135 0.8043956607284669 -0.49979947594553586 0.16694990238651278 0.2572653818168612 0.14577418091006056 0.23612439142255628 0.796493690702695 -0.5048479875716675
0.136 0.7950368686205695 -0.5002602049503159 0.1650876207506596 0.25705697157672736 0.18912847755654186 0.20150418215088825 0.7933982657357608 -0.5140834559651486
0.137 0.791769649493891 -0.5030301235927626 0.16963143033122347 0.25832130503527834 0.21249591798095385 0.238123784291761 0.78880864481968 -0.5156103390545574
0.138 0.7894745624773166 -0.508814495221038 0.1710093619312542 0.2568260299586861 0.12017964703902696 0.22431454761261602 0.7910313746699682 -0.5192463356905666
0.139 0.7922361461299964 -0.5071597622823331 0.17419795838345406 0.25935351116081784 0.17080509512722203 0.21706287876384553 0.7854667854048846 -0.5199927399145583
0.14 0.7831126890672374 -0.5156970442928909 0.17758023627027736 0.2641749169115245 0.19260362119073982 0.24724039752833202 0.7819720803524254 -0.5239511806951068
0.141 0.7807098314871905 -0.515477358287945 0.1784133628405243 0.26465896316241294 0.1646401196622586 0.23434621498618638 0.7691450323175382 -0.5210457319342848
0.142 0.778597281843275 -0.5221692331307408 0.18074130472647829 0.26072383051012943 0.18481770749777013 0.29574802913451387 0.7737554366358892 -0.5238387059224654
0.143 0.7688966215205804 -0.5236943377155591 0.18122439320411912 0.2630259119219623 0.175107108456274 0.30043347797966125 0.7754383138540272 -0.5264251156780482
0.144 0.7769698316004551 -0.5301443348460538 0.18671910021157898 0.26319787407936357 0.18645524877122824 0.2246291603403633 0.7677171879526029 -0.5282146971625085
0.145 0.770501089829919 -0.5301982445121872 0.18904618475360832 0.2664749394273275 0.21671395544070227 0.2449440702536081 0.7754895264820448 -0.5342629862784262
0.146 0.765073931257557 -0.5265696537738991 0.18908787723437978 0.26611875672016916 0.16759119283160312 0.2726528126050869 0.7658694642016456 -0.5326274229157587
0.147 0.76481034239267 -0.5318391117646619 0.19148083258496906 0.2675463640326566 0.16574250065092236 0.2498641388057232 0.7672414042790967 -0.5329280713679955
0.148 0.760164211682694 -0.5321615561831714 0.19275906215705663 0.26948669843365736 0.17480080810063647 0.2671727675030515 0.7600816236817862 -0.5422075274786903
0.149 0.7544223876669435 -0.5332259722630317 0.19719523516082627 0.267422242554922 0.19201265519931665 0.2748311526474028 0.7571750128217379 -0.5340428286287812
0.15 0.7567316665377712 -0.537300278733161 0.19983603214064324 0.2681336015416756 0.20849264581336854 0.22219005159533214 0.757330040038077 -0.5476412787383822
0.151 0.7548536687449832 -0.5405852251085512 0.19971037372665562 0.2729806276289105 0.1824031563402723 0.27929591184506825 0.7420375976664423 -0.5410320337617983
0.152 0.7498950105573612 -0.5486503094261158 0.20188734534360295 0.270781187707907 0.16613676752222378 0.2885425159053539 0.7429226082403799 -0.5562986527113796
0.153 0.7502976249972455 -0.542642144780299 0.20742754158344573 0.2736618701083613 0.18143538588917266 0.260227334514829 0.7479205275911902 -0.5455358315333736
0.154 0.7447164677736688 -0.5518724034680207 0.20773729440101546 0.27320467039939644 0.2146550737762752 0.26064775683847374 0.7385941476580504 -0.5605031869656749
0.155 0.7397234642954891 -0.5511630167354238 0.211664870048608 0.27281240383448246 0.1928189825743506 0.2382758152787647 0.7433918002722756 -0.5666390875397679
0.156 0.7422658724158412 -0.5549950960506493 0.21063692774904536 0.27539123174635866 0.21988663287259216 0.284441444705564 0.7375674553522735 -0.5663843365708325
0.157 0.7359690984775886 -0.5579301349530034 0.2142987052454741 0.27409920672567345 0.19593997760068269 0.28701967356165115 0.7358519642003784 -0.5645660549997809
0.158 0.7328038810268386 -0.5579663754104636 0.21889894983844527 0.2776898842796337 0.2508757110321118 0.23839332838109126 0.7308887607026048 -0.568514035733423
0.159 0.7302893956868844 -0.5629370953000576 0.2192590428645997 0.2755842409472892 0.2216484843327517 0.269738160320809 0.7263697086494657 -0.5694490500027988
0.16 0.727486539950931 -0.5622048746670684 0.22171289542630046 0.27719456186695535 0.19500795381060856 0.2587165358581981 0.727231836208527 -0.5709252817486359
0.161 0.7268230901577561 -0.5659724672528921 0.22484365355424035 0.27897853709644566 0.2197352953313841 0.2217976414493747 0.7194904682913167 -0.5746362119929035
0.162 0.7216878243718968 -0.5643359348389005 0.22576544972355586 0.2784287075766719 0.21559547014563518 0.27402730450982354 0.7190056689406277 -0.5754695697842606
0.163 0.7203030380084906 -0.5714333014301602 0.22765261496480088 0.279972617318533 0.22081041334085685 0.278839112528397 0.7167085112355008 -0.5776664024374972
0.164 0.710148587299257 -0.5635519682319935 0.22836475761589237 0.27770307416846735 0.24432910715226125 0.26172408123708474 0.7138032518197096 -0.5834291464959438
0.165 0.7240521412792983 -0.5773022130522635 0.23151759761441085 0.2819942138149413 0.2451891817434998 0.28937860855708364 0.709919899257088 -0.5817090010631103
0.166 0.713699041976314 -0.5756488980115075 0.23701099806764617 0.279624010480126 0.24953191299166444 0.28834254923955394 0.7102075231210926 -0.5828723786208783
0.167 0.7044559719989375 -0.5764142208584724 0.23709386647914038 0.2815697504823836 0.23927268265206283 0.2686032937642212 0.7036034345525484 -0.5854671768221466
0.168 0.7091834587043685 -0.5866096082974058 0.24136703041302227 0.2815662060993712 0.2362207320093977 0.29377183895854353 0.7010129803922135 -0.5895336161066422
0.169 0.7015739740014176 -0.5843646468867241 0.24417607111265408 0.27902201529050263 0.21843147222610268 0.297412063518025 0.6964416904583093 -0.5940965410025346
0.17 0.6966421196514225 -0.5872210186078161 0.2492862194983465 0.28189375588131255 0.2750497756493934 0.2546357159851122 0.6979789530958099 -0.5958985911217861
0.171 0.6970128848844244 -0.593045035736781 0.24718691907278728 0.2824461208419601 0.23279980720672933 0.29400535216796053 0.6887900314908095 -0.5965171722205553
0.172 0.6981880359790437 -0.5872917011669603 0.24917005638508372 0.2822684309665912 0.2389411261141205 0.2660786090814034 0.6907346146030733 -0.6019204346150182
0.173 0.6829407900496297 -0.5881778506242182 0.2512805693099845 0.2818488819704592 0.22930593031593968 0.2838507434792839 0.6883594742598139 -0.5982520636426767
0.174 0.6812951875212779 -0.5957528205898419 0.25550390715995613 0.28125529792232307 0.2510824411070893 0.22084127031493678 0.6801997672157732 -0.601735318710563
0.175 0.6779307785222086 -0.5983341585747496 0.2563339777250538 0.28012719256093027 0.2596418022664385 0.31274107617967306 0.6835378231237262 -0.5961980968043147
0.176 0.6809120300973502 -0.6028139978618633 0.26239819865186104 0.28230364622401427 0.2645539811251465 0.31297046488103386 0.6775818495247563 -0.6152828757178775
0.177 0.6766393224851094 -0.5982730179474269 0.2605719796914911 0.2812213987841781 0.2382304372369069 0.28274095446793585 0.6727940364497913 -0.6066424542096883
0.178 0.6841481489388047 -0.5968257621069905 0.2648452753924517 0.287388159793335 0.2592436007998961 0.2786910763316162 0.6684969442202291 -0.6062660312531328
0.179 0.6656055810438604 -0.6029882195577629 0.2678557620849891 0.28118119902116245 0.269819592460055 0.30515585639284953 0.6663325690556972 -0.6185428689822149
0.18 0.6735270523776961 -0.6008919478511833 0.2695404232879903 0.28342427114910584 0.30160076232088934 0.2836788547774006 0.6636450983077415 -0.6150864811868595
0.181 0.6673529256194562 -0.6086808531608489 0.2727043817216039 0.2841106416714974 0.2531331829596422 0.2979955673806476 0.6584998034058904 -0.6191750460837484
0.182 0.6608698848839306 -0.6065425225467621 0.2731203914074489 0.28398317891837993 0.27465329161896324 0.26589766790326025 0.6571973743515442 -0.6171785068646191
0.183 0.6600808640776384 -0.6128561051363972 0.2760618336866021 0.2849074468764505 0.264960829065355 0.3099518821524477 0.6490919270670384 -0.6178101013388545
0.184 0.6548515767895896 -0.6108214899409123 0.2786721683143938 0.28387585803991866 0.28316931141341195 0.2966902685912808 0.6513160376788775 -0.6270160323760686
0.185 0.6564766300782661 -0.6144577798258587 0.27922650833884 0.28448916693893095 0.32371964943139603 0.322302721055513 0.6474326685242443 -0.6301333150823619
0.186 0.6575209455840518 -0.6158670978343976 0.2821112797621253 0.2854567653233351 0.2945614894986149 0.3096968203169449 0.6484183996155203 -0.6252642365281603
0.187 0.6467364078507488 -0.6175703872617107 0.2858759219426524 0.28355114927630337 0.30245698814726796 0.2737273255002957 0.6384635669062467 -0.6324941301629083
0.188 0.6414670646388678 -0.6240265820229058 0.2879700444432695 0.28529185578838173 0.3065605557894376 0.3249327886360725 0.6374428875394638 -0.6336878434446163
0.189 0.6421934197384135 -0.6225525326886566 0.29040650806679014 0.28697206850311313 0.2795917360857979 0.2895514854404294 0.6336337936170633 -0.6374199513288112
0.19 0.6387795652556836 -0.6246703091271925 0.29411108041116213 0.2830682556525519 0.2725803774591705 0.29463010520119176 0.6321140594651686 -0.6320338203321628
0.191 0.6380510645620451 -0.6269246703082593 0.29632829922947684 0.28701764719008166 0.29593890248222077 0.2915249644778737 0.6300342892082214 -0.6364871043498754
0.192 0.6343281975156675 -0.6288590466457963 0.2966236111738076 0.28724913961470805 0.29972775896851106 0.2848898447781825 0.6289813310037756 -0.6373647596238537
0.193 0.6310920743999281 -0.6308154416065569 0.30097123525581293 0.28572058101643966 0.30438672662940375 0.29803629271016213 0.624793564836409 -0.6378565135680394
0.194 0.6256701708422318 -0.6276292177693233 0.30102612770987 0.2857915588537033 0.2932860096447736 0.30743644099163375 0.6245925925667389 -0.6407487253674964
0.195 0.6248808549489764 -0.6320956262479951 0.30167272501579734 0.28664921373167995 0.31109269475024975 0.3020036259216832 0.6170298873274218 -0.6393447451538791
0.196 0.6247884066278876 -0.6333861985586348 0.3067818632989882 0.2858495477009593 0.28616811865644715 0.2984294885007049 0.6169297658892935 -0.6437489676903001
0.197 0.6199927289742837 -0.6381839681126937 0.3079066983549037 0.2850535206593249 0.2894446979634718 0.311744065400727 0.6126842843352502 -0.6494179047345635
0.198 0.6164124924760099 -0.6350052167681972 0.3107640803086248 0.285870681348199 0.29950312011460434 0.29100259350789537 0.6095249937862454 -0.6478078049279044
0.199 0.6089471467872094 -0.6354565488618371 0.31207330879917156 0.28358218382794426 0.32574657777003885 0.3000091900362733 0.6105151842671716 -0.6483529774083898
0.2 0.6089517992873594 -0.6396432789583176 0.31437291252822813 0.28511153845755155 0.31528749114876137 0.29014330756654855 0.6058721423852714 -0.6513931878592486
0.201 0.6031986494582955 -0.6401414693034133 0.31847887212644355 0.28427794192612355 0.29922618648187527 0.2699134648401834 0.6010648152241594 -0.6544646808307379
0.202 0.6071171283414756 -0.6456722169197386 0.31842545000489647 0.2873929228841114 0.3176154038985672 0.2855052991266728 0.5989934557569502 -0.6515734969787892
0.203 0.5953009587733041 -0.6421518604969745 0.32326303307545173 0.28418355477064144 0.323722856243017 0.3025674433893497 0.5928288287243141 -0.659987330273491
0.204 0.5966047762668443 -0.6470848204187032 0.3259830673392836 0.28225199153993297 0.33668050813554395 0.2870516192473381 0.591834428048854 -0.6526883638283352
0.205 0.5970467642485809 -0.6468733631902895 0.3283499288475448 0.2840718814064493 0.3262746444742708 0.295367347920864 0.5906994877859563 -0.65582877862825
0.206 0.5901787744793296 -0.649239819972726 0.3290406429611749 0.28541896109787196 0.3064621786174359 0.2594172723443099 0.5830442828399051 -0.6589246338470057
0.207 0.5870039633252029 -0.6498513534334772 0.33081592397186543 0.28218180928626624 0.3253110094091601 0.2874846088404776 0.5783185622217464 -0.6621029502727243
0.208 0.5870250662919663 -0.6543364235067506 0.3348570202286846 0.2832894600705127 0.30953657877858726 0.2602081927867818 0.5794923691740702 -0.6576164888547608
0.209 0.580721779232188 -0.6560964537541454 0.33573783230756177 0.2842905391113151 0.33784894789742 0.27086947687875584 0.5758953337891713 -0.6561841327935517
0.21 0.5855963961880031 -0.6519077542776355 0.3429868252949924 0.28270451203048713 0.3511600298834158 0.2938206159905 0.5734600268895013 -0.6688651660127745
0.211 0.5826678642803471 -0.6581787512209073 0.3422489388759031 0.28214711133291304 0.35290109744648396 0.274631234506927 0.5725910082300493 -0.666696729398509
0.212 0.5761490260380899 -0.6578409278046178 0.34179172041008266 0.2822765168547786 0.3468277287560796 0.2771804848760247 0.5726012816547128 -0.6692115910850268
0.213 0.5761005725633949 -0.6580103739438503 0.34652618132363944 0.2877711690685008 0.3560982077360528 0.26411879249864895 0.566474628125842 -0.6666004185283846
0.214 0.5655421276609115 -0.66325684091675 0.34511998145016703 0.2824443272871678 0.3633280522776862 0.2924157749985727 0.5572192081884034 -0.6687529056863658
0.215 0.5722172322224736 -0.6610073778816582 0.34850788020453066 0.2838313619641737 0.3546257145188628 0.2737674880226197 0.559737147718777 -0.6674251875200106
0.216 0.5642312576674317 -0.6627455991745193 0.35134376403980594 0.2789521386686875 0.3573310781556734 0.29998995518240024 0.5548924741643919 -0.6715015436105338
0.217 0.5606709884449558 -0.6586965286457742 0.3572846173719264 0.2776418259570903 0.3275425433962841 0.2848284566076403 0.5562138444364484 -0.6779645071654798
0.218 0.5601555928107198 -0.6668955849978611 0.3595468292189976 0.2822597236512887 0.3532930021410244 0.27965165400811554 0.5506220536949238 -0.6731200789919057
0.219 0.5568193784714673 -0.6747440908987072 0.3606413030846326 0.28313873526035255 0.37306624811245154 0.3170001349399549 0.5422186218061844 -0.676969724566237
0.22 0.5525881619007635 -0.6709313098092113 0.3595673062165193 0.27923231739443855 0.3505119345658351 0.26208800389389264 0.5401887072595781 -0.6722026686858071
0.221 0.5433991993863962 -0.671506500148378 0.3669086253363194 0.28082701324977744 0.361521540658313 0.2702677278716411 0.5390105412439213 -0.6830223034907037
0.222 0.5379091699743113 -0.6739327250324343 0.36512733068679937 0.27866493957512145 0.35083684374301904 0.287602416631969 0.53473951782365 -0.6763292287289101
0.223 0.5396484986803841 -0.6717936997780686 0.3702297524166957 0.27825210495118924 0.3583540336203054 0.2613580937159425 0.536368032118498 -0.686900733690485
0.224 0.5384898261968424 -0.6701226363828225 0.37177941160525596 0.2804118884641874 0.3767810649980989 0.28536572769321733 0.5320499427218882 -0.6816811363176274
0.225 0.5334895929424764 -0.6733969546055675 0.3787847725622683 0.27822748977054784 0.3655581877168021 0.2633947590083874 0.5285733961973628 -0.6834341435309765
0.226 0.5281942245033406 -0.6771346492601079 0.37541426249434556 0.27911148217505655 0.3620596425339229 0.28628913815396617 0.524291445663202 -0.6772343902992117
0.227 0.5256691806973214 -0.6806318735952837 0.3789629844300451 0.2774232845264295 0.38172174947672705 0.26212085869487867 0.5218626649280409 -0.6872078381757013
0.228 0.5281663576785058 -0.6755118233019881 0.38097007620238116 0.27599308732563166 0.37214183969582487 0.28868596542124936 0.5160159975470014 -0.6842699115769402
0.229 0.5186879755785359 -0.6808377266702598 0.3812140879643194 0.27661781414050324 0.4049410713269808 0.2790692307922183 0.5125644339818308 -0.6884045126898927
0.23 0.5179816087885407 -0.681948897237225 0.3862827164879133 0.2748131259186498 0.3852389168131901 0.29923589654694654 0.512199182479446 -0.6881286252316822
0.231 0.5167288514098095 -0.6802341752837844 0.3839484295612281 0.2765596746742937 0.3680159149613071 0.2751008722793179 0.5121893605700741 -0.6918654013005153
0.232 0.5102923331891289 -0.6857240399356943 0.389180002114388 0.2756866105827541 0.3904332725783555 0.2894340638837506 0.5091501168264707 -0.6895515775174873
0.233 0.5145699073613643 -0.6815001768132468 0.39091094701008017 0.2739085884901231 0.3888063613022181 0.28379240257642485 0.5046382307483696 -0.6916384728552093
0.234 0.5075043855749385 -0.6827937101944519 0.3933259379762393 0.27369864651775117 0.40880235037896656 0.2669498184057669 0.4989987805402357 -0.6946449578790468
0.235 0.5058171490293596 -0.6842590868367293 0.39460278274238125 0.2728119845525866 0.4018827572685869 0.2844106633493796 0.49916579528300037 -0.695824965949688
0.236 0.5008312002879974 -0.6871573516716161 0.39611500776739095 0.2710689117685207 0.3912637159813616 0.2605189063092364 0.4960474375638178 -0.6949184158656216
0.237 0.49846262257941104 -0.6872335526637817 0.40110684785538464 0.2702389833289931 0.4004793861740024 0.2657064129515014 0.49435386864968883 -0.6946954338046611
0.238 0.49597089012902723 -0.6867573327376046 0.40089067375079074 0.272794073380842 0.4145526247720358 0.24438141682926548 0.49150835394362374 -0.6941553319832068
0.239 0.49362879963569584 -0.6909743527463152 0.4021630069411515 0.2706420532087772 0.39632193976048063 0.26779218637894636 0.48823716512363463 -0.6982386171710974
0.24 0.4884928350456128 -0.6857742313128056 0.4052355529340805 0.26955654162521253 0.3959404240260448 0.26953610373125986 0.4834810296645829 -0.6967247342479777
0.241 0.48183910661750146 -0.6901815144198311 0.4044139293524569 0.26463864182526886 0.4098701928913635 0.26975627133582863 0.4793314675770084 -0.7001303317961947
0.242 0.48306284772519736 -0.6938388381337891 0.41434575870576634 0.2665364296678038 0.39166977990223023 0.25223800002834934 0.47643972243358157 -0.6970681969254905
0.243 0.47848745129997633 -0.690356355416172 0.4138541005497125 0.26785214087920023 0.39797802599690124 0.24066457600485433 0.47475079049208846 -0.6958387052302439
0.244 0.47763733143799475 -0.6904418361802545 0.4163362428136043 0.2669119657213684 0.39610864968609016 0.25043465756915534 0.4682101960646297 -0.6974274748546228
0.245 0.47344737644450374 -0.6942087144224229 0.4167750409036841 0.26444037027989215 0.4260132412535078 0.25679024262893485 0.4692039961861353 -0.698717072079128
0.246 0.4726436606347317 -0.6949153410154131 0.4197496305059025 0.26267750941799844 0.4178720240127435 0.25815941395777803 0.46948584308776126 -0.7031707915922749
0.247 0.46580263307357916 -0.6890503971089176 0.42517067609598347 0.2584837325124037 0.42422958921276405 0.26254876071271255 0.4609588934677714 -0.7020467813984518
0.248 0.46279568172950925 -0.69595016152829 0.42905939126824855 0.2559751564062741 0.4292178573814685 0.2542819646693038 0.45305865547904955 -0.70724968370835
0.249 0.4632308791361567 -0.6987184641070358 0.42536146641602096 0.26153431387622256 0.4357677002483581 0.25600745586295226 0.45589850645569246 -0.7079193958360447
0.25 0.45924276137906345 -0.6970302426477719 0.4310174184413953 0.2578217156219321 0.4557601762642796 0.2669015525961763 0.45932519524310494 -0.7061302381423906
0.251 0.4589075800692278 -0.6962767566034964 0.4294324999169508 0.2608721312135782 0.43243475054822994 0.2531746172909337 0.45083660017345256 -0.7092211554598445
0.252 0.45078319858898225 -0.6961029558864009 0.43005788872576417 0.2628533982458434 0.4311266427682726 0.26128266724568167 0.4456454498090215 -0.7015812815221989
