!Created with skrf (http://scikit-rf.org).
# GHz S RI R 50.0 
!freq ReS11 ImS11 ReS21 ImS21 ReS12 ImS12 ReS22 ImS22
0.13 0.8079619267553287 -0.48818540979327196 0.15259717069374917 0.24652423916841334 0.11491174650667056 0.19205949277260673 0.8054890601367922 -0.48813657692075935
0.131 0.8063717821107131 -0.48158340377819153 0.15329736504140848 0.24984420067293642 0.1701132112359509 0.2861107903823928 0.8074891607345484 -0.49557223451664995
0.132 0.8163443404042331 -0.4838062792927353 0.1557149200866579 0.2509754827730641 0.13898638506388203 0.2021135489452345 0.8025730499762425 -0.4957615863237456
0.133 0.8060651688895898 -0.4898451945722027 0.15800536119585423 0.2501417872061097 0.11857365195648759 0.2721922134388694 0.7990395965580906 -0.49690442706599697
0.134 0.7988479733529812 -0.4957933611085487 0.16009012103231007 0.25363999458740977 0.16662875885495285 0.271966364613586 0.7951775842515608 -0.5048029902326161
0.135 0.7992037540366228 -0.4938168861600432 0.16382562973970108 0.2533896925846914 0.16390254403986684 0.2605253430960312 0.7966902897066923 -0.5026686961471457
0.136 0.8014587612845802 -0.5043354309999849 0.1635086764942386 0.25262509433415253 0.15512280585509636 0.24265633376591272 0.7909351208340151 -0.5054862248110575
0.137 0.7961531404896176 -0.5032012355924249 0.1671454446971126 0.25483975294794553 0.17764720281885613 0.2154695388888953 0.7888446575276997 -0.5135945821724563
0.138 0.7898651421558316 -0.5019863498323767 0.16878531981761247 0.25453097632116345 0.1797943454763155 0.2493099877771264 0.7928919362128927 -0.5178537359991482
0.139 0.7903240869654258 -0.5030581122471213 0.17234980081369983 0.2565482420110363 0.13149083582685214 0.2868908454266609 0.7838994835972902 -0.5164872284806362
0.14 0.7843505976239636 -0.5088102601953509 0.17510430304863858 0.2581217812740612 0.1555583472196739 0.24193251728454304 0.7832587172079838 -0.5163328923676233
0.141 0.7883598078509977 -0.518391276382503 0.17602582214605653 0.26006047707197116 0.18609282900786128 0.2266917229293297 0.7679524877979301 -0.5243180834899361
0.142 0.7799078266363697 -0.5191327421413112 0.17559018688153694 0.2586141246448994 0.14610016373111356 0.20443962587817174 0.7720788255853737 -0.5246770887907624
0.143 0.7768573404648096 -0.5157579017667955 0.17821489019935746 0.2605036126925931 0.21483659535117958 0.28746513742491714 0.7764035643102122 -0.5288013249958529
0.144 0.7764939134043235 -0.5204470581646776 0.18352884469917455 0.2620757209095891 0.15925669874571446 0.21689308565715407 0.7668819875851323 -0.525681613575338
0.145 0.7761675337474577 -0.5269500293283925 0.1832372188190634 0.2639963133611514 0.1668739513857685 0.28251837595367696 0.76465360167236 -0.5326993692615039
0.146 0.7775001865973827 -0.5270964947442572 0.18547249147583716 0.2629036915783869 0.16744836298359683 0.22319319874184035 0.7654419493522766 -0.5364327449649543
0.147 0.7679671269960788 -0.5292999982742733 0.18767508190821364 0.2631814410193964 0.15648116768320747 0.2686092026832121 0.7567094891907951 -0.5297090499734278
0.148 0.7658636896395506 -0.5297765725341425 0.18992635977913644 0.266492592614508 0.1867601774030775 0.2587507954184747 0.7550108915779942 -0.5402742581709805
0.149 0.7618907493641374 -0.5343263544587599 0.19201885276275416 0.2643713907403741 0.1719183358372601 0.2701373006669639 0.7515211226280927 -0.5374811181681386
0.15 0.7635004593211874 -0.5368806095109085 0.19521084546889278 0.26426830773074733 0.20363674051746022 0.23676588926813838 0.7468247636680435 -0.5386362706357336
0.151 0.7577327824741005 -0.5336539117240282 0.19719725414922631 0.26811686257704775 0.20980265107485974 0.2718093138266932 0.7412891058966465 -0.5433967028093675
0.152 0.754532682668636 -0.544810424696325 0.1993287369184012 0.2671365924245503 0.22673500525208326 0.2456744188330776 0.7407568418271276 -0.5596754886636293
0.153 0.7549555498104258 -0.5418155029711557 0.20363097086456514 0.27137615913275703 0.21649438795596374 0.27544965760859136 0.7440822595421832 -0.542211356011119
0.154 0.7496746809371398 -0.5472833466634357 0.20383774145722455 0.2694845240612242 0.19597993331015623 0.27301234264835067 0.7408599164006634 -0.5626076565769261
0.155 0.7458055394959743 -0.5479635769531116 0.2080162278414151 0.26865362565748213 0.19537285096617563 0.23702810844746577 0.7345550670658852 -0.5604357428327424
0.156 0.7447315943047953 -0.5540265687857959 0.20699201519904914 0.2715845510127342 0.15758192782367977 0.2617715957631523 0.7306704462883161 -0.5631530182814634
0.157 0.7399259645572946 -0.5565832462657594 0.21041816382527231 0.2703195514161077 0.23420362937404413 0.2537253861139893 0.7314064386517071 -0.5633026891541262
0.158 0.7385084211386664 -0.554049945584833 0.21498649144976612 0.2737986109792643 0.22445732050381575 0.25790421528732904 0.7217282761551728 -0.5646755876078362
0.159 0.7336968489451087 -0.559800062569871 0.21470509636813842 0.2729539055440844 0.24998894702229413 0.27096879634213916 0.7239577048298033 -0.5663989165511729
0.16 0.7300485697473975 -0.5629855157667948 0.21766559021553575 0.2734340217593843 0.2117086762377988 0.25287625795157553 0.7246627684874478 -0.5708678388529326
0.161 0.734705946568584 -0.5604199308234814 0.22121203618342655 0.2751440456525095 0.23490831716011074 0.26285644280005377 0.7185845998443797 -0.5738784669780501
0.162 0.7282701377670443 -0.5650434846867347 0.2201649286259768 0.2744168701002315 0.20053733874227672 0.29105630940587257 0.71590524684172 -0.5726755562429867
0.163 0.7239829521632765 -0.5696727149488623 0.22503665686518357 0.27585228288393204 0.2276598307443712 0.3080169834710163 0.7152841387258886 -0.5792272517972917
0.164 0.7239577178577217 -0.5619369291185373 0.22502127308500222 0.27413051453691584 0.22107326214156245 0.2692937990839216 0.7138313756186809 -0.5831097642828837
0.165 0.729203374926594 -0.5673717629035834 0.22861105709593976 0.27820605649798424 0.27852058109698546 0.25310640489344394 0.7050901830731805 -0.5799683754960515
0.166 0.7208447365676303 -0.5727831021969175 0.23223663867911215 0.2750595885312892 0.2250849592505481 0.2720485036285873 0.7058632314465011 -0.5816202343101704
0.167 0.7100103718376358 -0.5696278332447406 0.23296619703699545 0.276785784156082 0.24830938864722893 0.3092824194979922 0.7010903273708237 -0.5831741701120636
0.168 0.7131108386720663 -0.5766353161074799 0.23626929427038007 0.27781833230648106 0.24636062300519743 0.2769875357094839 0.6973873218382468 -0.5887747953265561
0.169 0.7010017052225713 -0.575496947978803 0.23764199928706486 0.27608121832442417 0.2687536890528302 0.27733470505451857 0.6916183118398027 -0.5921942418855036
0.17 0.7021104263853993 -0.5897627887958394 0.24370010336322145 0.27771656847811504 0.2454146800963885 0.32054292514456545 0.6993937028268176 -0.5911349735826484
0.171 0.6996481406761135 -0.5905297848365536 0.2424906791936443 0.27661858864407257 0.24082868834776663 0.27168599898369883 0.687049326648989 -0.5921007442078757
0.172 0.697258269380637 -0.5808349402427448 0.24405627708023647 0.278163696959581 0.24254543157272787 0.2764014864729347 0.6875160342765455 -0.6007542109350424
0.173 0.7000126366239925 -0.5920989145359531 0.24839196857590487 0.2779204632624371 0.26264664091581835 0.2800290014324264 0.6859781389518655 -0.5959876539886448
0.174 0.6915781600594183 -0.5908082259839647 0.2530202306536138 0.2804349796275829 0.2274106895074334 0.26728479733462074 0.6850838168575659 -0.5973147870422144
0.175 0.6851443059039392 -0.5915492633616282 0.2540523530077674 0.28021068341645394 0.28756707104117757 0.32728534611198357 0.6820228953005477 -0.5990938557157381
0.176 0.6900433770197537 -0.6014583883085345 0.2557868168017411 0.27884658333805007 0.25335699253072147 0.2853856722291532 0.6780739883509321 -0.6100113992188662
0.177 0.6828506547556554 -0.6042633371043429 0.2578290718994798 0.2783330111831111 0.25135891477293715 0.3251190600563794 0.6702107723731666 -0.602722257175216
0.178 0.6844171845009422 -0.5936157041071393 0.26047783284404424 0.2811351088128524 0.296788553872634 0.26624556768401725 0.6638605158215405 -0.6049641175098843
0.179 0.676532209426984 -0.5970473257494452 0.26305940119902776 0.27944091701740525 0.2788824355068848 0.26726428775732275 0.6726714993568453 -0.6163356758519283
0.18 0.6680927869531311 -0.6121407634622629 0.26569026568182447 0.27783466019268854 0.22876603994936937 0.2685180966548529 0.661580488076086 -0.6154048883854158
0.181 0.672786508245363 -0.6083889120137616 0.26971785041154395 0.2798793785903548 0.2745921523063039 0.25024667283495966 0.6591726638061592 -0.6166097302336604
0.182 0.6731433256688788 -0.6058713351558119 0.26986804550729404 0.27819621897135055 0.26767899347231816 0.28853706363878423 0.6501077627479446 -0.6176404131060015
0.183 0.6639244608263336 -0.6107216862905162 0.2724228909790866 0.280639778478585 0.285747954544653 0.2879375296412227 0.6483736249687858 -0.6201226682583173
0.184 0.6580762570929429 -0.6129222493636868 0.2737403074502703 0.27967510508349663 0.25523272284443127 0.27404768743855606 0.6488624122665991 -0.6254035164989009
0.185 0.6602693237328564 -0.61290253457176 0.27510564670509796 0.2831373145351873 0.29411681714319476 0.27358697156995765 0.6437878205235191 -0.6279663746233618
0.186 0.6611900248230583 -0.6188112413514957 0.27939746124325643 0.2805552038200505 0.2837216484803409 0.3205548372174656 0.6492246302564496 -0.6235102207928763
0.187 0.6512151426053044 -0.6167614899020748 0.2821102646118173 0.2813960820472601 0.2732478539998135 0.26698609629938264 0.6428423120865958 -0.626426619762062
0.188 0.6499553100909751 -0.6170303033309513 0.28386739308969744 0.28286153448520374 0.2991152039671116 0.28410355549566124 0.6287348295738219 -0.6324418554349457
0.189 0.6500616879236748 -0.6199105320722426 0.2866605001033496 0.2830700071912422 0.26879380841000056 0.3002641862036328 0.6341784789724069 -0.6359274477260246
0.19 0.6446535597293244 -0.6213013711758826 0.2889360155319796 0.27985630398619626 0.2654430051238775 0.2900403653782494 0.6318384294714169 -0.6329335497217943
0.191 0.641080886634238 -0.6218885940063897 0.29223410677329054 0.28345523607944434 0.2696352135489654 0.28269406797989666 0.6247317027156968 -0.6338459541268369
0.192 0.6392416931180459 -0.6282594415564386 0.2919775818012629 0.2847632691414677 0.2840775129261209 0.30375211729051144 0.6273604541553639 -0.6359723727259763
0.193 0.6334708966559652 -0.6281188391056949 0.2969776039483571 0.2812390582182582 0.28425319958896195 0.31697929921155915 0.622332621951911 -0.6391044932588641
0.194 0.6331552492920388 -0.6251018604962331 0.2960594261626202 0.2835273203066544 0.3002145148839651 0.27693392059859756 0.6232272307462348 -0.6407539297117721
0.195 0.6306382265072191 -0.6314372163540903 0.2969299300532314 0.28276725271342157 0.27668070775183806 0.2807911481354201 0.6191614738135308 -0.637262110265645
0.196 0.63099881233862 -0.6309942670935472 0.30147872476659443 0.2824387174107217 0.27178213585835814 0.29493638953435863 0.6160497627645797 -0.6438038054728535
0.197 0.6236102764463259 -0.6382961954197344 0.3034498639582486 0.2822196215580658 0.2823210053410059 0.2904530605755557 0.609856613506976 -0.6490453881374482
0.198 0.6248293945011518 -0.6331170987956348 0.3050292620980322 0.28219115454863797 0.28466000999901603 0.26597075998552794 0.6086567250963414 -0.6468474037351599
0.199 0.6153609894592822 -0.6362340280631461 0.308707616066821 0.28095440090028506 0.30035102896114463 0.28720441347091036 0.6093948399694001 -0.6469443583176927
0.2 0.6141351797765042 -0.6374741315164838 0.3097440455246595 0.2821326803671303 0.31143316609105276 0.30439042319240933 0.6005348291648783 -0.649409043645559
0.201 0.6110029268062588 -0.6382701683393717 0.31311438655329304 0.28017521888641417 0.3046713272481495 0.2975546566771671 0.5995412144710212 -0.6536504715438238
0.202 0.6090109846894132 -0.6438540609601585 0.3152440867884294 0.2839633606887187 0.303281786557623 0.272708259955884 0.5943542580892138 -0.6521899466925224
0.203 0.6064713330725107 -0.6420899687593832 0.31767248964405076 0.2811869236438727 0.30985859903530905 0.2937769089046938 0.5933521202283072 -0.6614294308749096
0.204 0.6043914223789967 -0.6474616752350196 0.32067263002241303 0.2820587388428764 0.3333868246195713 0.2906805148547762 0.5881947849584303 -0.6540013893100592
0.205 0.602998096132893 -0.6466163269471218 0.3223781093814309 0.27975063789481247 0.30810922536847357 0.2741527161209088 0.5870494900753098 -0.6578968887209222
0.206 0.5927890368287596 -0.6438006168125657 0.32352997300107345 0.2840753362924741 0.31012195043854146 0.2656955960580166 0.5808292555266037 -0.6599008317589516
0.207 0.5993761572457887 -0.6488746527597133 0.32782295619985247 0.27994871089313583 0.3211236440037274 0.2790092449009863 0.5801162554786295 -0.6621694866162569
0.208 0.5916834791123906 -0.6470907445910956 0.32785804881189484 0.2815169962236019 0.3075545381521619 0.27772066031549747 0.5770955745672794 -0.6576848902198797
0.209 0.591445524361828 -0.6492600655637096 0.3322499610075422 0.28197941437691304 0.35950509567456407 0.2752303921382833 0.5728401782656634 -0.6599320487289568
0.21 0.5859756966967781 -0.6542652765714743 0.33679600647171754 0.27975295679634526 0.31143751141725623 0.2705654548618024 0.5726916859902345 -0.6661070846779916
0.211 0.588376658431073 -0.6582962001313895 0.33915251251881606 0.2825556258640695 0.3338527447529048 0.29927680087086567 0.5748287347326096 -0.664954602400959
0.212 0.5854781137172587 -0.657163869603205 0.33812326273629617 0.27931495818081536 0.3230615617838222 0.3047210318914155 0.5710436279839368 -0.6672856340481689
0.213 0.5796156835993602 -0.6561385751046924 0.3406145775993767 0.2832209993832972 0.34943048700434964 0.279152717130777 0.5646503118900038 -0.6665639060878045
0.214 0.5694594578653845 -0.6605136754153921 0.3423753584953604 0.2826734971412545 0.34683228953999695 0.28976962435700016 0.5614404119951079 -0.6728741811832072
0.215 0.5782602901843265 -0.6666971485626912 0.34326725838691907 0.2798928241674324 0.3565767184126459 0.2714298895235906 0.5557324105444086 -0.6730875216075939
0.216 0.5677944073430309 -0.6587302618035064 0.3461909976885568 0.27668989488684215 0.3331249475056452 0.29371146018587413 0.550707579121376 -0.6690815607740196
0.217 0.5663280215203456 -0.6668745462731014 0.3535926499095757 0.27828794596057604 0.3362024535209323 0.30461564878111647 0.5494335238121116 -0.6777240753542393
0.218 0.5620633642291107 -0.6634707927723258 0.35414616043831715 0.27884141357942105 0.3232693071524423 0.27190428547821216 0.5518247260663256 -0.6739323750398156
0.219 0.5584089518406586 -0.6715912809977188 0.35816372427191434 0.2787151375201314 0.3472486397620117 0.29531908834867593 0.5426255817210478 -0.6767099355678358
0.22 0.5560552214972133 -0.6702872296196043 0.3542070038607683 0.27677885493529425 0.3531210467654634 0.2543321262387226 0.5419545153746154 -0.6801413137537513
0.221 0.5543461059653392 -0.6737844114272922 0.35863625518099107 0.2765968833844671 0.36567061339067436 0.2662765998700726 0.5419148838835172 -0.6790860228073939
0.222 0.552242761379422 -0.6738278163483554 0.362078425731771 0.2729312666582811 0.3746677991602906 0.2722778511044114 0.5362875898847566 -0.6733833019904363
0.223 0.5495107697830672 -0.6715864359715737 0.3638220340422672 0.2754573619273639 0.35699613067421704 0.26654843098933684 0.5241523483491796 -0.6797750818457824
0.224 0.5423399336745844 -0.67178455964914 0.36664098601431483 0.277012415619627 0.3485799748205063 0.2765495760966032 0.5303568269389762 -0.6824564413148742
0.225 0.541117226357671 -0.6699870173931035 0.3724384321674879 0.2752317227255556 0.3575919776507579 0.2553973681088641 0.5256680175057561 -0.6861121178590678
0.226 0.5374767945184931 -0.6748443948396281 0.36955645453724256 0.27459049561970417 0.3513519714590424 0.26256780906639654 0.523302242556763 -0.678851560202514
0.227 0.5350550014737353 -0.6782212647506789 0.3736428998973602 0.2742843441963925 0.3803676077920611 0.2731731998999738 0.5155614209191138 -0.6890007655480093
0.228 0.5357527384067451 -0.6808544172062141 0.37705703956548525 0.2727807726742334 0.3596633673510319 0.2960239462266132 0.5206655240841463 -0.6864666168340554
0.229 0.5265015313286596 -0.6778051147486244 0.3766287616143449 0.2740989979358978 0.36182899254514483 0.27466967246435803 0.509888993993092 -0.6870627279137375
0.23 0.5249429778039015 -0.6806681033370741 0.37987515351193135 0.27313453424940803 0.400029527434732 0.25837055756292177 0.5106872774192505 -0.6860186257305475
0.231 0.5243545604452936 -0.678095734736126 0.3794504546547191 0.27422187500513007 0.3706951466961866 0.2555508338385252 0.5084372071310566 -0.693861983473473
0.232 0.5185842421104324 -0.6846797338511047 0.3845041722448677 0.2745610575805955 0.39257909653147205 0.2675842384207158 0.5047014430192585 -0.6897630090895802
0.233 0.5170489244525768 -0.6778999519978475 0.38615486826958334 0.27128570478184577 0.37843919874628806 0.2715005897992373 0.49934079194546316 -0.694112118584607
0.234 0.5143909778907577 -0.6871706656659526 0.3883693613257532 0.27040216150668783 0.37750755237254313 0.26510285067143335 0.4980054755428034 -0.6928529930476937
0.235 0.5118829626479529 -0.6830563834595625 0.38970962604792103 0.27072946298934797 0.3863101226215103 0.26274046724178735 0.49494765948936065 -0.6953315019108004
0.236 0.5066034793390244 -0.6842855453564293 0.3917455573688913 0.26762948896540056 0.3726482294254478 0.26517365998550535 0.49148215879580676 -0.6939830467312313
0.237 0.5047371990097003 -0.6859757113786655 0.3943737683110282 0.26833122204804216 0.39552051215270234 0.2594393256729505 0.4914422513760855 -0.6953756649959211
0.238 0.5037438467859285 -0.6868078132894053 0.39676649271910464 0.2699516727854842 0.37907827751831 0.2545810905625071 0.48746617461475705 -0.6956839470246714
0.239 0.5028246029975393 -0.6885439342472561 0.39713643909614765 0.2659002815497083 0.39331718000172555 0.2530480061370735 0.4827370865525273 -0.6992767554371135
0.24 0.49604031205487115 -0.6854848166256394 0.3991014982767397 0.2643598053367874 0.3955308866450741 0.27144028651179536 0.4822815799454111 -0.6985625714881013
0.241 0.4893296690839938 -0.6900057230784169 0.4026880235908805 0.26241752924620504 0.4165242268389921 0.2578875265288222 0.4764336947274777 -0.7003259553248142
0.242 0.49112991329416655 -0.6959092781020592 0.40862410985484876 0.2645593534750849 0.4095160882668342 0.2519754239468283 0.4732208053905776 -0.6996891255910039
0.243 0.48342964576201647 -0.6893383873399375 0.40823153315773303 0.2665876089715608 0.40079640482727297 0.2580167088871441 0.47233352452889743 -0.695865052317417
0.244 0.4827521390337309 -0.6939636389908981 0.41400488396584995 0.26319897794902347 0.4085154538169764 0.25008307263474266 0.4649751378500762 -0.6979057856417098
0.245 0.4826940332816778 -0.6942600560242038 0.4143418442340823 0.2619741638681356 0.4101708052290698 0.2536380772136407 0.467548904710254 -0.7008076288970367
0.246 0.47908325511694044 -0.697283653607046 0.4172814517412513 0.25989133340511106 0.40971271276557 0.2699055012853973 0.463851975103806 -0.7078413346099599
0.247 0.47632335347836097 -0.6938200236178911 0.4181072183660548 0.25620981855038083 0.42855873437989966 0.27179431606156984 0.4541056944499769 -0.7075408852679235
0.248 0.4708606752763663 -0.6979416485542309 0.4234420677699128 0.2561830483867152 0.400862809755036 0.26964294444032 0.4554749747714227 -0.7066796661783342
0.249 0.4698571950249083 -0.7016474689538234 0.4221057306796159 0.2557737508328813 0.4086503109957515 0.25025112083223566 0.45711168479753467 -0.707040257874103
0.25 0.46804489218964246 -0.6978045153262008 0.42453101355850975 0.2574953039382707 0.4121056087991006 0.24806256656861145 0.45632157453293637 -0.7048105454466477
0.251 0.4686345197394069 -0.7005432067211904 0.4247552248746852 0.25819510685003266 0.41389024633022475 0.23733585770635426 0.4454410627758182 -0.7127538116644567
0.252 0.45292691418625863 -0.6917289921469036 0.42282834325487206 0.2580970503477342 0.4411649532649714 0.2632135680172078 0.4389331516484023 -0.7039581369775523
